! TOUCHSTONE file generated by CST DESIGN STUDIO
! Date and time: Mon Feb 10 16:57:20 2025
! Project name: C:\Work\MatlabApps\UnitCellType2OptimizationMatlab\CST\unitcell.cst
! Tree item: Tasks\Sweep1\SPara1\S-Parameters
! Header version: 2024
! Port assignment regex: !\s*Touchstone port\s*([0-9]+)\s*=\s*(CST MWS port|CST DES external port|CST DES block port)\s*(.+)\s* \(\"(.*)\"\)(\s*mode\s*([0-9]+))?.*
! Touchstone port assignment:
! Touchstone port 1 = CST DES external port 1 ("")
# GHz S MA R 50
7                    0.985591943     -6.21581381
7.002                0.985615496      -6.2374052
7.004                 0.98563792     -6.25892335
7.006                0.985659232     -6.28036877
7.008                 0.98567945     -6.30174194
7.01                 0.985739922     -6.32345793
7.012                 0.98580071     -6.34508882
7.014                0.985861816     -6.36663604
7.016                0.985923249     -6.38810117
7.018                0.986013032      -6.4110484
7.02                 0.986102736     -6.43395085
7.022                0.986192362     -6.45680898
7.024                0.986281911     -6.47962329
7.026                0.986383215     -6.50441701
7.028                0.986483182      -6.5291539
7.03                 0.986581824     -6.55383451
7.032                0.986679159     -6.57845957
7.034                 0.98677063      -6.6049332
7.036                0.986861595     -6.63130685
7.038                0.986952058      -6.6575818
7.04                 0.987042021     -6.68375937
7.042                0.987112918     -6.71116297
7.044                0.987184475     -6.73848481
7.046                0.987256683     -6.76572555
7.048                0.987329531     -6.79288587
7.05                 0.987381772     -6.82053605
7.052                0.987433774      -6.8481395
7.054                0.987485538     -6.87569653
7.056                0.987537068     -6.90320747
7.058                0.987573383     -6.93083297
7.06                 0.987608986     -6.95838461
7.062                0.987643887     -6.98586286
7.064                0.987678098     -7.01326824
7.066                0.987698295     -7.04074703
7.068                0.987719007     -7.06813649
7.07                 0.987740237     -7.09543782
7.072                0.987761986     -7.12265222
7.074                0.987766752     -7.14980706
7.076                0.987772052     -7.17691614
7.078                0.987777883     -7.20397996
7.08                  0.98778424     -7.23099899
7.082                0.987773596     -7.25755436
7.084                0.987762034     -7.28407838
7.086                0.987749562     -7.31057142
7.088                0.987736188      -7.3370338
7.09                 0.987709918      -7.3625115
7.092                0.987682742     -7.38792384
7.094                0.987654664     -7.41327181
7.096                 0.98762569     -7.43855641
7.098                0.987591413      -7.4623909
7.1                  0.987557424     -7.48616197
7.102                0.987523717      -7.5098702
7.104                0.987490286     -7.53351601
7.106                0.987465857     -7.55552889
7.108                 0.98744134     -7.57751861
7.11                 0.987416733     -7.59948541
7.112                0.987392039     -7.62142945
7.114                0.987393748     -7.64217758
7.116                0.987394435     -7.66289752
7.118                0.987394107      -7.6835893
7.12                 0.987392775     -7.70425289
7.122                0.987426064     -7.72475177
7.124                0.987458998     -7.74519428
7.126                0.987491585     -7.76558103
7.128                0.987523835      -7.7859127
7.13                 0.987585055     -7.80716785
7.132                0.987646541     -7.82838234
7.134                0.987708292     -7.84955679
7.136                0.987770308     -7.87069179
7.138                0.987848009      -7.8934092
7.14                  0.98792527     -7.91609984
7.142                0.988002094     -7.93876378
7.144                0.988078485     -7.96140122
7.146                 0.98815539     -7.98573412
7.148                0.988231704     -8.01001318
7.15                 0.988307433     -8.03423908
7.152                0.988382581     -8.05841257
7.154                0.988444816     -8.08392185
7.156                0.988507431     -8.10936639
7.158                0.988570422     -8.13474672
7.16                 0.988633781     -8.16006343
7.162                0.988678058     -8.18609484
7.164                0.988722695     -8.21208936
7.166                0.988767689      -8.2380472
7.168                0.988813037     -8.26396861
7.17                 0.988841841     -8.29009275
7.172                0.988870126     -8.31618335
7.174                0.988897898     -8.34224055
7.176                0.988925163     -8.36826448
7.178                0.988939498     -8.39429682
7.18                 0.988953639     -8.42027277
7.182                0.988967594     -8.44619282
7.184                0.988981367     -8.47205745
7.186                0.988981699     -8.49783958
7.188                0.988982495     -8.52357899
7.19                 0.988983754     -8.54927623
7.192                0.988985475     -8.57493184
7.194                0.988973054     -8.60026126
7.196                0.988960457     -8.62557373
7.198                0.988947686     -8.65086937
7.2                  0.988934741     -8.67614821
7.202                0.988910117     -8.70071706
7.204                 0.98888471     -8.72525465
7.206                0.988858526     -8.74976148
7.208                0.988831568     -8.77423804
7.21                 0.988798398     -8.79762725
7.212                0.988765151     -8.82096701
7.214                0.988731826     -8.84425787
7.216                0.988698419     -8.86750025
7.218                0.988668301     -8.88942511
7.22                 0.988638479     -8.91132242
7.222                0.988608951     -8.93319235
7.224                0.988579713     -8.95503499
7.226                0.988567745     -8.97572083
7.228                0.988555241     -8.99639655
7.23                 0.988542204     -9.01706218
7.232                0.988528638      -9.0377177
7.234                0.988543271     -9.05790383
7.236                0.988557189     -9.07806038
7.238                0.988570402     -9.09818741
7.24                 0.988582917     -9.11828508
7.242                0.988623576     -9.13886236
7.244                0.988664259     -9.15940421
7.246                0.988704969     -9.17991109
7.248                0.988745708     -9.20038347
7.25                 0.988804928     -9.22208052
7.252                0.988864197     -9.24375903
7.254                0.988923515     -9.26541909
7.256                0.988982881     -9.28706086
7.258                0.989047558     -9.31021952
7.26                 0.989111881     -9.33335287
7.262                0.989175855     -9.35646116
7.264                0.989239481     -9.37954471
7.266                 0.98929555     -9.40399485
7.268                0.989351714      -9.4284002
7.27                 0.989407969     -9.45276119
7.272                0.989464314     -9.47707833
7.274                 0.98950441     -9.50228709
7.276                0.989545054     -9.52746095
7.278                 0.98958624     -9.55260007
7.28                 0.989627965     -9.57770462
7.282                0.989652493      -9.6031667
7.284                0.989676945     -9.62861106
7.286                0.989701324     -9.65403776
7.288                0.989725631     -9.67944689
7.29                 0.989736434     -9.70487766
7.292                0.989746771     -9.73027906
7.294                0.989756646      -9.7556512
7.296                0.989766065      -9.7809942
7.298                 0.98976397     -9.80622839
7.3                  0.989761939      -9.8314275
7.302                0.989759973     -9.85659192
7.304                0.989758074     -9.88172199
7.306                0.989744475     -9.90659249
7.308                0.989730999     -9.93144788
7.31                 0.989717646     -9.95628831
7.312                0.989704414     -9.98111385
7.314                0.989680787      -10.005408
7.316                0.989656703     -10.0296901
7.318                0.989632163     -10.0539605
7.32                 0.989607171     -10.0782192
7.322                0.989575747     -10.1016478
7.324                0.989544013     -10.1250447
7.326                0.989511969     -10.1484102
7.328                0.989479614     -10.1717448
7.33                 0.989447435      -10.194026
7.332                0.989415565     -10.2162771
7.334                0.989384003     -10.2384983
7.336                0.989352744     -10.2606896
7.338                0.989332125     -10.2818388
7.34                 0.989311469     -10.3029798
7.342                0.989290777     -10.3241125
7.344                 0.98927005     -10.3452369
7.346                0.989271074     -10.3657362
7.348                0.989271413     -10.3862246
7.35                 0.989271073     -10.4067021
7.352                0.989270057     -10.4271686
7.354                0.989294981     -10.4477766
7.356                0.989319555      -10.468359
7.358                0.989343778     -10.4889159
7.36                 0.989367656     -10.5094476
7.362                0.989411864     -10.5308774
7.364                0.989456191     -10.5522893
7.366                0.989500635     -10.5736833
7.368                0.989545196     -10.5950597
7.37                 0.989598915     -10.6177583
7.372                0.989652576     -10.6404452
7.374                0.989706179     -10.6631207
7.376                0.989759725     -10.6857848
7.378                0.989810296     -10.7097952
7.38                 0.989860848     -10.7337795
7.382                0.989911381     -10.7577381
7.384                0.989961896     -10.7816714
7.386                0.989999549     -10.8066256
7.388                0.990037685     -10.8315486
7.39                 0.990076301     -10.8564407
7.392                0.990115393      -10.881302
7.394                0.990137635     -10.9066901
7.396                0.990160191     -10.9320631
7.398                 0.99018306     -10.9574209
7.4                   0.99020624     -10.9827636
7.402                0.990214803     -11.0082066
7.404                0.990222999     -11.0336373
7.406                0.990230832     -11.0590556
7.408                0.990238303     -11.0844615
7.41                 0.990234636     -11.1097542
7.412                0.990230652     -11.1350234
7.414                0.990226356     -11.1602695
7.416                0.990221749     -11.1854924
7.418                0.990207263     -11.2104778
7.42                 0.990192828     -11.2354475
7.422                0.990178445     -11.2604014
7.424                0.990164114     -11.2853398
7.426                0.990140853     -11.3098574
7.428                0.990117415     -11.3343708
7.43                 0.990093799     -11.3588799
7.432                0.990070006     -11.3833848
7.434                 0.99004004     -11.4072417
7.436                 0.99000973     -11.4310829
7.438                0.989979077     -11.4549086
7.44                 0.989948081     -11.4787191
7.442                0.989915758     -11.5016878
7.444                0.989883597     -11.5246295
7.446                0.989851596     -11.5475444
7.448                0.989819751     -11.5704326
7.45                 0.989794072     -11.5924262
7.452                0.989768689     -11.6144068
7.454                  0.9897436     -11.6363742
7.456                0.989718804     -11.6583285
7.458                0.989709989     -11.6796168
7.46                  0.98970079     -11.7009029
7.462                 0.98969121     -11.7221867
7.464                0.989681248     -11.7434682
7.466                0.989693952     -11.7646591
7.468                0.989706058     -11.7858364
7.47                 0.989717566     -11.8069999
7.472                 0.98972848     -11.8281498
7.474                0.989760468     -11.8499103
7.476                0.989792354     -11.8716535
7.478                0.989824142     -11.8933796
7.48                 0.989855831     -11.9150887
7.482                0.989899751     -11.9379258
7.484                0.989943769     -11.9607552
7.486                0.989987887     -11.9835769
7.488                0.990032103      -12.006391
7.49                 0.990077265     -12.0304928
7.492                0.990122457     -12.0545826
7.494                0.990167681     -12.0786605
7.496                0.990212935     -12.1027266
7.498                0.990248783     -12.1278986
7.5                   0.99028499     -12.1530469
7.502                0.990321552     -12.1781716
7.504                0.990358469     -12.2032729
7.506                0.990379738     -12.2290631
7.508                0.990401543     -12.2548362
7.51                 0.990423885     -12.2805923
7.512                0.990446759     -12.3063314
7.514                0.990453921     -12.3323006
7.516                0.990461027     -12.3582644
7.518                 0.99046808     -12.3842228
7.52                  0.99047508     -12.4101757
7.522                0.990470167     -12.4360458
7.524                0.990464762     -12.4619047
7.526                0.990458867     -12.4877524
7.528                0.990452485     -12.5135887
7.53                 0.990437161     -12.5391939
7.532                0.990421607      -12.564785
7.534                0.990405827      -12.590362
7.536                 0.99038982     -12.6159251
7.538                0.990366167     -12.6411282
7.54                 0.990342418     -12.6663279
7.542                0.990318576     -12.6915243
7.544                 0.99029464     -12.7167174
7.546                0.990265085     -12.7413841
7.548                0.990235269     -12.7660461
7.55                 0.990205195     -12.7907035
7.552                0.990174863     -12.8153564
7.554                0.990142514     -12.8393277
7.556                0.990110181     -12.8632796
7.558                0.990077863     -12.8872121
7.56                 0.990045558     -12.9111255
7.562                0.990016637      -12.934286
7.564                0.989988148     -12.9574285
7.566                0.989960088      -12.980553
7.568                0.989932456     -13.0036595
7.57                 0.989916015     -13.0261281
7.572                0.989899598     -13.0485944
7.574                0.989883204     -13.0710582
7.576                0.989866834     -13.0935196
7.578                0.989869348     -13.1157422
7.58                 0.989871258     -13.1379612
7.582                0.989872564     -13.1601765
7.584                0.989873268     -13.1823881
7.586                0.989894681     -13.2049695
7.588                0.989915664     -13.2275377
7.59                  0.98993622     -13.2500925
7.592                0.989956352     -13.2726339
7.594                0.989991262     -13.2961048
7.596                0.990026197     -13.3195672
7.598                0.990061158     -13.3430212
7.6                  0.990096147      -13.366467
7.602                  0.9901357     -13.3911161
7.604                0.990175375     -13.4157607
7.606                0.990215171     -13.4404008
7.608                0.990255088     -13.4650367
7.61                 0.990289074     -13.4908258
7.612                0.990323351     -13.5166004
7.614                0.990357918     -13.5423606
7.616                0.990392774     -13.5681065
7.618                0.990413915     -13.5946856
7.62                 0.990435675     -13.6212467
7.622                0.990458053     -13.6477899
7.624                0.990481044      -13.674315
7.626                0.990487871     -13.7012282
7.628                0.990495016     -13.7281352
7.63                 0.990502479      -13.755036
7.632                0.990510258     -13.7819307
7.634                0.990504713     -13.8088287
7.636                0.990498757      -13.835724
7.638                0.990492392     -13.8626166
7.64                  0.99048562     -13.8895065
7.642                0.990469818     -13.9161874
7.644                0.990453478     -13.9428592
7.646                0.990436602     -13.9695219
7.648                0.990419192     -13.9961754
7.65                 0.990395188     -14.0225029
7.652                0.990370936     -14.0488259
7.654                0.990346437     -14.0751445
7.656                0.990321691     -14.1014585
7.658                0.990292075     -14.1273311
7.66                 0.990262262     -14.1532043
7.662                0.990232251     -14.1790782
7.664                0.990202043     -14.2049527
7.666                 0.99016963     -14.2302669
7.668                0.990137164     -14.2555706
7.67                 0.990104645     -14.2808639
7.672                0.990072072     -14.3061468
7.674                0.990041166      -14.330808
7.676                0.990010705     -14.3554497
7.678                0.989980687     -14.3800719
7.68                 0.989951108     -14.4046746
7.682                0.989929049     -14.4287078
7.684                0.989907411      -14.452733
7.686                0.989886194     -14.4767501
7.688                0.989865395     -14.5007591
7.69                 0.989859408     -14.5244649
7.692                0.989853066      -14.548172
7.694                 0.98984637     -14.5718805
7.696                 0.98983932     -14.5955902
7.698                0.989851488     -14.6194861
7.7                  0.989862957     -14.6433755
7.702                 0.98987373     -14.6672581
7.704                 0.98988381     -14.6911338
7.706                0.989910461     -14.7157504
7.708                0.989936833     -14.7403575
7.71                  0.98996293     -14.7649554
7.712                0.989988751     -14.7895439
7.714                0.990022415     -14.8152383
7.716                0.990056181     -14.8409302
7.718                0.990090052     -14.8666194
7.72                 0.990124026     -14.8923063
7.722                0.990155404     -14.9191576
7.724                 0.99018708     -14.9460026
7.726                0.990219054     -14.9728412
7.728                0.990251325     -14.9996735
7.73                 0.990272086     -15.0274594
7.732                0.990293496     -15.0552296
7.734                0.990315552      -15.082984
7.736                0.990338252     -15.1107225
7.738                0.990344776     -15.1390112
7.74                 0.990351967     -15.1672895
7.742                0.990359822     -15.1955571
7.744                0.990368341      -15.223814
7.746                0.990361879     -15.2521973
7.748                0.990355323     -15.2805807
7.75                 0.990348675      -15.308964
7.752                0.990341933     -15.3373473
7.754                 0.99032505     -15.3655647
7.756                 0.99030744     -15.3937797
7.758                0.990289105     -15.4219923
7.76                 0.990270046     -15.4502023
7.762                0.990244918      -15.478106
7.764                0.990219178     -15.5060055
7.766                0.990192828      -15.533901
7.768                0.990165871     -15.5617923
7.77                 0.990135045     -15.5892882
7.772                0.990103901      -15.616786
7.774                0.990072441     -15.6442856
7.776                0.990040664      -15.671787
7.778                 0.99000697     -15.6988077
7.78                  0.98997319     -15.7258253
7.782                0.989939325     -15.7528399
7.784                0.989905374     -15.7798515
7.786                0.989872226     -15.8063411
7.788                0.989839511     -15.8328137
7.79                 0.989807227     -15.8592692
7.792                0.989775373     -15.8857075
