! TOUCHSTONE file generated by CST DESIGN STUDIO
! Date and time: Mon Feb 10 16:57:18 2025
! Project name: C:\Work\MatlabApps\UnitCellType2OptimizationMatlab\CST\unitcell.cst
! Tree item: Tasks\Sweep1\SPara1\S-Parameters
! Header version: 2024
! Port assignment regex: !\s*Touchstone port\s*([0-9]+)\s*=\s*(CST MWS port|CST DES external port|CST DES block port)\s*(.+)\s* \(\"(.*)\"\)(\s*mode\s*([0-9]+))?.*
! Touchstone port assignment:
! Touchstone port 1 = CST DES external port 1 ("")
# GHz S MA R 50
7                    0.987965651      -7.8261252
7.002                0.987965525     -7.84446022
7.004                0.987964729     -7.86275838
7.006                 0.98796327     -7.88101985
7.008                0.987961159     -7.89924479
7.01                 0.987992022     -7.91750387
7.012                0.988023127     -7.93571848
7.014                0.988054478     -7.95388931
7.016                 0.98808608     -7.97201719
7.018                0.988143594     -7.99112524
7.02                 0.988201125     -8.01021458
7.022                0.988258671     -8.02928542
7.024                0.988316233     -8.04833793
7.026                0.988387755     -8.06888091
7.028                0.988458503     -8.08939872
7.03                 0.988528481     -8.10989157
7.032                0.988597697     -8.13035979
7.034                0.988667151     -8.15235721
7.036                0.988736326     -8.17430172
7.038                0.988805222     -8.19619391
7.04                 0.988873841     -8.21803447
7.042                0.988931509     -8.24105207
7.044                0.988989619     -8.26402634
7.046                0.989048166     -8.28695755
7.048                0.989107144     -8.30984602
7.05                 0.989151669     -8.33342281
7.052                0.989196073     -8.35697728
7.054                0.989240357     -8.38050956
7.056                0.989284524     -8.40401977
7.058                0.989315609     -8.42792019
7.06                 0.989346274     -8.45178046
7.062                0.989376526     -8.47560073
7.064                0.989406371     -8.49938122
7.066                0.989422284     -8.52343644
7.068                0.989438554     -8.54744061
7.07                 0.989455185     -8.57139435
7.072                0.989472178     -8.59529829
7.074                0.989472208     -8.61927183
7.076                 0.98947261     -8.64322177
7.078                0.989473384     -8.66714835
7.08                 0.989474527      -8.6910518
7.082                0.989458361     -8.71461275
7.084                0.989441634     -8.73816006
7.086                 0.98942435     -8.76169393
7.088                0.989406511     -8.78521448
7.09                 0.989374937     -8.80789263
7.092                0.989342784     -8.83053552
7.094                0.989310054     -8.85314371
7.096                0.989276751     -8.87571772
7.098                0.989236916     -8.89701921
7.1                  0.989197253      -8.9182858
7.102                0.989157757     -8.93951779
7.104                0.989118427     -8.96071534
7.106                0.989085117     -8.98046626
7.108                0.989051744     -9.00020789
7.11                 0.989018306     -9.01994035
7.112                0.988984803     -9.03966367
7.114                0.988972022     -9.05826924
7.116                0.988958586     -9.07686259
7.118                0.988944499     -9.09544367
7.12                 0.988929768     -9.11401241
7.122                0.988943633     -9.13227483
7.124                0.988957287     -9.15050659
7.126                0.988970734     -9.16870799
7.128                0.988983981     -9.18687936
7.13                 0.989023059     -9.20564608
7.132                0.989062345      -9.2243923
7.134                0.989101838     -9.24311832
7.136                 0.98914154     -9.26182447
7.138                0.989197553     -9.28173914
7.14                 0.989253323     -9.30164309
7.142                0.989308851      -9.3215363
7.144                0.989364138     -9.34141884
7.146                0.989423734     -9.36270958
7.148                0.989482977     -9.38397206
7.15                  0.98954187      -9.4052066
7.152                0.989600415     -9.42641361
7.154                0.989651975     -9.44884481
7.156                0.989703805      -9.4712394
7.158                0.989755902     -9.49359764
7.16                 0.989808264     -9.51591985
7.162                0.989847265     -9.53904934
7.164                0.989886526     -9.56215956
7.166                0.989926044      -9.5852506
7.168                0.989965819     -9.60832257
7.17                 0.989992062      -9.6318136
7.172                0.990017988     -9.65528743
7.174                0.990043603     -9.67874407
7.176                0.990068908     -9.70218354
7.178                0.990081685     -9.72584044
7.18                 0.990094356     -9.74946452
7.182                0.990106924     -9.77305601
7.184                0.990119393     -9.79661516
7.186                0.990118026     -9.82023712
7.188                0.990116983     -9.84383468
7.19                 0.990116266     -9.86740815
7.192                0.990115872     -9.89095783
7.194                0.990100783     -9.91429015
7.196                0.990085593     -9.93761549
7.198                  0.9900703     -9.96093389
7.2                  0.990054906     -9.98424532
7.202                0.990026916     -10.0069511
7.204                0.989998405     -10.0296408
7.206                0.989969377     -10.0523149
7.208                0.989939832     -10.0749735
7.21                 0.989902927     -10.0966565
7.212                0.989865953     -10.1183109
7.214                0.989828909      -10.139937
7.216                0.989791793      -10.161535
7.218                0.989756205     -10.1819358
7.22                 0.989720796      -10.202322
7.222                0.989685567     -10.2226937
7.224                0.989650514      -10.243051
7.226                0.989629275     -10.2623296
7.228                0.989607673     -10.2816057
7.23                  0.98958571     -10.3008791
7.232                0.989563387       -10.32015
7.234                0.989564678     -10.3388996
7.236                0.989565498     -10.3576338
7.238                0.989565849     -10.3763526
7.24                 0.989565739      -10.395056
7.242                0.989590472     -10.4140327
7.244                0.989615238     -10.4329897
7.246                0.989640042     -10.4519274
7.248                0.989664883      -10.470846
7.25                 0.989707775     -10.4907083
7.252                 0.98975073     -10.5105626
7.254                0.989793748     -10.5304089
7.256                0.989836829     -10.5502472
7.258                0.989887511     -10.5713539
7.26                 0.989937984     -10.5924485
7.262                0.989988251     -10.6135309
7.264                0.990038312     -10.6346013
7.266                0.990085103      -10.656903
7.268                0.990131979     -10.6791788
7.27                 0.990178937     -10.7014288
7.272                0.990225977     -10.7236535
7.274                0.990261699      -10.746791
7.276                0.990297809     -10.7699084
7.278                0.990334306     -10.7930058
7.28                 0.990371186     -10.8160832
7.282                0.990394349     -10.8396719
7.284                0.990417481     -10.8632521
7.286                0.990440585     -10.8868237
7.288                0.990463662     -10.9103869
7.29                 0.990474257     -10.9341668
7.292                0.990484553     -10.9579303
7.294                0.990494553     -10.9816774
7.296                 0.99050426      -11.005408
7.298                0.990502009     -11.0291879
7.3                  0.990499813     -11.0529469
7.302                0.990497673     -11.0766853
7.304                 0.99049559     -11.1004031
7.306                0.990481016     -11.1239728
7.308                0.990466534     -11.1475351
7.31                 0.990452143       -11.17109
7.312                0.990437842     -11.1946376
7.314                0.990412151     -11.2177424
7.316                0.990386144     -11.2408424
7.318                0.990359824     -11.2639377
7.32                 0.990333192     -11.2870283
7.322                 0.99029896     -11.3093672
7.324                0.990264498     -11.3316876
7.326                0.990229807     -11.3539898
7.328                0.990194886      -11.376274
7.33                 0.990158841     -11.3975808
7.332                0.990122987     -11.4188695
7.334                0.990087321     -11.4401405
7.336                0.990051842     -11.4613935
7.338                0.990024904     -11.4816642
7.34                 0.989997928     -11.5019319
7.342                0.989970915     -11.5221968
7.344                0.989943866     -11.5424588
7.346                0.989935333     -11.5620858
7.348                0.989926329     -11.5817086
7.35                 0.989916855     -11.6013273
7.352                0.989906913     -11.6209417
7.354                 0.98991986     -11.6405743
7.356                0.989932573     -11.6601925
7.358                0.989945054     -11.6797964
7.36                 0.989957304      -11.699386
7.362                0.989988755     -11.7196672
7.364                0.990020308     -11.7399391
7.366                0.990051963     -11.7602017
7.368                0.990083718     -11.7804551
7.37                 0.990125858     -11.8018215
7.372                0.990167984     -11.8231832
7.374                0.990210096     -11.8445402
7.376                0.990252194     -11.8658928
7.378                0.990294395     -11.8884526
7.38                 0.990336606     -11.9109977
7.382                0.990378825     -11.9335283
7.384                0.990421053     -11.9560445
7.386                 0.99045449     -11.9795582
7.388                 0.99048828      -12.003053
7.39                  0.99052242     -12.0265288
7.392                0.990556908     -12.0499859
7.394                0.990578114     -12.0740677
7.396                0.990599556     -12.0981414
7.398                0.990621234      -12.122207
7.4                  0.990643147     -12.1462645
7.402                0.990652105     -12.1705906
7.404                0.990660824     -12.1949108
7.406                0.990669305     -12.2192251
7.408                0.990677551     -12.2435335
7.41                  0.99067449     -12.2678912
7.412                0.990671217     -12.2922352
7.414                0.990667735     -12.3165655
7.416                0.990664044     -12.3408821
7.418                0.990649559     -12.3650818
7.42                 0.990635112     -12.3892727
7.422                0.990620705     -12.4134547
7.424                0.990606337      -12.437628
7.426                0.990581935     -12.4614664
7.428                0.990557405      -12.485304
7.43                 0.990532748      -12.509141
7.432                0.990507963     -12.5329774
7.434                0.990475795     -12.5562304
7.436                 0.99044337     -12.5794749
7.438                0.990410691     -12.6027109
7.44                 0.990377757     -12.6259386
7.442                 0.99034232     -12.6483749
7.444                0.990306973     -12.6707943
7.446                0.990271716     -12.6931968
7.448                0.990236546     -12.7155824
7.45                 0.990206171     -12.7371123
7.452                0.990175986     -12.7586347
7.454                0.990145991     -12.7801497
7.456                0.990116184     -12.8016571
7.458                0.990100215     -12.8225028
7.46                 0.990083971     -12.8433492
7.462                0.990067451     -12.8641963
7.464                0.990050657     -12.8850442
7.466                0.990053999     -12.9057317
7.468                0.990056922     -12.9264123
7.47                 0.990059427     -12.9470858
7.472                0.990061516     -12.9677521
7.474                 0.99008317     -12.9888822
7.476                0.990104766     -13.0100024
7.478                0.990126305     -13.0311128
7.48                 0.990147788     -13.0522136
7.482                0.990181922     -13.0742715
7.484                0.990216149     -13.0963264
7.486                0.990250467     -13.1183781
7.488                0.990284877     -13.1404267
7.49                   0.9903224     -13.1636314
7.492                0.990359968       -13.18683
7.494                 0.99039758     -13.2100225
7.496                0.990435237     -13.2332092
7.498                0.990466771     -13.2574543
7.5                  0.990498578     -13.2816845
7.502                0.990530655     -13.3059001
7.504                   0.990563      -13.330101
7.506                0.990583082     -13.3550451
7.508                0.990603562     -13.3799788
7.51                 0.990624438      -13.404902
7.512                0.990645709     -13.4298147
7.514                 0.99065341     -13.4550941
7.516                0.990661087     -13.4803716
7.518                 0.99066874      -13.505647
7.52                 0.990676371     -13.5309205
7.522                0.990672381     -13.5562697
7.524                0.990668049      -13.581613
7.526                0.990663377     -13.6069505
7.528                0.990658364      -13.632282
7.53                 0.990643515     -13.6575121
7.532                0.990628502     -13.6827339
7.534                0.990613328     -13.7079476
7.536                0.990597992      -13.733153
7.538                0.990573777     -13.7580898
7.54                  0.99054949     -13.7830257
7.542                0.990525131     -13.8079609
7.544                  0.9905007     -13.8328953
7.546                0.990469359     -13.8573647
7.548                 0.99043782     -13.8818325
7.55                 0.990406083     -13.9062986
7.552                0.990374148     -13.9307632
7.554                0.990339001     -13.9545848
7.556                0.990303843     -13.9783939
7.558                0.990268674     -14.0021905
7.56                 0.990233493     -14.0259747
7.562                0.990200644     -14.0490281
7.564                0.990168085     -14.0720697
7.566                0.990135812     -14.0950993
7.568                0.990103826     -14.1181168
7.57                 0.990081672     -14.1405002
7.572                0.990059525     -14.1628831
7.574                0.990037385     -14.1852656
7.576                0.990015251     -14.2076478
7.578                0.990010103      -14.229751
7.58                 0.990004522     -14.2518536
7.582                0.989998507     -14.2739556
7.584                0.989992058     -14.2960569
7.586                 0.99000473     -14.3184271
7.588                0.990017102     -14.3407897
7.59                 0.990029174     -14.3631446
7.592                0.990040949     -14.3854919
7.594                0.990067308     -14.4086328
7.596                0.990093704     -14.4317691
7.598                0.990120136     -14.4549011
7.6                  0.990146606     -14.4780287
7.602                0.990179081     -14.5022411
7.604                0.990211666     -14.5264519
7.606                0.990244362     -14.5506611
7.608                0.990277169     -14.5748688
7.61                 0.990306666     -14.6001719
7.612                0.990336394     -14.6254659
7.614                 0.99036635     -14.6507509
7.616                0.990396535      -14.676027
7.618                0.990416082     -14.7021609
7.62                 0.990436092      -14.728283
7.622                0.990456564     -14.7543929
7.624                0.990477496     -14.7804909
7.626                0.990484696     -14.8070815
7.628                0.990492141     -14.8336687
7.63                  0.99049983     -14.8602526
7.632                0.990507763      -14.886833
7.634                0.990503197     -14.9135638
7.636                0.990498343     -14.9402942
7.638                0.990493201     -14.9670243
7.64                 0.990487771     -14.9937541
7.642                0.990472625     -15.0204117
7.644                0.990457088     -15.0470644
7.646                0.990441161      -15.073712
7.648                0.990424846     -15.1003547
7.65                 0.990400599     -15.1267721
7.652                0.990376165     -15.1531875
7.654                0.990351545     -15.1796009
7.656                0.990326739     -15.2060122
7.658                0.990295648     -15.2320478
7.66                 0.990264401     -15.2580849
7.662                0.990232999     -15.2841235
7.664                0.990201442     -15.3101637
7.666                0.990166407       -15.33568
7.668                0.990131315     -15.3611896
7.67                 0.990096165     -15.3866923
7.672                0.990060956     -15.4121884
7.674                0.990026452     -15.4370771
7.676                0.989992249      -15.461952
7.678                0.989958348      -15.486813
7.68                 0.989924745       -15.51166
7.682                 0.98989779     -15.5359353
7.684                0.989871128     -15.5602052
7.686                0.989844759     -15.5844696
7.688                0.989818683     -15.6087284
7.69                 0.989806152     -15.6326583
7.692                 0.98979336     -15.6565904
7.694                0.989780307     -15.6805246
7.696                0.989766993      -15.704461
7.698                0.989771453     -15.7285159
7.7                  0.989775408     -15.7525676
7.702                0.989778859     -15.7766161
7.704                0.989781808     -15.8006611
7.706                0.989800685     -15.8253423
7.708                0.989819373     -15.8500181
7.71                 0.989837872     -15.8746884
7.712                0.989856184     -15.8993532
7.714                 0.98988313     -15.9250216
7.716                0.989910174     -15.9506892
7.718                0.989937316      -15.976356
7.72                 0.989964556      -16.002022
7.722                0.989991235     -16.0287923
7.724                0.990018154     -16.0555587
7.726                0.990045314     -16.0823214
7.728                0.990072714     -16.1090803
7.73                 0.990091327     -16.1367989
7.732                0.990110432     -16.1645064
7.734                0.990130028     -16.1922026
7.736                0.990150115     -16.2198877
7.738                0.990156586     -16.2482006
7.74                  0.99016356     -16.2765061
7.742                0.990171036     -16.3048041
7.744                0.990179012     -16.3330944
7.746                0.990173347     -16.3616415
7.748                0.990167623     -16.3901896
7.75                 0.990161838     -16.4187384
7.752                0.990155994     -16.4472882
7.754                0.990139688     -16.4758115
7.756                0.990122846     -16.5043345
7.758                 0.99010547      -16.532857
7.76                  0.99008756      -16.561379
7.762                0.990062198     -16.5897064
7.764                0.990036376      -16.618032
7.766                0.990010098     -16.6463555
7.768                0.989983362      -16.674677
7.77                 0.989951139     -16.7026772
7.772                 0.98991867     -16.7306793
7.774                0.989885954     -16.7586835
7.776                0.989852992     -16.7866896
7.778                0.989816692     -16.8142563
7.78                 0.989780312     -16.8418209
7.782                 0.98974385     -16.8693837
7.784                0.989707308     -16.8969445
7.786                0.989670573     -16.9239956
7.788                0.989634137     -16.9510337
7.79                 0.989597998     -16.9780589
7.792                0.989562155     -17.0050711
