! TOUCHSTONE file generated by CST DESIGN STUDIO
! Date and time: Mon Feb 10 16:57:16 2025
! Project name: C:\Work\MatlabApps\UnitCellType2OptimizationMatlab\CST\unitcell.cst
! Tree item: Tasks\Sweep1\SPara1\S-Parameters
! Header version: 2024
! Port assignment regex: !\s*Touchstone port\s*([0-9]+)\s*=\s*(CST MWS port|CST DES external port|CST DES block port)\s*(.+)\s* \(\"(.*)\"\)(\s*mode\s*([0-9]+))?.*
! Touchstone port assignment:
! Touchstone port 1 = CST DES external port 1 ("")
# GHz S MA R 50
7                    0.989746462     -9.14928536
7.002                0.989731431     -9.16605032
7.004                0.989715991     -9.18279729
7.006                0.989700146      -9.1995263
7.008                0.989683902     -9.21623739
7.01                 0.989694639      -9.2327665
7.012                0.989705536     -9.24927261
7.014                0.989716594     -9.26575609
7.016                0.989727818     -9.28221734
7.018                0.989762393     -9.29928452
7.02                 0.989797011     -9.31634484
7.022                0.989831671     -9.33339838
7.024                0.989866373     -9.35044523
7.026                0.989916024     -9.36859653
7.028                0.989965241     -9.38673798
7.03                 0.990014026     -9.40486966
7.032                0.990062381      -9.4229917
7.034                0.990115115     -9.44236518
7.036                0.990167703     -9.46171148
7.038                0.990220148     -9.48103087
7.04                 0.990272448     -9.50032369
7.042                0.990319767     -9.52070711
7.044                0.990367379     -9.54106801
7.046                0.990415282     -9.56140651
7.048                0.990463473     -9.58172276
7.05                 0.990502185     -9.60282766
7.052                0.990540852     -9.62392257
7.054                0.990579477     -9.64500755
7.056                0.990618058     -9.66608261
7.058                0.990645942     -9.68772552
7.06                 0.990673596     -9.70934732
7.062                0.990701025     -9.73094804
7.064                0.990728233     -9.75252775
7.066                0.990742431     -9.77453326
7.068                0.990756873      -9.7965102
7.07                 0.990771561     -9.81845889
7.072                0.990786497     -9.84037965
7.074                0.990785143     -9.86249074
7.076                 0.99078404     -9.88459009
7.078                0.990783189     -9.90667781
7.08                 0.990782588       -9.928754
7.082                0.990764847     -9.95061555
7.084                0.990746769     -9.97247227
7.086                0.990728357     -9.99432425
7.088                 0.99070961     -10.0161716
7.09                 0.990676592     -10.0373247
7.092                0.990643202     -10.0584597
7.094                0.990609443     -10.0795769
7.096                0.990575314     -10.1006765
7.098                 0.99053348     -10.1206743
7.1                  0.990491724     -10.1406533
7.102                0.990450047     -10.1606138
7.104                0.990408445     -10.1805558
7.106                0.990370147     -10.1992168
7.108                0.990331788      -10.217875
7.11                 0.990293365     -10.2365303
7.112                 0.99025488     -10.2551827
7.114                0.990232304     -10.2727895
7.116                0.990209309     -10.2903918
7.118                0.990185895     -10.3079898
7.12                 0.990162065     -10.3255832
7.122                0.990161724     -10.3427661
7.124                0.990161251      -10.359933
7.126                0.990160648     -10.3770837
7.128                 0.99015992     -10.3942187
7.13                 0.990182068      -10.411691
7.132                0.990204361     -10.4291534
7.134                0.990226803      -10.446606
7.136                0.990249391     -10.4640492
7.138                0.990288303     -10.4823934
7.14                 0.990327091     -10.5007346
7.142                0.990365755     -10.5190726
7.144                0.990404295     -10.5374075
7.146                0.990449812     -10.5568983
7.148                0.990495131     -10.5763751
7.15                 0.990540255     -10.5958381
7.152                0.990585184     -10.6152876
7.154                0.990627701     -10.6358391
7.156                 0.99067041     -10.6563706
7.158                0.990713307     -10.6768821
7.16                 0.990756392     -10.6973739
7.162                0.990790828     -10.7187112
7.164                0.990825453     -10.7400389
7.166                0.990860265      -10.761357
7.168                0.990895264     -10.7826657
7.17                 0.990919636     -10.8045398
7.172                0.990943835     -10.8264059
7.174                0.990967861     -10.8482637
7.176                0.990991717     -10.8701135
7.178                0.991004045     -10.8923417
7.18                 0.991016325     -10.9145516
7.182                 0.99102856     -10.9367432
7.184                0.991040751     -10.9589167
7.186                0.991039365     -10.9812841
7.188                0.991038199      -11.003638
7.19                 0.991037255     -11.0259787
7.192                 0.99103653     -11.0483062
7.194                0.991021018     -11.0705311
7.196                0.991005448      -11.092754
7.198                0.990989821     -11.1149749
7.2                  0.990974135     -11.1371938
7.202                 0.99094523     -11.1589229
7.204                0.990915983     -11.1806446
7.206                0.990886396     -11.2023591
7.208                 0.99085647     -11.2240665
7.21                 0.990818112      -11.244918
7.212                0.990779684     -11.2657537
7.214                0.990741185     -11.2865735
7.216                0.990702615     -11.3073777
7.218                0.990663804     -11.3271024
7.22                 0.990625082     -11.3468197
7.222                0.990586448     -11.3665297
7.224                0.990547901     -11.3862324
7.226                0.990519993     -11.4049298
7.228                0.990491835     -11.4236278
7.23                 0.990463429     -11.4423265
7.232                0.990434776     -11.4610259
7.234                0.990425679      -11.479165
7.236                0.990416274     -11.4972968
7.238                0.990406561     -11.5154211
7.24                 0.990396545      -11.533538
7.242                0.990408337     -11.5517578
7.244                0.990420157     -11.5699672
7.246                0.990432008     -11.5881664
7.248                0.990443891     -11.6063554
7.25                 0.990473126     -11.6252485
7.252                0.990502424      -11.644139
7.254                0.990531782     -11.6630266
7.256                0.990561201     -11.6819115
7.258                0.990599853     -11.7018426
7.26                 0.990638394     -11.7217685
7.262                0.990676825     -11.7416895
7.264                0.990715148     -11.7616055
7.266                0.990753638     -11.7826171
7.268                0.990792203     -11.8036145
7.27                 0.990830843     -11.8245976
7.272                0.990869555     -11.8455666
7.274                0.990901114     -11.8674407
7.276                0.990932946     -11.8893036
7.278                0.990965051     -11.9111554
7.28                 0.990997425      -11.932996
7.282                0.991019293      -11.955455
7.284                0.991041166     -11.9779105
7.286                0.991063043     -12.0003625
7.288                0.991084926     -12.0228109
7.29                 0.991095694     -12.0456309
7.292                0.991106286     -12.0684425
7.294                0.991116703     -12.0912454
7.296                0.991126948     -12.1140398
7.298                0.991125371     -12.1370243
7.3                  0.991123839      -12.159997
7.302                0.991122355     -12.1829579
7.304                0.991120919     -12.2059072
7.306                0.991106663     -12.2288228
7.308                0.991092471     -12.2517352
7.31                 0.991078343     -12.2746446
7.312                0.991064278     -12.2975508
7.314                0.991038111     -12.3201151
7.316                0.991011731     -12.3426783
7.318                0.990985139     -12.3652404
7.32                 0.990958335     -12.3878016
7.322                0.990922864     -12.4097027
7.324                 0.99088722     -12.4315936
7.326                0.990851402     -12.4534745
7.328                0.990815412     -12.4753456
7.33                  0.99077693     -12.4963225
7.332                0.990738545      -12.517289
7.334                0.990700256     -12.5382452
7.336                0.990662062     -12.5591911
7.338                0.990630294     -12.5792148
7.34                 0.990598482     -12.5992381
7.342                0.990566625     -12.6192611
7.344                0.990534724     -12.6392836
7.346                0.990518312     -12.6586652
7.348                 0.99050158     -12.6780461
7.35                  0.99048453     -12.6974261
7.352                0.990467162     -12.7168053
7.354                0.990469846     -12.7360963
7.356                0.990472377     -12.7553795
7.358                0.990474756     -12.7746552
7.36                 0.990476983     -12.7939234
7.362                0.990497208     -12.8137006
7.364                0.990517513     -12.8334733
7.366                0.990537899     -12.8532416
7.368                0.990558365     -12.8730056
7.37                 0.990590066     -12.8936912
7.372                0.990621779     -12.9143758
7.374                0.990653506     -12.9350592
7.376                0.990685245     -12.9557415
7.378                0.990719635     -12.9774952
7.38                 0.990754053      -12.999241
7.382                0.990788497     -13.0209791
7.384                0.990822969     -13.0427097
7.386                0.990852187     -13.0653991
7.388                0.990881658     -13.0880773
7.39                  0.99091138     -13.1107444
7.392                0.990941353     -13.1334004
7.394                0.990961318     -13.1567495
7.396                 0.99098146     -13.1800945
7.398                 0.99100178     -13.2034355
7.4                  0.991022277     -13.2267725
7.402                0.991031628     -13.2505154
7.404                0.991040838     -13.2742562
7.406                0.991049908     -13.2979947
7.408                 0.99105884      -13.321731
7.41                 0.991056753     -13.3456622
7.412                0.991054534      -13.369586
7.414                0.991052186     -13.3935022
7.416                0.991049708     -13.4174109
7.418                0.991035969     -13.4413238
7.42                 0.991022258      -13.465232
7.422                0.991008574     -13.4891357
7.424                0.990994919     -13.5130348
7.426                0.990970411      -13.536696
7.428                0.990945813     -13.5603581
7.43                 0.990921123     -13.5840213
7.432                0.990896342     -13.6076854
7.434                 0.99086308     -13.6308455
7.436                0.990829629     -13.6540013
7.438                0.990795988      -13.677153
7.44                 0.990762158     -13.7003007
7.442                0.990724587     -13.7227194
7.444                0.990687049     -13.7451278
7.446                0.990649543     -13.7675258
7.448                0.990612068     -13.7899136
7.45                  0.99057788     -13.8114902
7.452                0.990543795     -13.8330626
7.454                0.990509814     -13.8546308
7.456                0.990475937     -13.8761947
7.458                0.990453737     -13.8971032
7.46                  0.99043134     -13.9180136
7.462                0.990408747     -13.9389258
7.464                0.990385956     -13.9598398
7.466                0.990380876     -13.9805303
7.468                0.990375512     -14.0012177
7.47                 0.990369865     -14.0219019
7.472                0.990363935     -14.0425829
7.474                0.990376073      -14.063593
7.476                 0.99038818     -14.0845978
7.478                0.990400257     -14.1055973
7.48                 0.990412304     -14.1265917
7.482                0.990437232     -14.1483835
7.484                 0.99046224     -14.1701745
7.486                 0.99048733     -14.1919647
7.488                  0.9905125     -14.2137541
7.49                 0.990542627     -14.2365707
7.492                0.990572806     -14.2593846
7.494                0.990603038     -14.2821959
7.496                 0.99063332     -14.3050045
7.498                0.990660413      -14.328816
7.5                  0.990687708     -14.3526186
7.502                0.990715205     -14.3764123
7.504                0.990742903     -14.4001971
7.506                0.990761472     -14.4247613
7.508                0.990780328     -14.4493193
7.51                 0.990799472      -14.473871
7.512                0.990818901     -14.4984163
7.514                0.990826931     -14.5234428
7.516                0.990834962     -14.5484691
7.518                0.990842994     -14.5734953
7.52                 0.990851029     -14.5985213
7.522                0.990848057     -14.6237666
7.524                0.990844863     -14.6490095
7.526                0.990841448     -14.6742497
7.528                0.990837812     -14.6994874
7.53                 0.990823852     -14.7247523
7.532                0.990809781     -14.7500127
7.534                0.990795602     -14.7752686
7.536                0.990781312     -14.8005202
7.538                0.990757205     -14.8256039
7.54                 0.990733043      -14.850688
7.542                0.990708825     -14.8757726
7.544                0.990684551     -14.9008576
7.546                0.990652207     -14.9255534
7.548                 0.99061971      -14.950249
7.55                 0.990587063     -14.9749445
7.552                0.990554265       -14.99964
7.554                0.990517018      -15.023745
7.556                0.990479738     -15.0478421
7.558                0.990442424     -15.0719314
7.56                 0.990405077      -15.096013
7.562                 0.99036884     -15.1193952
7.564                0.990332774     -15.1427695
7.566                0.990296878     -15.1661359
7.568                0.990261152     -15.1894943
7.57                 0.990233747     -15.2122256
7.572                 0.99020633     -15.2349571
7.574                0.990178903      -15.257689
7.576                0.990151466     -15.2804212
7.578                0.990139095     -15.3028364
7.58                 0.990126425     -15.3252523
7.582                0.990113453     -15.3476691
7.584                0.990100179     -15.3700865
7.586                0.990104462     -15.3926768
7.588                0.990108545      -15.415263
7.59                 0.990112426     -15.4378452
7.592                0.990116109     -15.4604233
7.594                0.990134109     -15.4836647
7.596                 0.99015215      -15.506904
7.598                0.990170232     -15.5301412
7.6                  0.990188354     -15.5533763
7.602                0.990213737     -15.5775791
7.604                0.990239218     -15.6017816
7.606                0.990264796      -15.625984
7.608                0.990290472     -15.6501864
7.61                  0.99031524     -15.6754208
7.612                0.990340187     -15.7006498
7.614                0.990365311     -15.7258733
7.616                0.990390613     -15.7510914
7.618                0.990408172     -15.7771807
7.62                 0.990426068     -15.8032622
7.622                0.990444298     -15.8293358
7.624                0.990462863     -15.8554014
7.626                0.990470102     -15.8820496
7.628                0.990477526      -15.908696
7.63                 0.990485134     -15.9353407
7.632                0.990492926     -15.9619835
7.634                0.990489254     -15.9889122
7.636                0.990485394     -16.0158417
7.638                0.990481347     -16.0427721
7.64                 0.990477111     -16.0697033
7.642                0.990462821     -16.0966977
7.644                0.990448262     -16.1236899
7.646                0.990433434     -16.1506796
7.648                0.990418339      -16.177667
7.65                 0.990394272     -16.2045386
7.652                0.990370068     -16.2314095
7.654                0.990345729     -16.2582797
7.656                0.990321254     -16.2851492
7.658                0.990289224     -16.3117225
7.66                 0.990257071     -16.3382975
7.662                0.990224796     -16.3648741
7.664                0.990192399     -16.3914523
7.666                0.990155232     -16.4175577
7.668                0.990118001     -16.4436587
7.67                 0.990080706     -16.4697553
7.672                0.990043348     -16.4958476
7.674                0.990005562     -16.5213581
7.676                0.989967959     -16.5468589
7.678                0.989930536     -16.5723497
7.68                 0.989893295     -16.5978307
7.682                0.989861606     -16.6227433
7.684                0.989830101     -16.6476518
7.686                 0.98979878     -16.6725563
7.688                0.989767643     -16.6974567
7.69                 0.989748658     -16.7220035
7.692                0.989729486     -16.7465524
7.694                0.989710125     -16.7711033
7.696                0.989690575     -16.7956562
7.698                0.989687344     -16.8202606
7.7                  0.989683764     -16.8448638
7.702                0.989679836     -16.8694657
7.704                0.989675561     -16.8940663
7.706                0.989686561     -16.9192001
7.708                0.989697442     -16.9443308
7.71                 0.989708203     -16.9694584
7.712                0.989718845      -16.994583
7.714                0.989738837     -17.0206087
7.716                0.989758917     -17.0466343
7.718                0.989779087     -17.0726598
7.72                 0.989799344     -17.0986852
7.722                0.989820958     -17.1257508
7.724                0.989842761      -17.152814
7.726                0.989864754     -17.1798748
7.728                0.989886936     -17.2069333
7.73                 0.989902942     -17.2349504
7.732                0.989919309     -17.2629596
7.734                0.989936037     -17.2909609
7.736                0.989953125     -17.3189542
7.738                0.989959117     -17.3476442
7.74                 0.989965475     -17.3763288
7.742                0.989972199     -17.4050078
7.744                0.989979287     -17.4336813
7.746                0.989974194     -17.4627347
7.748                 0.98996907     -17.4917891
7.75                 0.989963914     -17.5208445
7.752                0.989958727     -17.5499009
7.754                0.989943033     -17.5790699
7.756                0.989926967     -17.6082395
7.758                0.989910527     -17.6374097
7.76                 0.989893715     -17.6665803
7.762                0.989868359     -17.6956763
7.764                0.989842673     -17.7247716
7.766                0.989816658     -17.7538661
7.768                0.989790315     -17.7829599
7.77                 0.989757036       -17.81182
7.772                0.989723568     -17.8406817
7.774                0.989689913     -17.8695449
7.776                0.989656071     -17.8984098
7.778                0.989617473     -17.9268912
7.78                 0.989578797     -17.9553711
7.782                0.989540042     -17.9838495
7.784                0.989501209     -18.0123263
7.786                0.989461033     -18.0403182
7.788                0.989421038     -18.0683003
7.79                 0.989381225     -18.0962725
7.792                0.989341593     -18.1242347
