! TOUCHSTONE file generated by CST DESIGN STUDIO
! Date and time: Mon Feb 10 16:57:13 2025
! Project name: C:\Work\MatlabApps\UnitCellType2OptimizationMatlab\CST\unitcell.cst
! Tree item: Tasks\Sweep1\SPara1\S-Parameters
! Header version: 2024
! Port assignment regex: !\s*Touchstone port\s*([0-9]+)\s*=\s*(CST MWS port|CST DES external port|CST DES block port)\s*(.+)\s* \(\"(.*)\"\)(\s*mode\s*([0-9]+))?.*
! Touchstone port assignment:
! Touchstone port 1 = CST DES external port 1 ("")
# GHz S MA R 50
7                     0.99218229     -11.1837004
7.002                0.992151578     -11.2000086
7.004                0.992120695     -11.2163135
7.006                0.992089642     -11.2326151
7.008                0.992058419     -11.2489135
7.01                 0.992044969       -11.26477
7.012                0.992031545      -11.280621
7.014                0.992018148     -11.2964666
7.016                0.992004781     -11.3123068
7.018                0.992009831     -11.3282511
7.02                 0.992014903     -11.3441954
7.022                0.992019997     -11.3601397
7.024                0.992025112      -11.376084
7.026                0.992045202     -11.3925726
7.028                0.992065182     -11.4090612
7.03                 0.992085051     -11.4255499
7.032                 0.99210481     -11.4420387
7.034                0.992133703      -11.459328
7.036                0.992162578     -11.4766115
7.038                0.992191433     -11.4938893
7.04                 0.992220269     -11.5111614
7.042                0.992252007      -11.529309
7.044                0.992283873     -11.5474514
7.046                0.992315865     -11.5655883
7.048                0.992347984       -11.58372
7.05                  0.99237814     -11.6026807
7.052                0.992408331     -11.6216401
7.054                0.992438558     -11.6405982
7.056                0.992468821     -11.6595551
7.058                0.992493285      -11.679265
7.06                 0.992517726     -11.6989703
7.062                0.992542143      -11.718671
7.064                0.992566537      -11.738367
7.066                0.992581006     -11.7586988
7.068                0.992595591      -11.779023
7.07                 0.992610293     -11.7993395
7.072                0.992625112     -11.8196484
7.074                0.992625954     -11.8403663
7.076                0.992626906     -11.8610819
7.078                0.992627967     -11.8817952
7.08                 0.992629136     -11.9025062
7.082                 0.99261425     -11.9232586
7.084                0.992599262     -11.9440118
7.086                0.992584172     -11.9647661
7.088                0.992568979     -11.9855212
7.09                    0.992539     -12.0058756
7.092                0.992508869     -12.0262267
7.094                0.992478588     -12.0465747
7.096                0.992448156     -12.0669195
7.098                  0.9924079     -12.0864768
7.1                  0.992367611     -12.1060297
7.102                0.992327291     -12.1255783
7.104                0.992286939     -12.1451225
7.106                0.992245205     -12.1636685
7.108                0.992203396     -12.1822151
7.11                 0.992161511     -12.2007623
7.112                 0.99211955     -12.2193102
7.114                0.992085863     -12.2369427
7.116                0.992051995     -12.2545758
7.118                0.992017948     -12.2722094
7.12                 0.991983722     -12.2898436
7.122                0.991964856     -12.3069371
7.124                0.991945919     -12.3240269
7.126                0.991926911     -12.3411132
7.128                0.991907834      -12.358196
7.13                 0.991906337     -12.3752491
7.132                0.991904885     -12.3923004
7.134                0.991903479     -12.4093499
7.136                0.991902117     -12.4263978
7.138                0.991916044     -12.4438799
7.14                 0.991929951     -12.4613631
7.142                0.991943836     -12.4788475
7.144                0.991957702     -12.4963329
7.146                 0.99198167     -12.5145575
7.148                0.992005601     -12.5327799
7.15                 0.992029495     -12.5510001
7.152                0.992053351     -12.5692181
7.154                0.992081145     -12.5882902
7.156                0.992109032     -12.6073572
7.158                0.992137012     -12.6264192
7.16                 0.992165085     -12.6454762
7.162                0.992191725     -12.6653585
7.164                0.992218469      -12.685239
7.166                0.992245318     -12.7051176
7.168                0.992272271     -12.7249943
7.17                 0.992293978     -12.7455951
7.172                0.992315673     -12.7661952
7.174                0.992337359     -12.7867942
7.176                0.992359035     -12.8073923
7.178                0.992372185     -12.8285947
7.18                 0.992385357     -12.8497927
7.182                 0.99239855     -12.8709861
7.184                0.992411765     -12.8921751
7.186                 0.99241309     -12.9137868
7.188                0.992414512     -12.9353953
7.19                 0.992416031     -12.9570005
7.192                0.992417648     -12.9786024
7.194                0.992405141      -13.000336
7.196                0.992392623     -13.0220706
7.198                0.992380092     -13.0438061
7.2                  0.992367548     -13.0655427
7.202                0.992341135     -13.0870362
7.204                0.992314585     -13.1085295
7.206                0.992287899     -13.1300225
7.208                0.992261076     -13.1515153
7.21                 0.992223913     -13.1723996
7.212                0.992186675     -13.1932802
7.214                0.992149362     -13.2141571
7.216                0.992111974     -13.2350302
7.218                0.992070939     -13.2550482
7.22                 0.992029877     -13.2750648
7.222                0.991988787     -13.2950799
7.224                0.991947671     -13.3150936
7.226                0.991911614     -13.3342371
7.228                0.991875428     -13.3533823
7.23                 0.991839113     -13.3725292
7.232                0.991802669     -13.3916778
7.234                0.991778975     -13.4102188
7.236                0.991755145     -13.4287589
7.238                 0.99173118     -13.4472982
7.24                 0.991707081     -13.4658366
7.242                0.991699448     -13.4842215
7.244                0.991691814     -13.5026041
7.246                0.991684178     -13.5209844
7.248                0.991676542     -13.5393624
7.25                 0.991684392     -13.5580647
7.252                0.991692277     -13.5767675
7.254                0.991700195     -13.5954706
7.256                0.991708148     -13.6141742
7.258                0.991727201      -13.633548
7.26                 0.991746244     -13.6529218
7.262                0.991765275     -13.6722957
7.264                0.991784296     -13.6916697
7.266                0.991808466     -13.7118796
7.268                0.991832692      -13.732086
7.27                 0.991856972      -13.752289
7.272                0.991881308     -13.7724886
7.274                0.991905046     -13.7935226
7.276                0.991928914     -13.8145536
7.278                0.991952912     -13.8355817
7.28                  0.99197704     -13.8566069
7.282                0.991996362     -13.8783669
7.284                0.992015728     -13.9001271
7.286                0.992035141     -13.9218873
7.288                0.992054599     -13.9436475
7.29                 0.992066293     -13.9660012
7.292                0.992077963     -13.9883536
7.294                 0.99208961     -14.0107047
7.296                0.992101235     -14.0330544
7.298                0.992102478     -14.0558358
7.3                  0.992103759     -14.0786143
7.302                0.992105079       -14.10139
7.304                0.992106436      -14.124163
7.306                 0.99209528     -14.1471336
7.308                0.992084153     -14.1701043
7.31                 0.992073055     -14.1930751
7.312                0.992061985     -14.2160461
7.314                0.992038019     -14.2388989
7.316                0.992013963      -14.261753
7.318                0.991989818     -14.2846084
7.32                 0.991965583     -14.3074651
7.322                0.991930818       -14.32987
7.324                0.991895948     -14.3522728
7.326                0.991860973     -14.3746736
7.328                0.991825895     -14.3970725
7.33                 0.991785525     -14.4187574
7.332                0.991745132     -14.4404395
7.334                0.991704714     -14.4621186
7.336                0.991664273     -14.4837949
7.338                0.991626109     -14.5046702
7.34                  0.99158788     -14.5255463
7.342                0.991549588      -14.546423
7.344                0.991511231     -14.5673005
7.346                0.991482899     -14.5875359
7.348                0.991454422     -14.6077725
7.35                   0.9914258     -14.6280103
7.352                0.991397033     -14.6482492
7.354                0.991383245     -14.6682297
7.356                0.991369388     -14.6882087
7.358                 0.99135546     -14.7081864
7.36                 0.991341461     -14.7281626
7.362                0.991342952     -14.7483453
7.364                0.991344477     -14.7685274
7.366                0.991346035     -14.7887089
7.368                0.991347627     -14.8088898
7.37                 0.991361303     -14.8296598
7.372                0.991375007     -14.8504307
7.374                 0.99138874     -14.8712024
7.376                0.991402501      -14.891975
7.378                0.991422739     -14.9135614
7.38                 0.991443017     -14.9351461
7.382                0.991463334     -14.9567294
7.384                0.991483691     -14.9783113
7.386                0.991504546     -15.0007447
7.388                0.991525523     -15.0231748
7.39                 0.991546622     -15.0456017
7.392                0.991567844     -15.0680252
7.394                0.991584823     -15.0912116
7.396                0.991601904     -15.1143973
7.398                0.991619088     -15.1375823
7.4                  0.991636373     -15.1607666
7.402                0.991646387     -15.1845589
7.404                0.991656388     -15.2083518
7.406                0.991666376     -15.2321452
7.408                0.991676352     -15.2559393
7.41                 0.991676899     -15.2801775
7.412                0.991677423     -15.3044145
7.414                0.991677922     -15.3286501
7.416                0.991678397     -15.3528845
7.418                0.991667706     -15.3773634
7.42                  0.99165703     -15.4018416
7.422                 0.99164637     -15.4263191
7.424                0.991635725     -15.4507961
7.426                0.991613277     -15.4752529
7.428                0.991590783     -15.4997112
7.43                 0.991568244      -15.524171
7.432                 0.99154566     -15.5486323
7.434                 0.99151271     -15.5727805
7.436                0.991479655     -15.5969285
7.438                0.991446495     -15.6210761
7.44                  0.99141323     -15.6452236
7.442                0.991373654     -15.6687948
7.444                0.991334035     -15.6923628
7.446                0.991294371     -15.7159277
7.448                0.991254664     -15.7394895
7.45                 0.991214961     -15.7623427
7.452                0.991175242     -15.7851948
7.454                0.991135508     -15.8080455
7.456                0.991095759     -15.8308949
7.458                  0.9910634     -15.8531083
7.46                 0.991030933     -15.8753232
7.462                0.990998359     -15.8975397
7.464                0.990965678     -15.9197577
7.466                0.990946183     -15.9416448
7.468                0.990926566     -15.9635319
7.47                 0.990906826     -15.9854191
7.472                0.990886964     -16.0073064
7.474                0.990882254     -16.0292888
7.476                0.990877532     -16.0512701
7.478                0.990872799     -16.0732503
7.48                 0.990868053     -16.0952295
7.482                 0.99087618     -16.1177198
7.484                0.990884356     -16.1402106
7.486                0.990892582     -16.1627018
7.488                0.990900856     -16.1851935
7.49                 0.990916937     -16.2084667
7.492                0.990933068     -16.2317399
7.494                0.990949248     -16.2550129
7.496                0.990965478     -16.2782859
7.498                0.990983444     -16.3024335
7.5                  0.991001515     -16.3265783
7.502                0.991019692     -16.3507204
7.504                0.991037975     -16.3748597
7.506                0.991052708     -16.3998066
7.508                0.991067581     -16.4247516
7.51                 0.991082593     -16.4496944
7.512                0.991097745     -16.4746351
7.514                0.991105846     -16.5002304
7.516                0.991113982     -16.5258266
7.518                0.991122155     -16.5514234
7.52                 0.991130364     -16.5770211
7.522                0.991129574     -16.6030868
7.524                0.991128727     -16.6291529
7.526                0.991127822     -16.6552194
7.528                 0.99112686     -16.6812863
7.53                 0.991115624      -16.707633
7.532                0.991104353     -16.7339791
7.534                0.991093048     -16.7603245
7.536                0.991081706     -16.7866694
7.538                0.991059427     -16.8130714
7.54                 0.991037116     -16.8394744
7.542                0.991014773     -16.8658783
7.544                0.990992397     -16.8922831
7.546                0.990959975      -16.918486
7.548                0.990927466     -16.9446897
7.55                 0.990894868     -16.9708941
7.552                0.990862183     -16.9970993
7.554                0.990822505     -17.0228546
7.556                0.990782761     -17.0486073
7.558                0.990742952     -17.0743575
7.56                 0.990703078     -17.1001052
7.562                0.990661468     -17.1252406
7.564                0.990619865     -17.1503729
7.566                0.990578266     -17.1755019
7.568                0.990536674     -17.2006276
7.57                 0.990500028     -17.2251503
7.572                0.990463336     -17.2496732
7.574                0.990426597     -17.2741963
7.576                0.990389812     -17.2987196
7.578                0.990364254     -17.3228573
7.58                 0.990338563     -17.3469962
7.582                0.990312735     -17.3711364
7.584                0.990286772     -17.3952776
7.586                0.990275335     -17.4194157
7.588                0.990263817     -17.4435532
7.59                 0.990252218       -17.46769
7.592                0.990240537     -17.4918261
7.594                0.990242452      -17.516384
7.596                0.990244395     -17.5409416
7.598                0.990246367     -17.5654989
7.6                  0.990248367     -17.5900558
7.602                0.990259634     -17.6153537
7.604                0.990270967      -17.640652
7.606                0.990282366     -17.6659505
7.608                 0.99029383     -17.6912495
7.61                 0.990308564     -17.7174435
7.612                0.990323397     -17.7436356
7.614                0.990338329     -17.7698259
7.616                0.990353361     -17.7960144
7.618                0.990365907      -17.823072
7.62                  0.99037861     -17.8501264
7.622                 0.99039147     -17.8771777
7.624                0.990404488     -17.9042257
7.626                0.990410872     -17.9319972
7.628                0.990417357     -17.9597681
7.63                 0.990423944     -17.9875384
7.632                0.990430633     -18.0153081
7.634                0.990428459     -18.0436036
7.636                0.990426241     -18.0719003
7.638                0.990423978     -18.1001984
7.64                 0.990421669     -18.1284977
7.642                0.990409567     -18.1571259
7.644                0.990397371     -18.1857544
7.646                0.990385082      -18.214383
7.648                0.990372699     -18.2430119
7.65                 0.990350085     -18.2717661
7.652                0.990327408     -18.3005207
7.654                0.990304668     -18.3292755
7.656                0.990281867     -18.3580307
7.658                0.990249384     -18.3866869
7.66                 0.990216825      -18.415344
7.662                0.990184191      -18.444002
7.664                0.990151483     -18.4726609
7.666                0.990111383     -18.5009894
7.668                 0.99007121     -18.5293163
7.67                 0.990030965     -18.5576414
7.672                0.989990646     -18.5859649
7.674                0.989947194     -18.6137899
7.676                 0.98990375     -18.6416103
7.678                0.989860315     -18.6694262
7.68                 0.989816887     -18.6972374
7.682                0.989776232     -18.7245032
7.684                0.989735596     -18.7517666
7.686                0.989694979     -18.7790275
7.688                0.989654381     -18.8062859
7.69                 0.989622816     -18.8331457
7.692                 0.98959115     -18.8600065
7.694                0.989559385     -18.8868681
7.696                0.989527518     -18.9137306
7.698                0.989509046     -18.9405144
7.7                  0.989490432     -18.9672986
7.702                0.989471675      -18.994083
7.704                0.989452775     -19.0208676
7.706                0.989447828     -19.0479869
7.708                0.989442844     -19.0751054
7.71                 0.989437822     -19.1022231
7.712                0.989432762     -19.1293399
7.714                0.989438252     -19.1571555
7.716                0.989443801     -19.1849709
7.718                 0.98944941     -19.2127862
7.72                 0.989455079     -19.2406014
7.722                0.989465566     -19.2693199
7.724                 0.98947616     -19.2980372
7.726                0.989486859     -19.3267533
7.728                0.989497663     -19.3554682
7.73                 0.989507153     -19.3851203
7.732                0.989516812     -19.4147687
7.734                0.989526638     -19.4444132
7.736                0.989536633     -19.4740538
7.738                0.989540419     -19.5045029
7.74                 0.989544373      -19.534949
7.742                0.989548494     -19.5653921
7.744                0.989552783     -19.5958322
7.746                0.989548131     -19.6268768
7.748                0.989543491     -19.6579219
7.75                 0.989538863     -19.6889674
7.752                0.989534246     -19.7200134
7.754                0.989519827     -19.7514472
7.756                0.989505274     -19.7828821
7.758                0.989490587     -19.8143181
7.76                 0.989475766     -19.8457552
7.762                0.989451074       -19.87738
7.764                0.989426243     -19.9090051
7.766                0.989401275     -19.9406305
7.768                0.989376169     -19.9722562
7.77                  0.98934174     -20.0038636
7.772                 0.98930721     -20.0354715
7.774                0.989272578     -20.0670798
7.776                0.989237846     -20.0986887
7.778                0.989195549     -20.1300705
7.78                 0.989153175     -20.1614509
7.782                0.989110723     -20.1928301
7.784                0.989068194      -20.224208
7.786                0.989021577     -20.2551889
7.788                0.988974967     -20.2861643
7.79                 0.988928364     -20.3171343
7.792                0.988881767     -20.3480989
