! TOUCHSTONE file generated by CST DESIGN STUDIO
! Date and time: Mon Feb 10 16:57:14 2025
! Project name: C:\Work\MatlabApps\UnitCellType2OptimizationMatlab\CST\unitcell.cst
! Tree item: Tasks\Sweep1\SPara1\S-Parameters
! Header version: 2024
! Port assignment regex: !\s*Touchstone port\s*([0-9]+)\s*=\s*(CST MWS port|CST DES external port|CST DES block port)\s*(.+)\s* \(\"(.*)\"\)(\s*mode\s*([0-9]+))?.*
! Touchstone port assignment:
! Touchstone port 1 = CST DES external port 1 ("")
# GHz S MA R 50
7                    0.991113296     -10.2526926
7.002                0.991088731     -10.2689147
7.004                0.991063907     -10.2851286
7.006                0.991038828     -10.3013342
7.008                0.991013494     -10.3175316
7.01                 0.991010148     -10.3333946
7.012                0.991006885     -10.3492461
7.014                 0.99100371     -10.3650862
7.016                0.991000623     -10.3809151
7.018                0.991018365     -10.3970661
7.02                 0.991036144     -10.4132154
7.022                0.991053961     -10.4293628
7.024                0.991071816     -10.4455084
7.026                0.991104863     -10.4624492
7.028                0.991137681     -10.4793871
7.03                  0.99117027     -10.4963223
7.032                 0.99120263     -10.5132547
7.034                0.991242195     -10.5311974
7.036                0.991281696     -10.5491268
7.038                0.991321132     -10.5670431
7.04                 0.991360504     -10.5849466
7.042                0.991399369     -10.6038363
7.044                0.991438428     -10.6227148
7.046                0.991477679      -10.641582
7.048                0.991517121      -10.660438
7.05                 0.991551179      -10.680122
7.052                0.991585242      -10.699802
7.054                0.991619311     -10.7194779
7.056                0.991653385     -10.7391499
7.058                0.991679224     -10.7595036
7.06                 0.991704958     -10.7798468
7.062                 0.99173059     -10.8001795
7.064                0.991756121     -10.8205018
7.066                0.991770052     -10.8413669
7.068                 0.99178415     -10.8622167
7.07                 0.991798416     -10.8830512
7.072                 0.99181285     -10.9038706
7.074                0.991812047     -10.9249934
7.076                 0.99181141     -10.9461107
7.078                0.991810939     -10.9672226
7.08                 0.991810633      -10.988329
7.082                0.991793645     -11.0093499
7.084                0.991776463     -11.0303701
7.086                0.991759089     -11.0513896
7.088                0.991741522     -11.0724084
7.09                 0.991709354     -11.0928815
7.092                0.991676949     -11.1133461
7.094                0.991644306     -11.1338023
7.096                0.991611426     -11.1542502
7.098                0.991569741     -11.1737583
7.1                  0.991528069     -11.1932569
7.102                0.991486407      -11.212746
7.104                0.991444757     -11.2322256
7.106                0.991403949     -11.2505729
7.108                0.991363073       -11.26892
7.11                 0.991322128     -11.2872668
7.112                0.991281114     -11.3056134
7.114                0.991251903     -11.3229815
7.116                 0.99122242     -11.3403489
7.118                0.991192666     -11.3577153
7.12                 0.991162643     -11.3750808
7.122                 0.99115174       -11.39196
7.124                0.991140747     -11.4088312
7.126                0.991129663     -11.4256943
7.128                0.991118494     -11.4425496
7.13                 0.991127448     -11.4595379
7.132                0.991136493     -11.4765217
7.134                 0.99114563     -11.4935011
7.136                 0.99115486     -11.5104762
7.138                0.991180023     -11.5280979
7.14                 0.991205131     -11.5457197
7.142                0.991230182     -11.5633415
7.144                0.991255178     -11.5809634
7.146                0.991289008     -11.5995195
7.148                 0.99132274     -11.6180693
7.15                 0.991356375      -11.636613
7.152                0.991389913     -11.6551506
7.154                0.991424599     -11.6746655
7.156                 0.99145942     -11.6941698
7.158                0.991494373     -11.7136637
7.16                 0.991529459     -11.7331473
7.162                0.991559817     -11.7534784
7.164                0.991590314      -11.773805
7.166                 0.99162095     -11.7941271
7.168                0.991651724     -11.8144448
7.17                 0.991674639      -11.835425
7.172                0.991697478     -11.8564019
7.174                0.991720242     -11.8773755
7.176                0.991742931     -11.8983457
7.178                0.991755477     -11.9198205
7.18                 0.991768015     -11.9412856
7.182                0.991780547     -11.9627411
7.184                0.991793075     -11.9841871
7.186                0.991792723     -12.0059464
7.188                0.991792518     -12.0276987
7.19                  0.99179246     -12.0494441
7.192                0.991792549     -12.0711826
7.194                0.991778075     -12.0929357
7.196                 0.99176357      -12.114689
7.198                0.991749035     -12.1364426
7.2                  0.991734469     -12.1581963
7.202                0.991706278     -12.1795824
7.204                0.991677868     -12.2009658
7.206                0.991649239     -12.2223465
7.208                0.991620391     -12.2437248
7.21                 0.991582119     -12.2643706
7.212                0.991543773     -12.2850081
7.214                0.991505354     -12.3056374
7.216                0.991466861     -12.3262586
7.218                0.991426394     -12.3459145
7.22                 0.991385948     -12.3655669
7.222                0.991345522     -12.3852158
7.224                0.991305116     -12.4048612
7.226                0.991272435     -12.4235707
7.228                 0.99123958     -12.4422819
7.23                 0.991206549     -12.4609948
7.232                0.991173344     -12.4797093
7.234                0.991156094     -12.4978355
7.236                0.991138642     -12.5159587
7.238                0.991120988     -12.5340787
7.24                 0.991103135     -12.5521956
7.242                0.991104302     -12.5702749
7.244                0.991105486      -12.588349
7.246                0.991106685     -12.6064179
7.248                0.991107902     -12.6244819
7.25                 0.991125594     -12.6430452
7.252                0.991143338     -12.6616082
7.254                0.991161131     -12.6801707
7.256                0.991178974     -12.6987328
7.258                0.991207178     -12.7181424
7.26                 0.991235334     -12.7375505
7.262                0.991263442     -12.7569571
7.264                0.991291503     -12.7763623
7.266                0.991322495     -12.7967308
7.268                0.991353551     -12.8170917
7.27                 0.991384673     -12.8374453
7.272                0.991415858     -12.8577917
7.274                0.991443429     -12.8790147
7.276                0.991471189     -12.9002319
7.278                0.991499138     -12.9214431
7.28                 0.991527276     -12.9426483
7.282                0.991547871     -12.9645437
7.284                0.991568496      -12.986438
7.286                0.991589149     -13.0083313
7.288                0.991609833     -13.0302236
7.29                 0.991621001     -13.0526108
7.292                0.991632083     -13.0749941
7.294                0.991643079     -13.0973735
7.296                0.991653991      -13.119749
7.298                0.991653643     -13.1424414
7.3                  0.991653337     -13.1651275
7.302                0.991653071     -13.1878075
7.304                0.991652847     -13.2104813
7.306                0.991639825     -13.2332372
7.308                0.991626845     -13.2559922
7.31                 0.991613909     -13.2787462
7.312                0.991601015     -13.3014993
7.314                0.991575533     -13.3240198
7.316                 0.99154991     -13.3465409
7.318                0.991524146     -13.3690627
7.32                 0.991498243     -13.3915852
7.322                0.991462698     -13.4135486
7.324                0.991427019      -13.435507
7.326                0.991391207     -13.4574603
7.328                0.991355262     -13.4794087
7.33                 0.991315428     -13.5005515
7.332                 0.99127562     -13.5216886
7.334                0.991235838       -13.54282
7.336                 0.99119608     -13.5639456
7.338                0.991160653     -13.5842097
7.34                 0.991125172     -13.6044744
7.342                0.991089636     -13.6247395
7.344                0.991054048     -13.6450052
7.346                0.991031118     -13.6646277
7.348                0.991007975     -13.6842509
7.35                 0.990984618     -13.7038748
7.352                0.990961047     -13.7234993
7.354                0.990954895     -13.7429439
7.356                0.990948643     -13.7623848
7.358                 0.99094229      -13.781822
7.36                 0.990935836     -13.8012556
7.362                0.990946134     -13.8210373
7.364                 0.99095649     -13.8408171
7.366                0.990966903      -13.860595
7.368                0.990977374     -13.8803711
7.37                 0.990999626     -13.9008946
7.372                0.991021905     -13.9214185
7.374                0.991044209     -13.9419429
7.376                 0.99106654     -13.9624676
7.378                0.991093623     -13.9839322
7.38                 0.991120743     -14.0053929
7.382                  0.9911479     -14.0268499
7.384                0.991175093     -14.0483034
7.386                0.991200109     -14.0706659
7.388                0.991225304     -14.0930221
7.39                 0.991250675     -14.1153721
7.392                0.991276222     -14.1377158
7.394                0.991294768      -14.160797
7.396                0.991313448     -14.1838764
7.398                0.991332262      -14.206954
7.4                  0.991351211     -14.2300297
7.402                 0.99136092      -14.253623
7.404                0.991370562     -14.2772162
7.406                0.991380139      -14.300809
7.408                 0.99138965     -14.3244015
7.41                 0.991388795       -14.34832
7.412                0.991387869     -14.3722349
7.414                0.991386875     -14.3961461
7.416                0.991385811     -14.4200537
7.418                0.991373384     -14.4440861
7.42                 0.991360977     -14.4681164
7.422                0.991348591     -14.4921447
7.424                0.991336224     -14.5161708
7.426                0.991312428     -14.5400648
7.428                0.991288568     -14.5639603
7.43                 0.991264642     -14.5878572
7.432                0.991240652     -14.6117556
7.434                0.991207191     -14.6352411
7.436                0.991173589     -14.6587247
7.438                0.991139845     -14.6822067
7.44                 0.991105961     -14.7056871
7.442                0.991067061      -14.728511
7.444                0.991028148     -14.7513289
7.446                0.990989224     -14.7741407
7.448                0.990950287     -14.7969466
7.45                 0.990913028     -14.8189907
7.452                0.990875805     -14.8410324
7.454                0.990838618     -14.8630718
7.456                0.990801468     -14.8851087
7.458                0.990773838     -14.9064988
7.46                 0.990746067     -14.9278909
7.462                0.990718152     -14.9492848
7.464                0.990690096     -14.9706806
7.466                0.990677432      -14.991796
7.468                0.990664582     -15.0129104
7.47                 0.990651545     -15.0340238
7.472                 0.99063832     -15.0551362
7.474                 0.99064169     -15.0764549
7.476                0.990645044      -15.097771
7.478                0.990648382     -15.1190846
7.48                 0.990651704     -15.1403955
7.482                0.990667972     -15.1623553
7.484                0.990684306     -15.1843153
7.486                0.990700707     -15.2062754
7.488                0.990717174     -15.2282357
7.49                 0.990740152     -15.2510981
7.492                0.990763182     -15.2739596
7.494                0.990786266     -15.2968201
7.496                0.990809404     -15.3196799
7.498                 0.99083196     -15.3434805
7.5                  0.990854665      -15.367276
7.502                0.990877518     -15.3910663
7.504                0.990900518     -15.4148516
7.506                 0.99091729     -15.4394368
7.508                0.990934264     -15.4640184
7.51                 0.990951441     -15.4885964
7.512                 0.99096882     -15.5131705
7.514                0.990976978      -15.538321
7.516                0.990985157     -15.5634721
7.518                0.990993358     -15.5886237
7.52                  0.99100158      -15.613776
7.522                0.990999685     -15.6392779
7.524                0.990997661     -15.6647792
7.526                 0.99099551     -15.6902799
7.528                0.990993231       -15.71578
7.53                 0.990980499     -15.7414344
7.532                0.990967699     -15.7670866
7.534                0.990954831     -15.7927369
7.536                0.990941894     -15.8183851
7.538                0.990918465     -15.8439746
7.54                 0.990894992     -15.8695649
7.542                0.990871477     -15.8951561
7.544                0.990847918     -15.9207482
7.546                0.990815247     -15.9460393
7.548                0.990782459      -15.971331
7.55                 0.990749556     -15.9966232
7.552                0.990716539     -16.0219159
7.554                0.990677808     -16.0466831
7.556                0.990639025     -16.0714455
7.558                0.990600191     -16.0962033
7.56                 0.990561304     -16.1209563
7.562                0.990522164     -16.1450499
7.564                  0.9904831     -16.1691383
7.566                0.990444113     -16.1932215
7.568                0.990405203     -16.2172994
7.57                 0.990372977     -16.2407606
7.572                0.990340721     -16.2642221
7.574                0.990308437      -16.287684
7.576                0.990276124     -16.3111463
7.578                0.990256956     -16.3342559
7.58                 0.990237585     -16.3573666
7.582                0.990218011     -16.3804786
7.584                0.990198234     -16.4035918
7.586                 0.99019448     -16.4267869
7.588                0.990190598     -16.4499802
7.59                 0.990186587     -16.4731716
7.592                0.990182447      -16.496361
7.594                0.990192294     -16.5200897
7.596                0.990202177     -16.5438175
7.598                0.990212098     -16.5675443
7.6                  0.990222057     -16.5912703
7.602                 0.99024036      -16.615849
7.604                0.990258746     -16.6404281
7.606                0.990277215     -16.6650074
7.608                0.990295766     -16.6895871
7.61                   0.9903156     -16.7151318
7.612                0.990335568     -16.7406732
7.614                0.990355672     -16.7662115
7.616                 0.99037591     -16.7917465
7.618                0.990391123      -16.818156
7.62                 0.990406571     -16.8445605
7.622                0.990422253     -16.8709598
7.624                 0.99043817      -16.897354
7.626                 0.99044513     -16.9244074
7.628                0.990452227     -16.9514598
7.63                 0.990459461     -16.9785111
7.632                0.990466833     -17.0055614
7.634                 0.99046396     -17.0330226
7.636                0.990460981      -17.060485
7.638                0.990457895     -17.0879486
7.64                 0.990454701     -17.1154136
7.642                0.990441435     -17.1430755
7.644                0.990427999     -17.1707366
7.646                0.990414393     -17.1983971
7.648                0.990400617     -17.2260567
7.65                 0.990377109     -17.2537178
7.652                0.990353506     -17.2813787
7.654                0.990329807     -17.3090397
7.656                0.990306014     -17.3367006
7.658                0.990273534      -17.364158
7.66                 0.990240959     -17.3916167
7.662                0.990208288     -17.4190767
7.664                0.990175521     -17.4465379
7.666                0.990136677     -17.4735912
7.668                0.990097763     -17.5006417
7.67                 0.990058781     -17.5276893
7.672                 0.99001973     -17.5547341
7.674                0.989978967     -17.5812337
7.676                0.989938288     -17.6077264
7.678                0.989897692     -17.6342122
7.68                 0.989857181      -17.660691
7.682                0.989820923     -17.6866103
7.684                0.989784759     -17.7125263
7.686                0.989748688     -17.7384392
7.688                0.989712709     -17.7643488
7.69                 0.989687374     -17.7898816
7.692                0.989661904     -17.8154158
7.694                0.989636299     -17.8409515
7.696                0.989610558     -17.8664887
7.698                0.989599674     -17.8920114
7.7                  0.989588562     -17.9175339
7.702                0.989577221     -17.9430562
7.704                0.989565652     -17.9685782
7.706                  0.9895687     -17.9945327
7.708                0.989571679     -18.0204855
7.71                 0.989574587     -18.0464367
7.712                0.989577427     -18.0723862
7.714                0.989590255     -18.0991349
7.716                0.989603159     -18.1258836
7.718                0.989616138     -18.1526323
7.72                 0.989629194     -18.1793811
7.722                  0.9896454     -18.2071028
7.724                 0.98966175     -18.2348228
7.726                0.989678246     -18.2625412
7.728                0.989694886     -18.2902579
7.73                 0.989707843     -18.3189256
7.732                0.989721053     -18.3475877
7.734                0.989734517     -18.3762443
7.736                0.989748234     -18.4048952
7.738                0.989753328     -18.4343028
7.74                 0.989758676     -18.4637063
7.742                0.989764279     -18.4931058
7.744                0.989770135     -18.5225011
7.746                0.989765381     -18.5523921
7.748                0.989760619      -18.582284
7.75                  0.98975585     -18.6121766
7.752                0.989751073       -18.64207
7.754                0.989736013      -18.672214
7.756                0.989720714     -18.7023591
7.758                0.989705175     -18.7325052
7.76                 0.989689397     -18.7626523
7.762                0.989664271     -18.7928522
7.764                0.989638921      -18.823052
7.766                0.989613349     -18.8532517
7.768                0.989587554     -18.8834513
7.77                 0.989553544     -18.9135184
7.772                0.989519395     -18.9435865
7.774                0.989485106     -18.9736556
7.776                0.989450678     -19.0037256
7.778                0.989410084     -19.0334831
7.78                 0.989369412     -19.0632392
7.782                0.989328663     -19.0929939
7.784                0.989287836      -19.122747
7.786                0.989244364     -19.1520529
7.788                0.989200978     -19.1813513
7.79                 0.989157675     -19.2106422
7.792                0.989114457     -19.2399256
