! TOUCHSTONE file generated by CST DESIGN STUDIO
! Date and time: Mon Feb 10 16:57:04 2025
! Project name: C:\Work\MatlabApps\UnitCellType2OptimizationMatlab\CST\unitcell.cst
! Tree item: Tasks\Sweep1\SPara1\S-Parameters
! Header version: 2024
! Port assignment regex: !\s*Touchstone port\s*([0-9]+)\s*=\s*(CST MWS port|CST DES external port|CST DES block port)\s*(.+)\s* \(\"(.*)\"\)(\s*mode\s*([0-9]+))?.*
! Touchstone port assignment:
! Touchstone port 1 = CST DES external port 1 ("")
# GHz S MA R 50
7                    0.995076454     -14.1594943
7.002                0.995036329      -14.179432
7.004                0.994996118     -14.1993716
7.006                0.994955818     -14.2193132
7.008                0.994915432     -14.2392568
7.01                 0.994879379     -14.2585545
7.012                0.994843248     -14.2778543
7.014                0.994807039     -14.2971562
7.016                0.994770754     -14.3164601
7.018                0.994743425     -14.3353129
7.02                 0.994716031     -14.3541675
7.022                0.994688573     -14.3730237
7.024                 0.99466105     -14.3918816
7.026                0.994645127     -14.4105539
7.028                0.994629165      -14.429227
7.03                 0.994613162      -14.447901
7.032                0.994597118     -14.4665759
7.034                0.994593446     -14.4853496
7.036                 0.99458977      -14.504124
7.038                0.994586092      -14.522899
7.04                 0.994582411     -14.5416747
7.042                0.994590148     -14.5608303
7.044                0.994597916     -14.5799868
7.046                0.994605714     -14.5991441
7.048                0.994613543     -14.6183022
7.05                 0.994630163     -14.6380902
7.052                0.994646836     -14.6578787
7.054                0.994663561     -14.6776676
7.056                0.994680339      -14.697457
7.058                0.994701553     -14.7180747
7.06                 0.994722841     -14.7386927
7.062                0.994744201     -14.7593109
7.064                0.994765633     -14.7799294
7.066                0.994785762     -14.8014535
7.068                0.994805972     -14.8229784
7.07                 0.994826265     -14.8445042
7.072                 0.99484664     -14.8660308
7.074                0.994859585     -14.8883826
7.076                0.994872595     -14.9107357
7.078                0.994885668     -14.9330902
7.08                 0.994898805     -14.9554461
7.082                0.994899534     -14.9783795
7.084                 0.99490029     -15.0013143
7.086                0.994901073     -15.0242505
7.088                0.994901883     -15.0471882
7.09                  0.99488794     -15.0703311
7.092                 0.99487399     -15.0934759
7.094                0.994860031     -15.1166224
7.096                0.994846065     -15.1397707
7.098                0.994818397     -15.1627339
7.1                  0.994790687     -15.1856996
7.102                0.994762935     -15.2086678
7.104                0.994735142     -15.2316387
7.106                0.994697882     -15.2541061
7.108                0.994660547     -15.2765763
7.11                 0.994623138     -15.2990493
7.112                0.994585654      -15.321525
7.114                0.994544807     -15.3433391
7.116                 0.99450387     -15.3651555
7.118                0.994462842     -15.3869744
7.12                 0.994421724     -15.4087956
7.122                 0.99438351     -15.4299815
7.124                0.994345211     -15.4511696
7.126                0.994306829     -15.4723601
7.128                0.994268364     -15.4935529
7.13                 0.994237801     -15.5142792
7.132                0.994207168     -15.5350078
7.134                0.994176466     -15.5557385
7.136                0.994145695     -15.5764716
7.138                0.994125822     -15.5969933
7.14                 0.994105899     -15.6175166
7.142                0.994085927     -15.6380415
7.144                0.994065905     -15.6585679
7.146                0.994057774      -15.679165
7.148                0.994049626     -15.6997631
7.15                 0.994041461     -15.7203622
7.152                0.994033278     -15.7409623
7.154                0.994036247     -15.7619003
7.156                0.994039236     -15.7828393
7.158                0.994042244     -15.8037793
7.16                 0.994045272     -15.8247205
7.162                0.994057187     -15.8462437
7.164                0.994069146     -15.8677678
7.166                0.994081149      -15.889293
7.168                0.994093195     -15.9108193
7.17                 0.994110415     -15.9331177
7.172                0.994127696     -15.9554169
7.174                0.994145036     -15.9777168
7.176                0.994162437     -16.0000173
7.178                0.994179961     -16.0231958
7.18                 0.994197559     -16.0463753
7.182                 0.99421523     -16.0695557
7.184                0.994232974      -16.092737
7.186                0.994245085     -16.1167634
7.188                0.994257264     -16.1407915
7.19                 0.994269508     -16.1648213
7.192                0.994281819     -16.1888528
7.194                0.994283387     -16.2135358
7.196                0.994284991     -16.2382208
7.198                0.994286629     -16.2629079
7.2                  0.994288301     -16.2875971
7.202                 0.99427612     -16.3126147
7.204                0.994263937     -16.3376346
7.206                0.994251752     -16.3626567
7.208                0.994239565     -16.3876809
7.21                 0.994213529     -16.4126543
7.212                0.994187458     -16.4376306
7.214                0.994161354     -16.4626097
7.216                0.994135216     -16.4875917
7.218                0.994098483     -16.5121825
7.22                 0.994061685     -16.5367766
7.222                 0.99402482     -16.5613742
7.224                0.993987888     -16.5859752
7.226                0.993945981     -16.6099785
7.228                0.993903981     -16.6339848
7.23                  0.99386189     -16.6579943
7.232                0.993819707     -16.6820068
7.234                0.993778896     -16.7053968
7.236                0.993737992     -16.7287896
7.238                0.993696995      -16.752185
7.24                 0.993655905      -16.775583
7.242                0.993621607     -16.7984968
7.244                0.993587231     -16.8214132
7.246                0.993552778     -16.8443322
7.248                0.993518248     -16.8672539
7.25                 0.993493999     -16.8899412
7.252                0.993469693     -16.9126308
7.254                0.993445328     -16.9353226
7.256                0.993420906     -16.9580168
7.258                0.993408078     -16.9807541
7.26                 0.993395219     -17.0034929
7.262                 0.99338233     -17.0262333
7.264                 0.99336941     -17.0489754
7.266                0.993367559     -17.0720298
7.268                0.993365715     -17.0950857
7.27                 0.993363877     -17.1181429
7.272                0.993362045     -17.1412016
7.274                0.993369242     -17.1648091
7.276                0.993376474     -17.1884181
7.278                0.993383742     -17.2120287
7.28                 0.993391046     -17.2356408
7.282                0.993404081     -17.2599958
7.284                0.993417167     -17.2843521
7.286                0.993430304     -17.3087097
7.288                0.993443493     -17.3330687
7.29                 0.993457915     -17.3582834
7.292                  0.9934724     -17.3834993
7.294                0.993486947     -17.4087165
7.296                0.993501557     -17.4339349
7.298                0.993512114     -17.4600171
7.3                  0.993522736     -17.4861013
7.302                0.993533423     -17.5121874
7.304                0.993544174     -17.5382755
7.306                0.993545716     -17.5650866
7.308                  0.9935473     -17.5919004
7.31                 0.993548926     -17.6187168
7.312                0.993550594      -17.645536
7.314                0.993539365     -17.6728003
7.316                 0.99352814     -17.7000675
7.318                 0.99351692     -17.7273376
7.32                 0.993505704     -17.7546106
7.322                0.993480627     -17.7819701
7.324                0.993455519     -17.8093331
7.326                0.993430382     -17.8366994
7.328                0.993405215      -17.864069
7.33                  0.99336841     -17.8911705
7.332                0.993331544     -17.9182761
7.334                0.993294618     -17.9453858
7.336                0.993257633     -17.9724995
7.338                0.993214005     -17.9990923
7.34                 0.993170288     -18.0256891
7.342                0.993126479       -18.05229
7.344                0.993082579      -18.078895
7.346                0.993038334      -18.104898
7.348                0.992993984     -18.1309045
7.35                  0.99294953     -18.1569143
7.352                0.992904972     -18.1829275
7.354                0.992865908      -18.208442
7.356                0.992826754     -18.2339595
7.358                0.992787507     -18.2594802
7.36                 0.992748169     -18.2850039
7.362                0.992718454     -18.3102577
7.364                 0.99268867     -18.3355144
7.366                0.992658816     -18.3607741
7.368                0.992628892     -18.3860368
7.37                 0.992610402     -18.4113083
7.372                0.992591867     -18.4365822
7.374                0.992573287     -18.4618585
7.376                0.992554661     -18.4871373
7.378                0.992547213       -18.51271
7.38                 0.992539754     -18.5382846
7.382                0.992532285     -18.5638613
7.384                0.992524806     -18.5894399
7.386                 0.99252664     -18.6155494
7.388                  0.9925285      -18.641661
7.39                 0.992530385     -18.6677747
7.392                0.992532296     -18.6938906
7.394                0.992540473     -18.7207304
7.396                0.992548696     -18.7475725
7.398                0.992556963     -18.7744167
7.4                  0.992565274     -18.8012631
7.402                0.992575823     -18.8289554
7.404                0.992586425     -18.8566495
7.406                0.992597079     -18.8843456
7.408                0.992607785     -18.9120435
7.41                 0.992615846     -18.9406252
7.412                0.992623964     -18.9692091
7.414                 0.99263214     -18.9977953
7.416                0.992640374     -19.0263837
7.418                0.992640937     -19.0557634
7.42                 0.992641545     -19.0851464
7.422                0.992642199     -19.1145325
7.424                0.992642898      -19.143922
7.426                0.992631853     -19.1738692
7.428                 0.99262082     -19.2038203
7.43                 0.992609797     -19.2337752
7.432                0.992598787     -19.2637339
7.434                 0.99257416     -19.2939262
7.436                0.992549506     -19.3241227
7.438                0.992524826     -19.3543233
7.44                  0.99250012     -19.3845281
7.442                0.992462996     -19.4146033
7.444                0.992425816     -19.4446834
7.446                0.992388581     -19.4747683
7.448                 0.99235129      -19.504858
7.45                 0.992305712     -19.5345283
7.452                0.992260048     -19.5642037
7.454                0.992214296     -19.5938844
7.456                0.992168457     -19.6235703
7.458                0.992120416     -19.6526977
7.46                 0.992072262     -19.6818297
7.462                0.992023995     -19.7109662
7.464                0.991975615     -19.7401073
7.466                0.991931265     -19.7687495
7.468                0.991886804     -19.7973954
7.47                 0.991842233      -19.826045
7.472                0.991797551     -19.8546985
7.474                 0.99176166     -19.8830477
7.476                0.991725683     -19.9114005
7.478                0.991689619      -19.939757
7.48                 0.991653467     -19.9681173
7.482                0.991628565     -19.9964627
7.484                0.991603602     -20.0248115
7.486                0.991578578     -20.0531638
7.488                0.991553494     -20.0815196
7.49                 0.991539802     -20.1101507
7.492                0.991526081     -20.1387846
7.494                0.991512331     -20.1674215
7.496                0.991498553     -20.1960614
7.498                0.991494456     -20.2252343
7.5                  0.991490369     -20.2544101
7.502                0.991486292     -20.2835888
7.504                0.991482226     -20.3127703
7.506                0.991484911     -20.3426777
7.508                0.991487634     -20.3725883
7.51                 0.991490395      -20.402502
7.512                0.991493195     -20.4324189
7.514                0.991498947     -20.4631987
7.516                0.991504744     -20.4939814
7.518                0.991510586      -20.524767
7.52                 0.991516472     -20.5555556
7.522                0.991520809     -20.5872531
7.524                0.991525193     -20.6189535
7.526                0.991529623     -20.6506567
7.528                  0.9915341     -20.6823628
7.53                 0.991532192     -20.7149232
7.532                0.991530327     -20.7474874
7.534                0.991528504     -20.7800555
7.536                0.991526722     -20.8126274
7.538                0.991514242     -20.8458706
7.54                 0.991501778     -20.8791188
7.542                 0.99148933     -20.9123718
7.544                0.991476897     -20.9456298
7.546                0.991451198     -20.9792623
7.548                0.991425474     -21.0129002
7.55                 0.991399726     -21.0465436
7.552                0.991373954     -21.0801923
7.554                0.991335068     -21.1138611
7.556                0.991296126     -21.1475359
7.558                0.991257128     -21.1812167
7.56                 0.991218072     -21.2149034
7.562                0.991169189     -21.2482837
7.564                0.991120219     -21.2816707
7.566                0.991071164     -21.3150644
7.568                0.991022023     -21.3484646
7.57                 0.990968696     -21.3813688
7.572                0.990915249     -21.4142791
7.574                0.990861682     -21.4471957
7.576                0.990807995     -21.4801185
7.578                0.990756646     -21.5125398
7.58                 0.990705164     -21.5449659
7.582                0.990653547     -21.5773971
7.584                0.990601796     -21.6098332
7.586                0.990557934     -21.6419352
7.588                0.990513958     -21.6740416
7.59                 0.990469867     -21.7061525
7.592                0.990425661     -21.7382678
7.594                0.990392606     -21.7703334
7.596                0.990359469     -21.8024035
7.598                0.990326248     -21.8344782
7.6                  0.990292944     -21.8665574
7.602                0.990271516      -21.898895
7.604                0.990250038     -21.9312368
7.606                0.990228509     -21.9635829
7.608                0.990206932     -21.9959333
7.61                 0.990195771     -22.0288286
7.612                0.990184602     -22.0617278
7.614                0.990173424      -22.094631
7.616                0.990162237     -22.1275383
7.618                0.990158571      -22.161203
7.62                 0.990154935     -22.1948721
7.622                0.990151328     -22.2285457
7.624                0.990147751     -22.2622236
7.626                0.990147956     -22.2968013
7.628                0.990148202     -22.3313836
7.63                 0.990148489     -22.3659703
7.632                0.990148818     -22.4005615
7.634                0.990148578      -22.436117
7.636                0.990148374     -22.4716767
7.638                0.990148208     -22.5072404
7.64                 0.990148077     -22.5428082
7.642                0.990142741     -22.5793139
7.644                0.990137438      -22.615824
7.646                0.990132168     -22.6523387
7.648                0.990126929     -22.6888581
7.65                 0.990112032      -22.726172
7.652                 0.99009715     -22.7634918
7.654                0.990082283     -22.8008177
7.656                0.990067432     -22.8381495
7.658                0.990039744     -22.8760165
7.66                 0.990012033     -22.9138906
7.662                0.989984299     -22.9517717
7.664                0.989956542     -22.9896599
7.666                0.989915148     -23.0277379
7.668                0.989873695     -23.0658236
7.67                 0.989832182     -23.1039168
7.672                0.989790609     -23.1420178
7.674                0.989737647     -23.1799683
7.676                0.989684597     -23.2179272
7.678                0.989631461     -23.2558946
7.68                 0.989578238     -23.2938704
7.682                0.989518665     -23.3314405
7.684                 0.98945897      -23.369019
7.686                0.989399152     -23.4066061
7.688                0.989339211     -23.4442017
7.69                 0.989279516     -23.4813269
7.692                0.989219664     -23.5184591
7.694                0.989159654     -23.5555984
7.696                0.989099487     -23.5927446
7.698                0.989045814     -23.6295398
7.7                  0.988991987     -23.6663406
7.702                0.988938006      -23.703147
7.704                 0.98888387     -23.7399591
7.706                0.988840501     -23.7766885
7.708                0.988797012     -23.8134234
7.71                 0.988753405      -23.850164
7.712                0.988709679     -23.8869102
7.714                0.988678227     -23.9239061
7.716                0.988646696     -23.9609078
7.718                0.988615086     -23.9979154
7.72                 0.988583398     -24.0349289
7.722                0.988562903     -24.0724986
7.724                0.988542374      -24.110074
7.726                0.988521809     -24.1476552
7.728                0.988501209     -24.1852421
7.73                 0.988488976     -24.2236386
7.732                0.988476757     -24.2620412
7.734                0.988464552       -24.30045
7.736                 0.98845236     -24.3388648
7.738                0.988444676     -24.3782407
7.74                  0.98843703     -24.4176233
7.742                0.988429422     -24.4570124
7.744                0.988421852     -24.4964081
7.746                0.988414488     -24.5368438
7.748                0.988407152     -24.5772857
7.75                 0.988399844     -24.6177337
7.752                0.988392564     -24.6581879
7.754                0.988380983     -24.6996756
7.756                0.988369415     -24.7411691
7.758                0.988357861     -24.7826685
7.76                 0.988346319     -24.8241736
7.762                0.988325986      -24.866607
7.764                0.988305652     -24.9090477
7.766                0.988285317     -24.9514954
7.768                0.988264982     -24.9939502
7.77                 0.988232256     -25.0371029
7.772                0.988199498     -25.0802646
7.774                0.988166708     -25.1234352
7.776                0.988133887     -25.1666146
7.778                0.988087053     -25.2101679
7.78                 0.988040148     -25.2537313
7.782                0.987993174     -25.2973047
7.784                 0.98794613     -25.3408881
7.786                0.987886324     -25.3844869
7.788                0.987826423     -25.4280968
7.79                 0.987766426     -25.4717177
7.792                0.987706332     -25.5153497
