! TOUCHSTONE file generated by CST DESIGN STUDIO
! Date and time: Mon Feb 10 16:57:21 2025
! Project name: C:\Work\MatlabApps\UnitCellType2OptimizationMatlab\CST\unitcell.cst
! Tree item: Tasks\Sweep1\SPara1\S-Parameters
! Header version: 2024
! Port assignment regex: !\s*Touchstone port\s*([0-9]+)\s*=\s*(CST MWS port|CST DES external port|CST DES block port)\s*(.+)\s* \(\"(.*)\"\)(\s*mode\s*([0-9]+))?.*
! Touchstone port assignment:
! Touchstone port 1 = CST DES external port 1 ("")
# GHz S MA R 50
7                    0.982339116     -4.21958233
7.002                0.982401227     -4.24724728
7.004                0.982461383     -4.27476824
7.006                0.982519619     -4.30214649
7.008                0.982575968     -4.32938336
7.01                 0.982681564     -4.35740884
7.012                0.982787475     -4.38527144
7.014                 0.98289371     -4.41297411
7.016                0.983000278     -4.44051997
7.018                0.983137203     -4.47023466
7.02                 0.983273803     -4.49984913
7.022                 0.98341008     -4.52936457
7.024                0.983546039     -4.55878213
7.026                0.983689543     -4.59080903
7.028                0.983830771      -4.6227151
7.03                 0.983969752     -4.65450173
7.032                0.984106519     -4.68617049
7.034                0.984228311     -4.72005244
7.036                 0.98434921     -4.75374778
7.038                0.984469225      -4.7872592
7.04                 0.984588363     -4.82058942
7.042                0.984677146     -4.85512182
7.044                0.984766905     -4.88950122
7.046                0.984857625     -4.92372913
7.048                0.984949285     -4.95780706
7.05                 0.985012543      -4.9920163
7.052                0.985075372     -5.02613127
7.054                0.985137778     -5.06015276
7.056                0.985199767     -5.09408154
7.058                 0.98524495     -5.12769475
7.06                 0.985288962     -5.16117428
7.062                0.985331823     -5.19452131
7.064                0.985373553     -5.22773698
7.066                0.985402601     -5.26074755
7.068                 0.98543237     -5.29360306
7.07                 0.985462861      -5.3263058
7.072                0.985494076     -5.35885804
7.074                0.985509381     -5.39121137
7.076                 0.98552542     -5.42347782
7.078                0.985542186      -5.4556584
7.08                 0.985559671     -5.48775411
7.082                0.985561231     -5.51927995
7.084                0.985561297     -5.55074003
7.086                0.985559887     -5.58213512
7.088                0.985557018     -5.61346589
7.09                 0.985542538     -5.64368475
7.092                0.985526621     -5.67378541
7.094                 0.98550928     -5.70376971
7.096                0.985490526     -5.73363947
7.098                 0.98546771     -5.76187739
7.1                  0.985445311     -5.79000163
7.102                 0.98542332     -5.81801336
7.104                0.985401728     -5.84591359
7.106                0.985392369     -5.87196843
7.108                0.985382845     -5.89797184
7.11                 0.985373156     -5.92392434
7.112                0.985363304     -5.94982633
7.114                0.985386629     -5.97444548
7.116                 0.98540835     -5.99900538
7.118                0.985428482     -6.02350622
7.12                 0.985447046     -6.04794819
7.122                0.985507408     -6.07241675
7.124                0.985567156     -6.09678371
7.126                0.985626305     -6.12105029
7.128                0.985684873     -6.14521784
7.13                 0.985775683      -6.1707295
7.132                0.985866796     -6.19616321
7.134                0.985958212     -6.22152015
7.136                0.986049929     -6.24680148
7.138                0.986155761     -6.27412368
7.14                 0.986260834     -6.30138759
7.142                0.986365155     -6.32859356
7.144                0.986468732     -6.35574207
7.146                0.986567443     -6.38491241
7.148                0.986665203     -6.41398412
7.15                 0.986762022     -6.44295851
7.152                0.986857911     -6.47183699
7.154                0.986933117     -6.50213975
7.156                0.987008856     -6.53233033
7.158                0.987085117     -6.56240981
7.16                  0.98716189     -6.59237935
7.162                0.987212537     -6.62288956
7.164                0.987263688     -6.65333157
7.166                0.987315336      -6.6837059
7.168                0.987367476     -6.71401305
7.17                 0.987400002     -6.74420675
7.172                 0.98743172     -6.77433838
7.174                0.987462641     -6.80440833
7.176                0.987492775     -6.83441696
7.178                0.987510479     -6.86415824
7.18                 0.987527859     -6.89380506
7.182                0.987544926     -6.92335836
7.184                0.987561687     -6.95281906
7.186                0.987566359     -6.98203371
7.188                0.987571673     -7.01117527
7.19                 0.987577629     -7.04024474
7.192                0.987584221     -7.06924306
7.194                0.987577884     -7.09781698
7.196                0.987571247     -7.12635527
7.198                0.987564313     -7.15485819
7.2                  0.987557085     -7.18332592
7.202                0.987539494     -7.21099808
7.204                0.987520733     -7.23861277
7.206                0.987500813     -7.26617088
7.208                0.987479743     -7.29367325
7.21                 0.987453682     -7.31998995
7.212                0.987427513     -7.34622335
7.214                0.987401232     -7.37237439
7.216                0.987374839      -7.3984439
7.218                0.987353425     -7.42307418
7.22                 0.987332448     -7.44765407
7.222                0.987311903     -7.47218395
7.224                0.987291784     -7.49666414
7.226                0.987292682      -7.5199031
7.228                0.987292784     -7.54311672
7.23                 0.987292097     -7.56630509
7.232                0.987290629      -7.5894683
7.234                0.987322556     -7.61222916
7.236                0.987353415     -7.63493613
7.238                0.987383218     -7.65758945
7.24                 0.987411981     -7.68018949
7.242                0.987472468     -7.70351923
7.244                0.987532941     -7.72678704
7.246                0.987593405     -7.74999376
7.248                0.987653864     -7.77314021
7.25                 0.987732839     -7.79784138
7.252                0.987811824      -7.8225047
7.254                0.987890819     -7.84713042
7.256                0.987969823      -7.8717189
7.258                0.988050982     -7.89810144
7.26                  0.98813158     -7.92443591
7.262                0.988211621     -7.95072279
7.264                0.988291112     -7.97696267
7.266                0.988357686     -8.00469967
7.268                0.988424363     -8.03236177
7.27                 0.988491141     -8.05994977
7.272                0.988558015     -8.08746455
7.274                0.988602775     -8.11580877
7.276                0.988648295     -8.14409417
7.278                0.988694569     -8.17232111
7.28                 0.988741588     -8.20048995
7.282                0.988767644     -8.22880072
7.284                0.988793563     -8.25707787
7.286                 0.98881935      -8.2853216
7.288                0.988845006     -8.31353213
7.29                 0.988856621     -8.34151714
7.292                0.988867545     -8.36945229
7.294                0.988877787     -8.39733787
7.296                0.988887354     -8.42517412
7.298                0.988886619     -8.45272232
7.3                  0.988885955     -8.48021355
7.302                0.988885364     -8.50764843
7.304                0.988884848      -8.5350276
7.306                0.988874021     -8.56204107
7.308                0.988863351     -8.58902621
7.31                 0.988852836     -8.61598327
7.312                0.988842476     -8.64291249
7.314                0.988823073      -8.6692386
7.316                0.988803013     -8.69554017
7.318                0.988782299     -8.72181747
7.32                 0.988760936     -8.74807076
7.322                0.988734423     -8.77343347
7.324                0.988707481     -8.79874371
7.326                0.988680112     -8.82400219
7.328                0.988652317     -8.84920952
7.33                 0.988625881     -8.87329756
7.332                0.988599901     -8.89733642
7.334                0.988574373      -8.9213264
7.336                0.988549292     -8.94526774
7.338                 0.98853689       -8.968108
7.34                 0.988524441     -8.99092973
7.342                0.988511946     -9.01373303
7.344                0.988499406     -9.03651801
7.346                0.988512061     -9.05869124
7.348                0.988523743     -9.08084163
7.35                 0.988534458     -9.10296916
7.352                0.988544213     -9.12507379
7.354                 0.98858319     -9.14746145
7.356                0.988621649     -9.16980572
7.358                0.988659592      -9.1921069
7.36                 0.988697027     -9.21436533
7.362                 0.98875581     -9.23775531
7.364                0.988814719     -9.26111281
7.366                0.988873754     -9.28443816
7.368                0.988932915     -9.30773175
7.37                 0.988999544     -9.33257566
7.372                0.989066048     -9.35739577
7.374                0.989132429     -9.38219223
7.376                0.989198688     -9.40696527
7.378                0.989258261     -9.43322427
7.38                 0.989317778     -9.45943962
7.382                0.989377237     -9.48561178
7.384                0.989436639     -9.51174133
7.386                 0.98947849     -9.53889459
7.388                0.989520993     -9.56599839
7.39                 0.989564142     -9.59305301
7.392                0.989607932     -9.62005876
7.394                0.989630984     -9.64745642
7.396                0.989654449     -9.67482743
7.398                0.989678329     -9.70217189
7.4                  0.989702619     -9.72948993
7.402                0.989710832      -9.7567024
7.404                0.989718515     -9.78389194
7.406                0.989725675     -9.81105863
7.408                0.989732314     -9.83820256
7.41                 0.989728546     -9.86505037
7.412                0.989724327     -9.89186044
7.414                0.989719664       -9.918633
7.416                 0.98971456     -9.94536826
7.418                0.989701031     -9.97174664
7.42                 0.989687565     -9.99809831
7.422                0.989674165     -10.0244236
7.424                0.989660829     -10.0507227
7.426                0.989640006     -10.0765291
7.428                0.989618935     -10.1023245
7.43                 0.989597618     -10.1281091
7.432                0.989576056      -10.153883
7.434                0.989549657     -10.1789618
7.436                0.989522796     -10.2040136
7.438                0.989495474     -10.2290389
7.44                 0.989467694      -10.254038
7.442                0.989439676     -10.2781594
7.444                0.989411903     -10.3022391
7.446                0.989384371     -10.3262772
7.448                0.989357078     -10.3502741
7.45                 0.989337143     -10.3733443
7.452                0.989317628      -10.396392
7.454                0.989298533     -10.4194175
7.456                0.989279854     -10.4424206
7.458                0.989279259     -10.4647552
7.46                 0.989278136     -10.4870816
7.462                0.989276488     -10.5093998
7.464                0.989274318     -10.5317098
7.466                0.989297448      -10.554005
7.468                0.989319745      -10.576276
7.47                 0.989341211     -10.5985227
7.472                0.989361853     -10.6207451
7.474                 0.98940508      -10.643738
7.476                0.989448145      -10.666702
7.478                0.989491048     -10.6896374
7.48                 0.989533795     -10.7125445
7.482                0.989588125     -10.7367616
7.484                0.989642556      -10.760963
7.486                0.989697088     -10.7851487
7.488                0.989751719     -10.8093191
7.49                 0.989804763     -10.8349103
7.492                0.989857816       -10.86048
7.494                 0.98991088     -10.8860282
7.496                0.989963953     -10.9115554
7.498                 0.99000395     -10.9382249
7.5                  0.990044412     -10.9648577
7.502                0.990085336     -10.9914541
7.504                0.990126718     -11.0180143
7.506                0.990148806     -11.0451872
7.508                0.990171605     -11.0723333
7.51                 0.990195112     -11.0994525
7.512                0.990219324      -11.126545
7.514                0.990225727     -11.1537059
7.516                0.990232039     -11.1808554
7.518                 0.99023826     -11.2079934
7.52                 0.990244392     -11.2351202
7.522                0.990238695      -11.261989
7.524                0.990232323     -11.2888383
7.526                0.990225278     -11.3156682
7.528                0.990217565     -11.3424785
7.53                  0.99020227     -11.3689271
7.532                0.990186665     -11.3953528
7.534                0.990170751     -11.4217558
7.536                0.990154532     -11.4481362
7.538                0.990132226     -11.4740766
7.54                 0.990109796      -11.500009
7.542                0.990087242     -11.5259334
7.544                0.990064566     -11.5518501
7.546                0.990037696     -11.5771952
7.548                0.990010487     -11.6025305
7.55                 0.989982942     -11.6278559
7.552                 0.98995506     -11.6531716
7.554                0.989926302     -11.6777829
7.556                0.989897589     -11.7023646
7.558                0.989868917     -11.7269171
7.56                 0.989840285     -11.7514406
7.562                0.989815888     -11.7751991
7.564                0.989792093     -11.7989307
7.566                0.989768896     -11.8226354
7.568                0.989746294     -11.8463133
7.57                 0.989736066     -11.8693529
7.572                0.989725876      -11.892386
7.574                0.989715725     -11.9154128
7.576                0.989705611     -11.9384331
7.578                 0.98971625     -11.9612563
7.58                 0.989726072     -11.9840705
7.582                0.989735079     -12.0068757
7.584                0.989743275     -12.0296717
7.586                0.989773786     -12.0529431
7.588                0.989803705     -12.0761926
7.59                 0.989833037     -12.0994202
7.592                0.989861787     -12.1226258
7.594                0.989905418      -12.146902
7.596                0.989949057     -12.1711631
7.598                0.989992704     -12.1954093
7.6                   0.99003636     -12.2196407
7.602                0.990082947     -12.2451945
7.604                0.990129666     -12.2707387
7.606                0.990176516     -12.2962734
7.608                0.990223496     -12.3217988
7.61                 0.990261698     -12.3485292
7.612                0.990300264      -12.375237
7.614                0.990339191     -12.4019225
7.616                0.990378477     -12.4285857
7.618                 0.99040079     -12.4560447
7.62                 0.990423909     -12.4834774
7.622                0.990447831     -12.5108837
7.624                0.990472552     -12.5382636
7.626                0.990478656     -12.5659111
7.628                0.990485168     -12.5935478
7.63                 0.990492088     -12.6211738
7.632                0.990499412     -12.6487891
7.634                0.990492811     -12.6762488
7.636                0.990485656     -12.7037018
7.638                0.990477949      -12.731148
7.64                 0.990469692     -12.7585875
7.642                0.990453464     -12.7856795
7.644                0.990436523     -12.8127564
7.646                0.990418872     -12.8398181
7.648                0.990400514     -12.8668646
7.65                 0.990377213     -12.8934933
7.652                0.990353589     -12.9201133
7.654                0.990329644     -12.9467249
7.656                0.990305379      -12.973328
7.658                 0.99027781     -12.9994383
7.66                  0.99024999     -13.0255469
7.662                0.990221921      -13.051654
7.664                0.990193604     -13.0777595
7.666                0.990164332     -13.1032834
7.668                0.990135013     -13.1287913
7.67                 0.990105643     -13.1542833
7.672                0.990076224     -13.1797595
7.674                0.990049252     -13.2046114
7.676                0.990022889     -13.2294361
7.678                0.989997132     -13.2542337
7.68                 0.989971979      -13.279004
7.682                0.989954978     -13.3032124
7.684                0.989938546     -13.3274086
7.686                0.989922678     -13.3515926
7.688                0.989907375     -13.3757645
7.69                 0.989908008     -13.3996591
7.692                0.989908173     -13.4235528
7.694                0.989907869     -13.4474456
7.696                0.989907097     -13.4713373
7.698                 0.98992697     -13.4954829
7.7                  0.989945914     -13.5196164
7.702                0.989963931     -13.5437377
7.704                0.989981027     -13.5678467
7.706                0.990015331     -13.5928021
7.708                0.990049248     -13.6177423
7.71                 0.990082783     -13.6426673
7.712                0.990115937     -13.6675775
7.714                0.990156062     -13.6936952
7.716                0.990196294     -13.7198071
7.718                0.990236632     -13.7459131
7.72                 0.990277076     -13.7720135
7.722                0.990312768     -13.7993342
7.724                0.990348825     -13.8266444
7.726                0.990385245     -13.8539441
7.728                0.990422026     -13.8812335
7.73                 0.990444468     -13.9094626
7.732                0.990467739     -13.9376696
7.734                0.990491838     -13.9658544
7.736                0.990516759      -13.994017
7.738                0.990522911     -14.0226428
7.74                 0.990529921     -14.0512537
7.742                0.990537786     -14.0798495
7.744                0.990546502     -14.1084301
7.746                0.990539025     -14.1369993
7.748                0.990531417     -14.1655666
7.75                 0.990523679      -14.194132
7.752                0.990515811     -14.2226954
7.754                0.990498401     -14.2509526
7.756                0.990480043     -14.2792042
7.758                0.990460741     -14.3074501
7.76                 0.990440497     -14.3356901
7.762                0.990415857     -14.3635201
7.764                0.990390429     -14.3913426
7.766                0.990364217     -14.4191576
7.768                0.990337223     -14.4469651
7.77                 0.990308144     -14.4743168
7.772                0.990278665     -14.5016693
7.774                0.990248786     -14.5290225
7.776                0.990218508     -14.5563765
7.778                 0.99018773     -14.5832233
7.78                 0.990156859     -14.6100649
7.782                0.990125896     -14.6369013
7.784                 0.99009484     -14.6637327
7.786                 0.99006542     -14.6900419
7.788                0.990036587     -14.7163286
7.79                 0.990008337     -14.7425926
7.792                0.989980667     -14.7688339
