! TOUCHSTONE file generated by CST DESIGN STUDIO
! Date and time: Mon Feb 10 16:57:06 2025
! Project name: C:\Work\MatlabApps\UnitCellType2OptimizationMatlab\CST\unitcell.cst
! Tree item: Tasks\Sweep1\SPara1\S-Parameters
! Header version: 2024
! Port assignment regex: !\s*Touchstone port\s*([0-9]+)\s*=\s*(CST MWS port|CST DES external port|CST DES block port)\s*(.+)\s* \(\"(.*)\"\)(\s*mode\s*([0-9]+))?.*
! Touchstone port assignment:
! Touchstone port 1 = CST DES external port 1 ("")
# GHz S MA R 50
7                    0.994714893     -13.7376082
7.002                0.994675249     -13.7567196
7.004                 0.99463552     -13.7758326
7.006                0.994595706     -13.7949473
7.008                0.994555808     -13.8140636
7.01                 0.994522145     -13.8325492
7.012                0.994488408     -13.8510363
7.014                0.994454597     -13.8695249
7.016                0.994420712     -13.8880149
7.018                0.994397291     -13.9061185
7.02                 0.994373818     -13.9242233
7.022                0.994350293     -13.9423292
7.024                0.994326716     -13.9604363
7.026                0.994315472     -13.9784538
7.028                0.994304206     -13.9964721
7.03                 0.994292918     -14.0144913
7.032                0.994281607     -14.0325114
7.034                0.994282489     -14.0507322
7.036                0.994283378     -14.0689537
7.038                0.994284273     -14.0871758
7.04                 0.994285175     -14.1053987
7.042                0.994296516      -14.124085
7.044                0.994307891     -14.1427717
7.046                  0.9943193      -14.161459
7.048                0.994330743     -14.1801468
7.05                 0.994349468     -14.1995118
7.052                0.994368251     -14.2188772
7.054                0.994387092     -14.2382429
7.056                0.994405993      -14.257609
7.058                0.994427637     -14.2778069
7.06                 0.994449355     -14.2980054
7.062                0.994471148     -14.3182042
7.064                0.994493015     -14.3384035
7.066                0.994512033      -14.359472
7.068                0.994531123     -14.3805414
7.07                 0.994550287     -14.4016114
7.072                0.994569524     -14.4226821
7.074                0.994580154     -14.4445105
7.076                0.994590838     -14.4663399
7.078                0.994601578     -14.4881703
7.08                 0.994612372     -14.5100018
7.082                0.994610077     -14.5323211
7.084                0.994607805     -14.5546417
7.086                0.994605556     -14.5769637
7.088                0.994603329      -14.599287
7.09                 0.994586281     -14.6217148
7.092                0.994569216     -14.6441443
7.094                0.994552134     -14.6665756
7.096                0.994535034     -14.6890085
7.098                0.994504845     -14.7111588
7.1                  0.994474598     -14.7333111
7.102                0.994444295     -14.7554653
7.104                0.994413937     -14.7776216
7.106                0.994375354     -14.7991971
7.108                0.994336691     -14.8207745
7.11                 0.994297949     -14.8423539
7.112                0.994259127     -14.8639353
7.114                0.994218623     -14.8848131
7.116                0.994178034     -14.9056928
7.118                 0.99413736     -14.9265743
7.12                 0.994096602     -14.9474577
7.122                0.994060553     -14.9677102
7.124                0.994024427     -14.9879644
7.126                0.993988224     -15.0082204
7.128                0.993951945     -15.0284781
7.13                 0.993925097     -15.0483217
7.132                 0.99389819     -15.0681668
7.134                0.993871224     -15.0880134
7.136                  0.9938442     -15.1078615
7.138                0.993828938     -15.1275855
7.14                 0.993813646     -15.1473106
7.142                0.993798321     -15.1670368
7.144                0.993782965     -15.1867641
7.146                0.993779488     -15.2066609
7.148                0.993776009     -15.2265585
7.15                 0.993772528     -15.2464569
7.152                0.993769045     -15.2663563
7.154                0.993775878     -15.2866789
7.156                0.993782735     -15.3070023
7.158                0.993789616     -15.3273265
7.16                 0.993796523     -15.3476515
7.162                0.993810882     -15.3686109
7.164                0.993825288      -15.389571
7.166                0.993839743     -15.4105316
7.168                0.993854246     -15.4314929
7.17                 0.993872225     -15.4532352
7.172                 0.99389027     -15.4749783
7.174                0.993908381     -15.4967219
7.176                0.993926558     -15.5184661
7.178                0.993943257     -15.5410541
7.18                 0.993960026      -15.563643
7.182                0.993976864     -15.5862327
7.184                0.993993771     -15.6088233
7.186                0.994003822      -15.632191
7.188                0.994013929     -15.6555598
7.19                 0.994024092       -15.67893
7.192                0.994034309     -15.7023014
7.194                0.994033088     -15.7262343
7.196                0.994031895     -15.7501688
7.198                 0.99403073     -15.7741049
7.2                  0.994029592     -15.7980426
7.202                0.994014508     -15.8222084
7.204                0.993999416     -15.8463762
7.206                0.993984315     -15.8705458
7.208                0.993969205     -15.8947174
7.21                 0.993940805      -15.918741
7.212                0.993912356     -15.9427669
7.214                0.993883861      -15.966795
7.216                0.993855319     -15.9908254
7.218                0.993817339     -16.0143861
7.22                 0.993779284     -16.0379492
7.222                0.993741153     -16.0615146
7.224                0.993702946     -16.0850823
7.226                0.993661344     -16.1080064
7.228                0.993619655     -16.1309326
7.23                  0.99357788      -16.153861
7.232                0.993536019     -16.1767915
7.234                0.993497256     -16.1990957
7.236                0.993458411     -16.2214019
7.238                0.993419484     -16.2437101
7.24                 0.993380478     -16.2660202
7.242                0.993349793     -16.2878873
7.244                0.993319043     -16.3097562
7.246                0.993288227     -16.3316269
7.248                0.993257344     -16.3534994
7.25                 0.993237711     -16.3752151
7.252                0.993218036     -16.3969323
7.254                 0.99319832     -16.4186509
7.256                0.993178562      -16.440371
7.258                0.993170549     -16.4622286
7.26                 0.993162525     -16.4840872
7.262                0.993154489      -16.505947
7.264                 0.99314644      -16.527808
7.266                0.993148772     -16.5500678
7.268                0.993151119     -16.5723287
7.27                 0.993153482     -16.5945905
7.272                0.993155861     -16.6168535
7.274                0.993165923     -16.6397224
7.276                0.993176025     -16.6625924
7.278                0.993186165     -16.6854633
7.28                 0.993196344     -16.7083351
7.282                0.993210565     -16.7319643
7.284                0.993224843     -16.7555945
7.286                0.993239178     -16.7792256
7.288                0.993253569     -16.8028575
7.29                 0.993267526     -16.8273143
7.292                0.993281548     -16.8517723
7.294                0.993295634     -16.8762313
7.296                0.993309785     -16.9006914
7.298                0.993318571     -16.9259465
7.3                  0.993327413     -16.9512031
7.302                 0.99333631     -16.9764613
7.304                0.993345263      -17.001721
7.306                0.993344254     -17.0276109
7.308                0.993343276     -17.0535027
7.31                  0.99334233     -17.0793965
7.312                0.993341413     -17.1052922
7.314                 0.99332748     -17.1315297
7.316                0.993313544     -17.1577694
7.318                0.993299605     -17.1840114
7.32                 0.993285664     -17.2102556
7.322                0.993258386     -17.2364866
7.324                0.993231067     -17.2627203
7.326                0.993203708     -17.2889564
7.328                0.993176309     -17.3151952
7.33                 0.993138385     -17.3410843
7.332                 0.99310039     -17.3669761
7.334                0.993062322     -17.3928708
7.336                0.993024182     -17.4187682
7.338                0.992980933     -17.4440943
7.34                 0.992937596     -17.4694231
7.342                0.992894169     -17.4947546
7.344                0.992850654     -17.5200886
7.346                0.992808475     -17.5448101
7.348                0.992766208     -17.5695338
7.35                 0.992723853       -17.59426
7.352                0.992681409     -17.6189885
7.354                0.992645988     -17.6432498
7.356                0.992610493     -17.6675131
7.358                0.992574924     -17.6917786
7.36                 0.992539279     -17.7160463
7.362                0.992514304     -17.7401124
7.364                0.992489277     -17.7641805
7.366                0.992464196     -17.7882504
7.368                0.992439063     -17.8123223
7.37                 0.992425662     -17.8364921
7.372                0.992412237     -17.8606635
7.374                0.992398787     -17.8848365
7.376                0.992385312      -17.909011
7.378                 0.99238247     -17.9335658
7.38                 0.992379633     -17.9581219
7.382                0.992376801     -17.9826793
7.384                0.992373974     -18.0072382
7.386                 0.99237921     -18.0323894
7.388                0.992384475     -18.0575419
7.39                  0.99238977     -18.0826958
7.392                0.992395094      -18.107851
7.394                0.992405014     -18.1337507
7.396                0.992414982     -18.1596518
7.398                0.992424997     -18.1855542
7.4                   0.99243506     -18.2114579
7.402                0.992445624     -18.2381809
7.404                0.992456246     -18.2649053
7.406                0.992466926     -18.2916311
7.408                0.992477663     -18.3183583
7.41                 0.992484319     -18.3459001
7.412                0.992491028     -18.3734436
7.414                0.992497792     -18.4009889
7.416                 0.99250461      -18.428536
7.418                0.992502892     -18.4567767
7.42                 0.992501209     -18.4850196
7.422                 0.99249956     -18.5132649
7.424                0.992497944     -18.5415125
7.426                0.992484407     -18.5702084
7.428                0.992470871     -18.5989069
7.43                 0.992457339     -18.6276082
7.432                0.992443809      -18.656312
7.434                0.992417161     -18.6851432
7.436                0.992390478     -18.7139773
7.438                0.992363761     -18.7428144
7.44                  0.99233701     -18.7716546
7.442                0.992298946     -18.8002774
7.444                0.992260812     -18.8289035
7.446                0.992222611     -18.8575329
7.448                0.992184342     -18.8861656
7.45                 0.992139323     -18.9143224
7.452                0.992094213     -18.9424824
7.454                0.992049011     -18.9706458
7.456                0.992003718     -18.9988123
7.458                0.991957916     -19.0264033
7.46                 0.991912017     -19.0539972
7.462                0.991866021      -19.081594
7.464                0.991819928     -19.1091937
7.466                0.991779406     -19.1363176
7.468                0.991738798     -19.1634441
7.47                 0.991698104     -19.1905731
7.472                0.991657324     -19.2177048
7.474                0.991626448      -19.244592
7.476                0.991595507     -19.2714816
7.478                  0.9915645     -19.2983737
7.48                 0.991533428     -19.3252681
7.482                0.991514023     -19.3522306
7.484                 0.99149458     -19.3791952
7.486                0.991475098     -19.4061619
7.488                0.991455579     -19.4331307
7.49                 0.991447045       -19.46046
7.492                0.991438503     -19.4877911
7.494                0.991429952      -19.515124
7.496                0.991421394     -19.5424587
7.498                0.991421363     -19.5703907
7.5                   0.99142135     -19.5983244
7.502                0.991421357     -19.6262599
7.504                0.991421382     -19.6541971
7.506                0.991426515     -19.6828859
7.508                0.991431687     -19.7115766
7.51                 0.991436896     -19.7402692
7.512                0.991442145     -19.7689635
7.514                0.991448551     -19.7984981
7.516                0.991455006     -19.8280346
7.518                0.991461512     -19.8575729
7.52                 0.991468067     -19.8871131
7.522                0.991471504      -19.917493
7.524                0.991474991      -19.947875
7.526                0.991478528     -19.9782591
7.528                0.991482116     -20.0086454
7.53                 0.991478309     -20.0397826
7.532                0.991474538     -20.0709224
7.534                0.991470802      -20.102065
7.536                  0.9914671     -20.1332103
7.538                0.991452423     -20.1649079
7.54                 0.991437751     -20.1966087
7.542                0.991423085     -20.2283127
7.544                0.991408424     -20.2600199
7.546                0.991380965     -20.2919852
7.548                0.991353475      -20.323954
7.55                 0.991325953     -20.3559264
7.552                  0.9912984     -20.3879024
7.554                0.991258856     -20.4198009
7.556                0.991219245     -20.4517032
7.558                0.991179566     -20.4836094
7.56                 0.991139821     -20.5155195
7.562                0.991091834     -20.5470585
7.564                0.991043752     -20.5786015
7.566                0.990995574     -20.6101486
7.568                0.990947301     -20.6416998
7.57                 0.990896603     -20.6727303
7.572                0.990845797     -20.7037646
7.574                0.990794882     -20.7348026
7.576                0.990743859     -20.7658443
7.578                 0.99069678     -20.7964008
7.58                 0.990649599     -20.8269605
7.582                0.990602317     -20.8575234
7.584                0.990554932     -20.8880895
7.586                0.990516603     -20.9183737
7.588                0.990478194     -20.9486608
7.59                 0.990439702     -20.9789508
7.592                0.990401128     -21.0092436
7.594                0.990374214     -21.0395635
7.596                0.990347246     -21.0698861
7.598                0.990320222     -21.1002114
7.6                  0.990293144     -21.1305394
7.602                0.990277648     -21.1612086
7.604                0.990262127     -21.1918801
7.606                0.990246582      -21.222554
7.608                0.990231014     -21.2532304
7.61                 0.990224793     -21.2845171
7.612                0.990218577     -21.3158061
7.614                0.990212368     -21.3470974
7.616                0.990206164      -21.378391
7.618                0.990205863     -21.4104709
7.62                 0.990205592     -21.4425534
7.622                 0.99020535     -21.4746384
7.624                0.990205136     -21.5067258
7.626                 0.99020686     -21.5396938
7.628                0.990208625     -21.5726644
7.63                 0.990210432     -21.6056376
7.632                0.990212281     -21.6386134
7.634                0.990211855     -21.6724839
7.636                0.990211473      -21.706357
7.638                0.990211137     -21.7402328
7.64                 0.990210844     -21.7741113
7.642                0.990204154      -21.808817
7.644                0.990197498     -21.8435259
7.646                0.990190877     -21.8782379
7.648                 0.99018429     -21.9129532
7.65                  0.99016762     -21.9483309
7.652                0.990150959     -21.9837123
7.654                0.990134306     -22.0190977
7.656                0.990117661     -22.0544869
7.658                0.990088588     -22.0902791
7.66                 0.990059485     -22.1260757
7.662                0.990030353     -22.1618767
7.664                0.990001192      -22.197682
7.666                0.989959542     -22.2335644
7.668                0.989917824     -22.2694514
7.67                  0.98987604     -22.3053432
7.672                0.989834188     -22.3412397
7.674                0.989782628     -22.3769073
7.676                0.989730969     -22.4125798
7.678                 0.98967921     -22.4482574
7.68                 0.989627351     -22.4839401
7.682                0.989571051     -22.5191825
7.684                 0.98951463     -22.5544297
7.686                0.989458088     -22.5896818
7.688                0.989401427     -22.6249387
7.69                 0.989346753     -22.6597342
7.692                0.989291958     -22.6945338
7.694                0.989237041     -22.7293374
7.696                0.989182001     -22.7641451
7.698                0.989134721     -22.7986474
7.7                  0.989087336     -22.8331532
7.702                0.989039847     -22.8676624
7.704                0.988992253     -22.9021752
7.706                0.988956016     -22.9366759
7.708                0.988919703       -22.97118
7.71                 0.988883312     -23.0056874
7.712                0.988846844     -23.0401981
7.714                0.988822442     -23.0750372
7.716                0.988797994     -23.1098794
7.718                  0.9887735     -23.1447249
7.72                 0.988748962     -23.1795735
7.722                0.988734623     -23.2150434
7.724                0.988720271     -23.2505164
7.726                0.988705906     -23.2859924
7.728                0.988691527     -23.3214716
7.73                 0.988683916     -23.3577903
7.732                 0.98867632     -23.3941124
7.734                0.988668739     -23.4304378
7.736                0.988661173     -23.4667665
7.738                0.988656229     -23.5040382
7.74                 0.988651317     -23.5413135
7.742                0.988646435     -23.5785924
7.744                0.988641584     -23.6158749
7.746                0.988635114     -23.6541258
7.748                0.988628679     -23.6923804
7.75                 0.988622279     -23.7306384
7.752                0.988615913     -23.7689001
7.754                0.988603858     -23.8080762
7.756                 0.98859183     -23.8472561
7.758                0.988579829     -23.8864397
7.76                 0.988567856     -23.9256271
7.762                0.988546475     -23.9655939
7.764                0.988525098     -24.0055652
7.766                0.988503725      -24.045541
7.768                0.988482356     -24.0855214
7.77                 0.988448903     -24.1260463
7.772                0.988415417     -24.1665766
7.774                0.988381898     -24.2071122
7.776                0.988348346      -24.247653
7.778                0.988301946     -24.2884329
7.78                 0.988255473     -24.3292187
7.782                0.988208926     -24.3700102
7.784                0.988162305     -24.4108076
7.786                0.988104738     -24.4515227
7.788                0.988047061     -24.4922441
7.79                 0.987989274     -24.5329718
7.792                0.987931377     -24.5737058
