! TOUCHSTONE file generated by CST DESIGN STUDIO
! Date and time: Mon Feb 10 16:56:02 2025
! Project name: C:\Work\MatlabApps\UnitCellType2OptimizationMatlab\CST\unitcell.cst
! Tree item: Tasks\Sweep1\SPara1\S-Parameters
! Header version: 2024
! Port assignment regex: !\s*Touchstone port\s*([0-9]+)\s*=\s*(CST MWS port|CST DES external port|CST DES block port)\s*(.+)\s* \(\"(.*)\"\)(\s*mode\s*([0-9]+))?.*
! Touchstone port assignment:
! Touchstone port 1 = CST DES external port 1 ("")
# GHz S MA R 50
7                     0.99042579     -6.20875095
7.002                 0.99053918     -6.23159609
7.004                0.990652546     -6.25439932
7.006                0.990765886     -6.27716101
7.008                0.990879202     -6.29988168
7.01                 0.990986924     -6.32513488
7.012                0.991094713     -6.35034004
7.014                0.991202569     -6.37549758
7.016                0.991310489     -6.40060812
7.018                0.991393823     -6.42778191
7.02                 0.991477327     -6.45490448
7.022                   0.991561     -6.48197623
7.024                0.991644843     -6.50899758
7.026                0.991692128     -6.53719269
7.028                0.991739709     -6.56533884
7.03                 0.991787587     -6.59343629
7.032                 0.99183576     -6.62148539
7.034                0.991844387     -6.64965786
7.036                0.991853376     -6.67779005
7.038                0.991862724     -6.70588223
7.04                  0.99187243     -6.73393466
7.042                0.991848126     -6.76117894
7.044                0.991824078     -6.78839499
7.046                0.991800287     -6.81558299
7.048                0.991776748     -6.84274302
7.05                 0.991730375     -6.86846265
7.052                 0.99168401     -6.89416339
7.054                0.991637653     -6.91984539
7.056                0.991591304      -6.9455088
7.058                0.991535367     -6.96946252
7.06                 0.991479184     -6.99340103
7.062                0.991422755     -7.01732466
7.064                0.991366083     -7.04123353
7.066                0.991312073     -7.06346724
7.068                 0.99125766     -7.08568654
7.07                 0.991202847     -7.10789165
7.072                0.991147636     -7.13008268
7.074                 0.99110484     -7.15084017
7.076                0.991061574     -7.17158397
7.078                0.991017839     -7.19231418
7.08                 0.990973638     -7.21303087
7.082                0.990949019     -7.23267297
7.084                 0.99092391     -7.25230175
7.086                0.990898312      -7.2719173
7.088                 0.99087223     -7.29151963
7.09                 0.990870557     -7.31048396
7.092                0.990868441     -7.32943333
7.094                0.990865882     -7.34836784
7.096                0.990862883     -7.36728757
7.098                0.990886797     -7.38608911
7.1                   0.99091041     -7.40487246
7.102                0.990933723     -7.42363778
7.104                0.990956737     -7.44238518
7.106                0.991006213     -7.46160598
7.108                0.991055587     -7.48080576
7.11                 0.991104859     -7.49998466
7.112                0.991154029     -7.51914287
7.114                0.991225066     -7.53939801
7.116                0.991296177     -7.55962995
7.118                0.991367364      -7.5798389
7.12                 0.991438626     -7.60002517
7.122                0.991522435     -7.62183491
7.124                0.991606439       -7.643619
7.126                0.991690637     -7.66537763
7.128                0.991775027     -7.68711126
7.13                 0.991858551     -7.71074549
7.132                0.991942339     -7.73435145
7.134                0.992026389     -7.75792934
7.136                0.992110701     -7.78147936
7.138                0.992179202      -7.8068221
7.14                 0.992247988     -7.83213584
7.142                0.992317061     -7.85742061
7.144                0.992386419     -7.88267661
7.146                 0.99242713     -7.90919721
7.148                0.992468088     -7.93569082
7.15                 0.992509293     -7.96215759
7.152                0.992550745     -7.98859769
7.154                0.992556562     -8.01544679
7.156                0.992562527     -8.04227337
7.158                 0.99256864     -8.06907756
7.16                 0.992574899     -8.09585947
7.162                0.992546515     -8.12207589
7.164                0.992518143     -8.14827535
7.166                0.992489782     -8.17445795
7.168                0.992461434     -8.20062383
7.17                 0.992407522     -8.22538332
7.172                0.992353469     -8.25013134
7.174                0.992299279     -8.27486813
7.176                0.992244952     -8.29959377
7.178                0.992179812     -8.32241856
7.18                 0.992114392     -8.34523633
7.182                0.992048693     -8.36804726
7.184                0.991982716      -8.3908514
7.186                0.991922384     -8.41172511
7.188                0.991861681     -8.43259362
7.19                 0.991800609     -8.45345699
7.192                0.991739169     -8.47431521
7.194                0.991697071     -8.49364798
7.196                0.991654605     -8.51297463
7.198                0.991611774     -8.53229521
7.2                  0.991568579     -8.55160967
7.202                0.991552803     -8.57008134
7.204                0.991536747     -8.58854508
7.206                0.991520413     -8.60700094
7.208                  0.9915038     -8.62544897
7.21                 0.991516035     -8.64381738
7.212                0.991528094     -8.66217649
7.214                0.991539977     -8.68052637
7.216                0.991551685     -8.69886708
7.218                0.991588291     -8.71777979
7.22                 0.991624788     -8.73668143
7.222                0.991661177     -8.75557208
7.224                0.991697458     -8.77445185
7.226                0.991751293     -8.79435956
7.228                0.991805077     -8.81425281
7.23                 0.991858812     -8.83413172
7.232                0.991912498     -8.85399651
7.234                0.991975161     -8.87512709
7.236                0.992037873     -8.89623941
7.238                0.992100636     -8.91733361
7.24                 0.992163449     -8.93840999
7.242                 0.99222674      -8.9608128
7.244                0.992290213      -8.9831956
7.246                0.992353868     -9.00555851
7.248                0.992417703      -9.0279017
7.25                 0.992474065     -9.05150352
7.252                0.992530709     -9.07508645
7.254                0.992587636     -9.09865051
7.256                0.992644843     -9.12219585
7.258                0.992687326     -9.14680197
7.26                 0.992730117     -9.17139147
7.262                0.992773215     -9.19596443
7.264                0.992816617     -9.22052096
7.266                0.992839118      -9.2458063
7.268                0.992861877     -9.27107735
7.27                 0.992884893     -9.29633419
7.272                0.992908162      -9.3215769
7.274                0.992906574     -9.34705969
7.276                0.992905133     -9.37253083
7.278                0.992903838     -9.39799039
7.28                  0.99290269     -9.42343841
7.282                0.992876444     -9.44852743
7.284                0.992850177     -9.47360812
7.286                0.992823892     -9.49868058
7.288                0.992797589     -9.52374485
7.29                 0.992750811     -9.54783066
7.292                 0.99270382     -9.57191134
7.294                0.992656617     -9.59598698
7.296                0.992609203     -9.62005766
7.298                0.992550915     -9.64266316
7.3                  0.992492257     -9.66526553
7.302                0.992433229     -9.68786483
7.304                0.992373831     -9.71046099
7.306                0.992316553     -9.73138896
7.308                0.992258845     -9.75231457
7.31                 0.992200708     -9.77323783
7.312                0.992142145     -9.79415859
7.314                0.992099169      -9.8135888
7.316                 0.99205582     -9.83301685
7.318                  0.9920121     -9.85244273
7.32                 0.991968009     -9.87186646
7.322                0.991949808     -9.89034514
7.324                0.991931379     -9.90882117
7.326                0.991912721     -9.92729466
7.328                0.991893835     -9.94576563
7.33                  0.99190512     -9.96407929
7.332                0.991916355      -9.9823889
7.334                0.991927538     -10.0006945
7.336                0.991938669     -10.0189962
7.338                0.991977133       -10.03795
7.34                 0.992015704     -10.0568973
7.342                0.992054381     -10.0758384
7.344                0.992093166     -10.0947732
7.346                0.992150421      -10.114992
7.348                0.992207878      -10.135202
7.35                 0.992265537     -10.1554032
7.352                0.992323396     -10.1755956
7.354                0.992387587     -10.1973828
7.356                   0.992452     -10.2191591
7.358                0.992516633     -10.2409244
7.36                 0.992581488     -10.2626789
7.362                0.992640442     -10.2859829
7.364                0.992699597     -10.3092742
7.366                0.992758952     -10.3325528
7.368                0.992818508     -10.3558187
7.37                 0.992862495     -10.3802987
7.372                0.992906668     -10.4047654
7.374                0.992951026     -10.4292189
7.376                0.992995567     -10.4536593
7.378                0.993018993     -10.4788168
7.38                 0.993042592      -10.503963
7.382                0.993066365      -10.529098
7.384                0.993090307     -10.5542218
7.386                0.993091849      -10.579526
7.388                0.993093519     -10.6048228
7.39                 0.993095318     -10.6301123
7.392                0.993097245     -10.6553944
7.394                0.993078797     -10.6803884
7.396                0.993060383     -10.7053784
7.398                0.993042006     -10.7303644
7.4                  0.993023665     -10.7553465
7.402                0.992989366     -10.7796612
7.404                0.992954992     -10.8039733
7.406                0.992920542     -10.8282827
7.408                0.992886016     -10.8525894
7.41                 0.992841465     -10.8759626
7.412                0.992796743     -10.8993333
7.414                0.992751849     -10.9227016
7.416                0.992706785     -10.9460674
7.418                0.992658743     -10.9683451
7.42                 0.992610452     -10.9906211
7.422                 0.99256191     -11.0128955
7.424                0.992513121     -11.0351681
7.426                0.992469146     -11.0563301
7.428                0.992424856     -11.0774915
7.43                 0.992380252     -11.0986524
7.432                0.992335335     -11.1198128
7.434                0.992303082     -11.1400065
7.436                0.992270501     -11.1601996
7.438                0.992237592     -11.1803922
7.44                 0.992204354     -11.2005843
7.442                0.992190568     -11.2201337
7.444                0.992176535     -11.2396817
7.446                0.992162253     -11.2592282
7.448                0.992147726      -11.278773
7.45                 0.992156593     -11.2981845
7.452                0.992165381     -11.3175938
7.454                0.992174092     -11.3370009
7.456                0.992182729     -11.3564058
7.458                0.992214345     -11.3762909
7.46                 0.992246077     -11.3961736
7.462                0.992277925     -11.4160539
7.464                 0.99230989      -11.435932
7.466                  0.9923592     -11.4568769
7.468                0.992408783     -11.4778182
7.47                 0.992458633     -11.4987559
7.472                0.992508749     -11.5196899
7.474                0.992566272     -11.5420859
7.476                0.992624166     -11.5644753
7.478                0.992682427     -11.5868579
7.48                 0.992741054     -11.6092335
7.482                0.992795138     -11.6331659
7.484                0.992849628     -11.6570901
7.486                0.992904525     -11.6810061
7.488                0.992959832     -11.7049139
7.49                 0.992999386     -11.7301417
7.492                0.993039269     -11.7553629
7.494                0.993079479     -11.7805777
7.496                0.993120014     -11.8057864
7.498                0.993137093     -11.8317969
7.5                  0.993154325      -11.857802
7.502                0.993171707     -11.8838017
7.504                0.993189239     -11.9097958
7.506                 0.99318103     -11.9359173
7.508                0.993172817     -11.9620341
7.51                 0.993164607     -11.9881461
7.512                0.993156405     -12.0142534
7.514                0.993125952     -12.0398431
7.516                0.993095369     -12.0654328
7.518                0.993064654     -12.0910231
7.52                 0.993033802     -12.1166143
7.522                0.992988337     -12.1412214
7.524                0.992942576     -12.1658317
7.526                0.992896515     -12.1904449
7.528                0.992850151     -12.2150605
7.53                 0.992798904     -12.2384703
7.532                0.992747322     -12.2618802
7.534                0.992695413     -12.2852901
7.536                0.992643182     -12.3086997
7.538                0.992595662     -12.3309481
7.54                 0.992547905     -12.3531957
7.542                0.992499913     -12.3754428
7.544                0.992451685     -12.3976894
7.546                0.992415656     -12.4190391
7.548                0.992379491     -12.4403889
7.55                 0.992343188      -12.461739
7.552                0.992306745     -12.4830894
7.554                0.992286932     -12.5039251
7.556                0.992267054     -12.5247609
7.558                0.992247113      -12.545597
7.56                 0.992227109     -12.5664332
7.562                0.992225296      -12.587166
7.564                0.992223476     -12.6078981
7.566                0.992221648     -12.6286297
7.568                0.992219815     -12.6493606
7.57                 0.992235372     -12.6703843
7.572                0.992250972     -12.6914067
7.574                0.992266615     -12.7124279
7.576                0.992282303     -12.7334481
7.578                0.992312627     -12.7551164
7.58                 0.992343057     -12.7767831
7.582                0.992373591     -12.7984482
7.584                0.992404228     -12.8201118
7.586                 0.99244472      -12.842721
7.588                0.992485403     -12.8653276
7.59                 0.992526276     -12.8879317
7.592                0.992567339     -12.9105333
7.594                0.992611666     -12.9342786
7.596                0.992656296     -12.9580201
7.598                0.992701228     -12.9817579
7.6                  0.992746462     -13.0054921
7.602                0.992787033     -13.0304276
7.604                0.992828003      -13.055359
7.606                0.992869372     -13.0802864
7.608                0.992911137       -13.10521
7.61                  0.99294007      -13.131202
7.612                 0.99296942     -13.1571908
7.614                0.992999184     -13.1831762
7.616                0.993029364     -13.2091584
7.618                0.993039988     -13.2358714
7.62                  0.99305093     -13.2625822
7.622                0.993062192     -13.2892909
7.624                0.993073774     -13.3159974
7.626                0.993062412      -13.342916
7.628                0.993051174     -13.3698337
7.63                 0.993040061     -13.3967503
7.632                0.993029073      -13.423666
7.634                0.992996479     -13.4502016
7.636                0.992963765     -13.4767378
7.638                 0.99293093     -13.5032744
7.64                 0.992897974     -13.5298115
7.642                0.992849769     -13.5554422
7.644                0.992801214     -13.5810751
7.646                 0.99275231     -13.6067102
7.648                0.992703056     -13.6323474
7.65                 0.992648474     -13.6567569
7.652                0.992593405     -13.6811696
7.654                 0.99253785     -13.7055856
7.656                0.992481808     -13.7300048
7.658                0.992431616      -13.753176
7.66                 0.992380959     -13.7763501
7.662                0.992329835     -13.7995271
7.664                0.992278245      -13.822707
7.666                0.992241968     -13.8449168
7.668                0.992205417     -13.8671283
7.67                 0.992168591     -13.8893414
7.672                 0.99213149     -13.9115562
7.674                 0.99211525     -13.9333082
7.676                0.992099033     -13.9550608
7.678                0.992082838      -13.976814
7.68                 0.992066668     -13.9985678
7.682                0.992071847     -14.0204505
7.684                0.992077339     -14.0423333
7.686                0.992083141      -14.064216
7.688                0.992089256     -14.0860987
7.69                 0.992112718     -14.1086461
7.692                0.992136677      -14.131193
7.694                 0.99216113     -14.1537394
7.696                0.992186077     -14.1762853
7.698                 0.99222148     -14.1998564
7.7                  0.992257423     -14.2234262
7.702                0.992293905     -14.2469947
7.704                0.992330925     -14.2705618
7.706                0.992370541     -14.2953088
7.708                0.992410636     -14.3200537
7.71                  0.99245121     -14.3447964
7.712                0.992492261      -14.369537
7.714                 0.99252861     -14.3954191
7.716                0.992565335     -14.4212989
7.718                0.992602436     -14.4471763
7.72                 0.992639912     -14.4730515
7.722                0.992666821     -14.4998817
7.724                0.992694018     -14.5267099
7.726                0.992721501     -14.5535362
7.728                0.992749271     -14.5803605
7.73                 0.992762351     -14.6078641
7.732                0.992775672     -14.6353665
7.734                0.992789233     -14.6628676
7.736                0.992803036     -14.6903674
7.738                0.992799745     -14.7182159
7.74                 0.992796684     -14.7460638
7.742                0.992793854     -14.7739109
7.744                0.992791254     -14.8017573
7.746                0.992771129     -14.8295896
7.748                0.992751223     -14.8574215
7.75                 0.992731534      -14.885253
7.752                0.992712063      -14.913084
7.754                0.992676802     -14.9405398
7.756                  0.9926417     -14.9679953
7.758                0.992606757     -14.9954503
7.76                 0.992571973     -15.0229049
7.762                0.992525807      -15.049657
7.764                0.992479674     -15.0764087
7.766                0.992433576     -15.1031599
7.768                0.992387512     -15.1299108
7.77                    0.992337     -15.1557308
7.772                0.992286357     -15.1815508
7.774                0.992235584      -15.207371
7.776                0.992184682     -15.2331914
7.778                0.992137939     -15.2580206
7.78                 0.992090932     -15.2828509
7.782                0.992043661     -15.3076824
7.784                0.991996127     -15.3325151
7.786                0.991961342     -15.3565229
7.788                0.991926292     -15.3805325
7.79                 0.991890978      -15.404544
7.792                0.991855401     -15.4285572
