! TOUCHSTONE file generated by CST DESIGN STUDIO
! Date and time: Mon Feb 10 16:55:51 2025
! Project name: C:\Work\MatlabApps\UnitCellType2OptimizationMatlab\CST\unitcell.cst
! Tree item: Tasks\Sweep1\SPara1\S-Parameters
! Header version: 2024
! Port assignment regex: !\s*Touchstone port\s*([0-9]+)\s*=\s*(CST MWS port|CST DES external port|CST DES block port)\s*(.+)\s* \(\"(.*)\"\)(\s*mode\s*([0-9]+))?.*
! Touchstone port assignment:
! Touchstone port 1 = CST DES external port 1 ("")
# GHz S MA R 50
7                    0.992187977     -12.1771325
7.002                0.992212022     -12.1930074
7.004                0.992236128     -12.2088839
7.006                0.992260294      -12.224762
7.008                0.992284522     -12.2406417
7.01                 0.992325351     -12.2576648
7.012                0.992366267     -12.2746888
7.014                0.992407271     -12.2917135
7.016                0.992448363     -12.3087391
7.018                0.992496354     -12.3271922
7.02                 0.992544461     -12.3456449
7.022                0.992592684     -12.3640972
7.024                0.992641021     -12.3825492
7.026                0.992685876     -12.4024524
7.028                0.992730871     -12.4223549
7.03                 0.992776007     -12.4422565
7.032                0.992821284     -12.4621573
7.034                0.992853907     -12.4832871
7.036                0.992886671     -12.5044167
7.038                0.992919575     -12.5255462
7.04                 0.992952619     -12.5466755
7.042                0.992966532     -12.5686305
7.044                0.992980544     -12.5905864
7.046                0.992994656     -12.6125435
7.048                0.993008866     -12.6345015
7.05                 0.993000999     -12.6567831
7.052                0.992993161     -12.6790667
7.054                0.992985352     -12.7013523
7.056                0.992977573     -12.7236399
7.058                0.992948439     -12.7457355
7.06                 0.992919255     -12.7678336
7.062                0.992890022      -12.789934
7.064                0.992860741      -12.812037
7.066                0.992814172     -12.8334893
7.068                0.992767488      -12.854944
7.07                 0.992720689      -12.876401
7.072                0.992673777     -12.8978605
7.074                0.992616255      -12.918336
7.076                0.992558578     -12.9388135
7.078                0.992500746      -12.959293
7.08                 0.992442759     -12.9797744
7.082                0.992382614     -12.9991061
7.084                0.992322309     -13.0184393
7.086                0.992261843     -13.0377738
7.088                0.992201219     -13.0571097
7.09                 0.992147386     -13.0753327
7.092                0.992093424     -13.0935568
7.094                0.992039334     -13.1117821
7.096                0.991985115     -13.1300085
7.098                 0.99194571     -13.1473745
7.1                   0.99190623     -13.1647418
7.102                0.991866675     -13.1821104
7.104                0.991827043     -13.1994802
7.106                0.991807941     -13.2164181
7.108                0.991788819     -13.2333575
7.11                 0.991769678     -13.2502985
7.112                0.991750516      -13.267241
7.114                0.991753928     -13.2843026
7.116                 0.99175737     -13.3013656
7.118                0.991760843     -13.3184301
7.12                 0.991764347     -13.3354962
7.122                 0.99178824     -13.3532432
7.124                 0.99181221     -13.3709913
7.126                0.991836255     -13.3887404
7.128                0.991860377     -13.4064907
7.13                 0.991898576     -13.4253886
7.132                0.991936888      -13.444287
7.134                0.991975313     -13.4631859
7.136                0.992013852     -13.4820852
7.138                0.992057208     -13.5024008
7.14                 0.992100699     -13.5227166
7.142                0.992144327     -13.5430326
7.144                0.992188091     -13.5633488
7.146                 0.99222631     -13.5850863
7.148                0.992264665      -13.606824
7.15                 0.992303156      -13.628562
7.152                0.992341783     -13.6503002
7.154                0.992365717     -13.6731994
7.156                0.992389763     -13.6960992
7.158                0.992413919     -13.7189998
7.16                 0.992438185     -13.7419013
7.162                0.992441613     -13.7655008
7.164                  0.9924451      -13.789102
7.166                0.992448647     -13.8127049
7.168                0.992452253     -13.8363094
7.17                 0.992433123     -13.8600533
7.172                0.992413977     -13.8837997
7.174                0.992394818     -13.9075487
7.176                0.992375644     -13.9313001
7.178                0.992336221     -13.9546431
7.18                 0.992296708     -13.9779888
7.182                0.992257105     -14.0013371
7.184                0.992217412     -14.0246883
7.186                0.992163649     -14.0472052
7.188                0.992109744     -14.0697243
7.19                 0.992055697     -14.0922456
7.192                0.992001508      -14.114769
7.194                0.991941588     -14.1362312
7.196                0.991881514     -14.1576947
7.198                0.991821285     -14.1791596
7.2                  0.991760903     -14.2006257
7.202                0.991703713     -14.2210205
7.204                0.991646391     -14.2414161
7.206                 0.99158894     -14.2618125
7.208                0.991531357     -14.2822098
7.21                 0.991484735     -14.3017382
7.212                0.991438025     -14.3212674
7.214                0.991391227     -14.3407975
7.216                 0.99134434     -14.3603284
7.218                0.991314024     -14.3793364
7.22                 0.991283666     -14.3983455
7.222                0.991253265     -14.4173557
7.224                0.991222821     -14.4363671
7.226                0.991211585     -14.4552983
7.228                 0.99120035     -14.4742308
7.23                 0.991189118     -14.4931646
7.232                0.991177888     -14.5120998
7.234                0.991185376     -14.5314171
7.236                0.991192908     -14.5507356
7.238                0.991200484     -14.5700554
7.24                 0.991208106     -14.5893766
7.242                0.991230952     -14.6094966
7.244                0.991253879     -14.6296176
7.246                0.991276888     -14.6497395
7.248                0.991299979     -14.6698624
7.25                 0.991332225     -14.6911015
7.252                0.991364584     -14.7123412
7.254                0.991397055     -14.7335814
7.256                0.991429638     -14.7548222
7.258                0.991463609     -14.7773303
7.26                 0.991497711     -14.7998387
7.262                0.991531943     -14.8223475
7.264                0.991566304     -14.8448567
7.266                0.991593684     -14.8686004
7.268                 0.99162119     -14.8923447
7.27                 0.991648821     -14.9160896
7.272                0.991676578     -14.9398352
7.274                0.991689885     -14.9645733
7.276                0.991703284     -14.9893126
7.278                0.991716775     -15.0140532
7.28                 0.991730358      -15.038795
7.282                0.991724368      -15.064122
7.284                0.991718404      -15.089451
7.286                 0.99171247     -15.1147821
7.288                0.991706563     -15.1401151
7.29                 0.991679502     -15.1655178
7.292                 0.99165239     -15.1909229
7.294                 0.99162523     -15.2163305
7.296                 0.99159802     -15.2417405
7.298                0.991552216      -15.266703
7.3                  0.991506295      -15.291668
7.302                0.991460255     -15.3166353
7.304                0.991414098      -15.341605
7.306                0.991355589     -15.3657172
7.308                0.991296922     -15.3898313
7.31                 0.991238096     -15.4139474
7.312                0.991179112     -15.4380653
7.314                0.991116525     -15.4611132
7.316                0.991053777     -15.4841623
7.318                 0.99099087     -15.5072128
7.32                 0.990927802     -15.5302645
7.322                0.990870504     -15.5522766
7.324                0.990813082     -15.5742893
7.326                0.990755535     -15.5963026
7.328                0.990697864     -15.6183167
7.33                 0.990653978     -15.6395653
7.332                0.990610026     -15.6608143
7.334                0.990566007     -15.6820639
7.336                0.990521923     -15.7033139
7.338                0.990496608     -15.7242356
7.34                 0.990471287     -15.7451579
7.342                 0.99044596      -15.766081
7.344                0.990420629     -15.7870047
7.346                0.990415154     -15.8081147
7.348                0.990409723     -15.8292256
7.35                 0.990404333     -15.8503375
7.352                0.990398987     -15.8714502
7.354                0.990410808     -15.8932284
7.356                0.990422706     -15.9150075
7.358                0.990434681     -15.9367876
7.36                 0.990446731     -15.9585687
7.362                0.990470281      -15.981371
7.364                0.990493931     -16.0041741
7.366                0.990517678      -16.026978
7.368                0.990541525     -16.0497827
7.37                 0.990569511     -16.0737937
7.372                0.990597611     -16.0978053
7.374                0.990625822     -16.1218176
7.376                0.990654145     -16.1458306
7.378                0.990678911     -16.1710553
7.38                 0.990703788     -16.1962808
7.382                0.990728777      -16.221507
7.384                0.990753877     -16.2467341
7.386                0.990768607     -16.2730004
7.388                0.990783428     -16.2992679
7.39                 0.990798339     -16.3255365
7.392                0.990813341     -16.3518063
7.394                0.990812907     -16.3788223
7.396                0.990812519       -16.40584
7.398                0.990812179     -16.4328593
7.4                  0.990811888     -16.4598802
7.402                0.990793572     -16.4872534
7.404                0.990775246     -16.5146286
7.406                 0.99075691     -16.5420055
7.408                0.990738565     -16.5693843
7.41                 0.990702392     -16.5966947
7.412                0.990666147     -16.6240069
7.414                 0.99062983     -16.6513209
7.416                0.990593441     -16.6786366
7.418                0.990542344     -16.7054878
7.42                 0.990491123     -16.7323404
7.422                0.990439777     -16.7591945
7.424                0.990388305     -16.7860499
7.426                0.990327838     -16.8121353
7.428                0.990267216     -16.8382216
7.43                 0.990206442     -16.8643089
7.432                0.990145514     -16.8903971
7.434                0.990083134     -16.9155714
7.436                0.990020603     -16.9407461
7.438                0.989957923     -16.9659214
7.44                 0.989895094     -16.9910973
7.442                0.989838955     -17.0154017
7.444                0.989782702     -17.0397064
7.446                0.989726332     -17.0640116
7.448                0.989669848     -17.0883172
7.45                 0.989627153     -17.1120069
7.452                0.989584398     -17.1356971
7.454                0.989541581     -17.1593876
7.456                0.989498705     -17.1830786
7.458                0.989474224     -17.2065695
7.46                 0.989449746     -17.2300609
7.462                0.989425269     -17.2535527
7.464                0.989400793      -17.277045
7.466                0.989395651     -17.3008487
7.468                0.989390572     -17.3246528
7.47                 0.989385553     -17.3484573
7.472                0.989380595     -17.3722623
7.474                0.989391952     -17.3968639
7.476                0.989403417     -17.4214658
7.478                0.989414987      -17.446068
7.48                 0.989426662     -17.4706706
7.482                0.989448303     -17.4964326
7.484                0.989470074     -17.5221949
7.486                0.989491974     -17.5479574
7.488                0.989514005     -17.5737202
7.49                 0.989537656     -17.6008048
7.492                0.989561438     -17.6278897
7.494                 0.98958535     -17.6549749
7.496                0.989609392     -17.6820606
7.498                0.989626608     -17.7104068
7.5                   0.98964393     -17.7387538
7.502                0.989661359     -17.7671014
7.504                0.989678894     -17.7954498
7.506                0.989682719     -17.8247939
7.508                0.989686602     -17.8541394
7.51                 0.989690545     -17.8834861
7.512                0.989694548     -17.9128342
7.514                0.989680755      -17.942779
7.516                0.989666957     -17.9727256
7.518                0.989653157     -18.0026739
7.52                 0.989639353     -18.0326241
7.522                 0.98960703     -18.0627206
7.524                0.989574637     -18.0928188
7.526                0.989542175     -18.1229188
7.528                0.989509643     -18.1530206
7.53                 0.989461134     -18.1828527
7.532                0.989412505     -18.2126859
7.534                0.989363755     -18.2425204
7.536                0.989314884      -18.272356
7.538                0.989255046     -18.3016087
7.54                 0.989195063     -18.3308617
7.542                0.989134935      -18.360115
7.544                0.989074662     -18.3893687
7.546                 0.98900997     -18.4178721
7.548                0.988945136      -18.446375
7.55                 0.988880162     -18.4748773
7.552                0.988815046     -18.5033791
7.554                0.988752488     -18.5311218
7.556                0.988689815     -18.5588635
7.558                0.988627027     -18.5866042
7.56                 0.988564124      -18.614344
7.562                0.988510204     -18.6414713
7.564                0.988456208     -18.6685977
7.566                0.988402136     -18.6957232
7.568                0.988347988     -18.7228478
7.57                 0.988307727     -18.7496426
7.572                0.988267434     -18.7764368
7.574                 0.98822711     -18.8032305
7.576                0.988186753     -18.8300237
7.578                0.988162985     -18.8568635
7.58                 0.988139233     -18.8837031
7.582                0.988115496     -18.9105425
7.584                0.988091774     -18.9373818
7.586                0.988084529     -18.9646924
7.588                0.988077345     -18.9920029
7.59                 0.988070222     -19.0193133
7.592                 0.98806316     -19.0466237
7.594                0.988069496     -19.0748015
7.596                0.988075934     -19.1029791
7.598                0.988082474     -19.1311564
7.6                  0.988089116     -19.1593336
7.602                0.988103393     -19.1886816
7.604                0.988117801     -19.2180293
7.606                0.988132339     -19.2473765
7.608                0.988147008     -19.2767234
7.61                 0.988161751     -19.3073805
7.612                0.988176631     -19.3380371
7.614                0.988191648     -19.3686932
7.616                0.988206803     -19.3993489
7.618                0.988214064     -19.4312582
7.62                 0.988221437     -19.4631673
7.622                0.988228921     -19.4950762
7.624                0.988236517     -19.5269849
7.626                0.988229484     -19.5598842
7.628                0.988222504     -19.5927837
7.63                 0.988215577     -19.6256835
7.632                0.988208703     -19.6585836
7.634                0.988183156     -19.6920614
7.636                0.988157581     -19.7255399
7.638                0.988131979      -19.759019
7.64                 0.988106348     -19.7924987
7.642                 0.98806166     -19.8260742
7.644                0.988016862     -19.8596504
7.646                0.987971953     -19.8932273
7.648                0.987926933     -19.9268049
7.65                 0.987866168     -19.9600279
7.652                0.987805232     -19.9932511
7.654                0.987744125     -20.0264746
7.656                0.987682846     -20.0596984
7.658                0.987612144     -20.0922585
7.66                 0.987541249     -20.1248177
7.662                0.987470163     -20.1573764
7.664                0.987398886     -20.1899344
7.666                0.987326049     -20.2217007
7.668                0.987253048     -20.2534652
7.67                 0.987179882     -20.2852279
7.672                 0.98710655     -20.3169888
7.674                0.987039401      -20.348048
7.676                0.986972149     -20.3791045
7.678                0.986904794     -20.4101582
7.68                 0.986837337     -20.4412093
7.682                0.986782182      -20.471825
7.684                0.986726998     -20.5024375
7.686                0.986671787      -20.533047
7.688                0.986616547     -20.5636534
7.69                 0.986577054     -20.5942134
7.692                  0.9865376     -20.6247704
7.694                0.986498183     -20.6553244
7.696                0.986458805     -20.6858756
7.698                0.986435646     -20.7167987
7.7                   0.98641257     -20.7477193
7.702                0.986389578     -20.7786374
7.704                0.986366668     -20.8095531
7.706                0.986357617     -20.8412309
7.708                0.986348673     -20.8729067
7.71                 0.986339837     -20.9045804
7.712                0.986331109     -20.9362521
7.714                0.986331674     -20.9689865
7.716                0.986332356     -21.0017193
7.718                0.986333155     -21.0344503
7.72                 0.986334072     -21.0671798
7.722                0.986338228     -21.1011419
7.724                  0.9863425     -21.1351025
7.726                0.986346886     -21.1690616
7.728                0.986351388     -21.2030192
7.73                  0.98635255     -21.2382421
7.732                0.986353814     -21.2734637
7.734                 0.98635518     -21.3086838
7.736                0.986356649     -21.3439024
7.738                0.986348431     -21.3802653
7.74                 0.986340289     -21.4166266
7.742                0.986332222     -21.4529863
7.744                0.986324231     -21.4893444
7.746                0.986301554     -21.5265868
7.748                 0.98627891     -21.5638273
7.75                 0.986256297     -21.6010659
7.752                0.986233714     -21.6383027
7.754                0.986193547     -21.6760612
7.756                 0.98615335     -21.7138174
7.758                0.986113125     -21.7515711
7.76                 0.986072871     -21.7893224
7.762                0.986015088     -21.8271814
7.764                0.985957207     -21.8650374
7.766                0.985899229     -21.9028904
7.768                0.985841153     -21.9407405
7.77                 0.985768697     -21.9783005
7.772                0.985696083      -22.015857
7.774                0.985623313     -22.0534099
7.776                0.985550387     -22.0909593
7.778                0.985469024     -22.1279227
7.78                 0.985387473     -22.1648821
7.782                0.985305735     -22.2018375
7.784                 0.98522381     -22.2387889
7.786                0.985141214     -22.2750358
7.788                0.985058444     -22.3112782
7.79                   0.9849755     -22.3475162
7.792                0.984892382     -22.3837496
