! TOUCHSTONE file generated by CST DESIGN STUDIO
! Date and time: Mon Feb 10 16:55:55 2025
! Project name: C:\Work\MatlabApps\UnitCellType2OptimizationMatlab\CST\unitcell.cst
! Tree item: Tasks\Sweep1\SPara1\S-Parameters
! Header version: 2024
! Port assignment regex: !\s*Touchstone port\s*([0-9]+)\s*=\s*(CST MWS port|CST DES external port|CST DES block port)\s*(.+)\s* \(\"(.*)\"\)(\s*mode\s*([0-9]+))?.*
! Touchstone port assignment:
! Touchstone port 1 = CST DES external port 1 ("")
# GHz S MA R 50
7                      0.9917126      -10.443006
7.002                0.991762841     -10.4588554
7.004                0.991813164     -10.4747042
7.006                0.991863569     -10.4905526
7.008                0.991914057     -10.5064007
7.01                  0.99197594     -10.5238318
7.012                 0.99203793     -10.5412609
7.014                0.992100029      -10.558688
7.016                0.992162237     -10.5761134
7.018                0.992223124     -10.5952226
7.02                 0.992284139     -10.6143281
7.022                 0.99234528     -10.6334298
7.024                0.992406548     -10.6525278
7.026                0.992454963     -10.6730911
7.028                0.992503531     -10.6936496
7.03                 0.992552253     -10.7142033
7.032                0.992601128     -10.7347521
7.034                0.992628914     -10.7563025
7.036                0.992656866     -10.7778491
7.038                0.992684983     -10.7993918
7.04                 0.992713266     -10.8209307
7.042                0.992716676     -10.8428875
7.044                0.992720206     -10.8648433
7.046                0.992723855     -10.8867983
7.048                0.992727624     -10.9087523
7.05                 0.992707169     -10.9305355
7.052                0.992686728     -10.9523204
7.054                  0.9926663     -10.9741071
7.056                0.992645886     -10.9958954
7.058                0.992605593     -11.0170073
7.06                 0.992565198     -11.0381213
7.062                0.992524702     -11.0592377
7.064                0.992484106     -11.0803562
7.066                0.992430678     -11.1004279
7.068                0.992377079     -11.1205012
7.07                  0.99232331     -11.1405762
7.072                0.992269371     -11.1606529
7.074                 0.99221123     -11.1794898
7.076                0.992152894     -11.1983286
7.078                0.992094363     -11.2171692
7.08                 0.992035638     -11.2360116
7.082                0.991981882     -11.2536129
7.084                0.991927931     -11.2712166
7.086                0.991873786     -11.2888227
7.088                0.991819447      -11.306431
7.09                  0.99177859     -11.3229923
7.092                0.991737571     -11.3395556
7.094                 0.99169639      -11.356121
7.096                0.991655048     -11.3726885
7.098                0.991633894     -11.3885921
7.1                  0.991612657      -11.404497
7.102                0.991591336     -11.4204032
7.104                0.991569929     -11.4363108
7.106                 0.99157247     -11.4520823
7.108                 0.99157502     -11.4678552
7.11                 0.991577578     -11.4836293
7.112                0.991580147     -11.4994049
7.114                0.991606218     -11.5156548
7.116                0.991632364     -11.5319063
7.118                0.991658585     -11.5481594
7.12                  0.99168488     -11.5644143
7.122                0.991729648     -11.5817087
7.124                0.991774525     -11.5990035
7.126                0.991819512     -11.6162986
7.128                0.991864608     -11.6335943
7.13                 0.991919128     -11.6523289
7.132                0.991973795     -11.6710616
7.134                0.992028611     -11.6897924
7.136                0.992083575     -11.7085212
7.138                0.992136678      -11.728825
7.14                 0.992189963     -11.7491265
7.142                0.992243429     -11.7694256
7.144                0.992297077     -11.7897222
7.146                0.992337581     -11.8114233
7.148                0.992378249     -11.8331233
7.15                 0.992419079     -11.8548219
7.152                0.992460071     -11.8765195
7.154                0.992479261      -11.899167
7.156                 0.99249855      -11.921814
7.158                0.992517938     -11.9444607
7.16                 0.992537422     -11.9671069
7.162                0.992531013     -11.9900676
7.164                0.992524634     -12.0130285
7.166                0.992518285     -12.0359895
7.168                0.992511967     -12.0589506
7.17                 0.992481194     -12.0815643
7.172                0.992450376     -12.1041798
7.174                0.992419516     -12.1267973
7.176                0.992388616     -12.1494168
7.178                0.992339517     -12.1711406
7.18                 0.992290282      -12.192868
7.182                 0.99224091     -12.2145992
7.184                0.992191402     -12.2363341
7.186                0.992133132     -12.2568458
7.188                0.992074658     -12.2773604
7.19                 0.992015978     -12.2978778
7.192                0.991957094     -12.3183978
7.194                0.991899849     -12.3376367
7.196                0.991842413     -12.3568767
7.198                0.991784788     -12.3761177
7.2                  0.991726976     -12.3953596
7.202                0.991680175     -12.4135157
7.204                0.991633249     -12.4316728
7.206                0.991586198      -12.449831
7.208                0.991539021     -12.4679904
7.21                 0.991509363     -12.4854562
7.212                0.991479638     -12.5029239
7.214                0.991449844     -12.5203935
7.216                 0.99141998      -12.537865
7.218                0.991410741     -12.5551188
7.22                 0.991401476     -12.5723745
7.222                0.991392187     -12.5896322
7.224                0.991382873     -12.6068918
7.226                0.991393827     -12.6244244
7.228                0.991404805     -12.6419582
7.23                 0.991415807     -12.6594933
7.232                0.991426835     -12.6770297
7.234                0.991454841     -12.6952757
7.236                0.991482924     -12.7135223
7.238                0.991511084     -12.7317696
7.24                 0.991539322     -12.7500178
7.242                0.991578818     -12.7693121
7.244                0.991618433     -12.7886065
7.246                0.991658167     -12.8079011
7.248                0.991698019     -12.8271958
7.25                 0.991741622     -12.8477375
7.252                0.991785373     -12.8682785
7.254                0.991829273     -12.8888189
7.256                0.991873321     -12.9093585
7.258                0.991912798     -12.9311641
7.26                 0.991952442     -12.9529686
7.262                0.991992252     -12.9747719
7.264                0.992032229     -12.9965741
7.266                0.992059572     -13.0194779
7.268                 0.99208707     -13.0423811
7.27                 0.992114723     -13.0652838
7.272                0.992142529     -13.0881861
7.274                0.992151307     -13.1118309
7.276                0.992160183     -13.1354764
7.278                0.992169158     -13.1591228
7.28                 0.992178232     -13.1827699
7.282                0.992164935     -13.2066587
7.284                 0.99215164     -13.2305494
7.286                0.992138349     -13.2544419
7.288                0.992125064     -13.2783363
7.29                 0.992090218     -13.3019034
7.292                0.992055274     -13.3254729
7.294                0.992020232     -13.3490448
7.296                0.991985092     -13.3726192
7.298                0.991933676     -13.3953537
7.3                  0.991882082      -13.418091
7.302                0.991830309     -13.4408309
7.304                0.991778359     -13.4635735
7.306                0.991718921     -13.4851399
7.308                0.991659268     -13.5067089
7.31                 0.991599399     -13.5282807
7.312                0.991539314     -13.5498549
7.314                0.991482247     -13.5701779
7.316                0.991424981      -13.590503
7.318                0.991367518     -13.6108303
7.32                 0.991309857     -13.6311597
7.322                 0.99126505     -13.6504451
7.324                0.991220117     -13.6697318
7.326                0.991175058     -13.6890199
7.328                0.991129872     -13.7083095
7.33                 0.991104513     -13.7270064
7.332                0.991079128     -13.7457045
7.334                0.991053715     -13.7644038
7.336                0.991028275     -13.7831043
7.338                0.991025247     -13.8017855
7.34                  0.99102228     -13.8204681
7.342                0.991019374     -13.8391522
7.344                0.991016529     -13.8578376
7.346                0.991033975     -13.8770764
7.348                0.991051533     -13.8963166
7.35                 0.991069202     -13.9155582
7.352                0.991086984     -13.9348013
7.354                0.991119148     -13.9550422
7.356                0.991151445      -13.975284
7.358                0.991183873     -13.9955268
7.36                 0.991216434     -14.0157704
7.362                 0.99125525     -14.0372539
7.364                0.991294205     -14.0587375
7.366                0.991333297     -14.0802212
7.368                0.991372526      -14.101705
7.37                 0.991409425     -14.1244526
7.372                0.991446461     -14.1472001
7.374                0.991483634     -14.1699473
7.376                0.991520944     -14.1926944
7.378                0.991548367     -14.2165412
7.38                 0.991575913     -14.2403881
7.382                0.991603582     -14.2642352
7.384                0.991631374     -14.2880824
7.386                0.991643792     -14.3127152
7.388                0.991656299     -14.3373487
7.39                 0.991668895     -14.3619831
7.392                 0.99168158     -14.3866182
7.394                0.991675923     -14.4116524
7.396                0.991670299      -14.436688
7.398                0.991664709      -14.461725
7.4                  0.991659153     -14.4867635
7.402                0.991635093      -14.511774
7.404                0.991610999     -14.5367862
7.406                0.991586871     -14.5618003
7.408                0.991562711     -14.5868162
7.41                 0.991522558     -14.6114045
7.412                0.991482303     -14.6359947
7.414                0.991441946     -14.6605867
7.416                0.991401485     -14.6851806
7.418                0.991350054     -14.7090165
7.42                 0.991298464     -14.7328541
7.422                0.991246716     -14.7566933
7.424                0.991194809     -14.7805339
7.426                0.991138967     -14.8034095
7.428                 0.99108294     -14.8262864
7.43                 0.991026729     -14.8491646
7.432                0.990970332     -14.8720443
7.434                 0.99091815     -14.8939327
7.436                0.990865796     -14.9158225
7.438                0.990813272     -14.9377136
7.44                 0.990760576      -14.959606
7.442                 0.99072001     -14.9806771
7.444                0.990679327     -15.0017497
7.446                0.990638527     -15.0228237
7.448                 0.99059761     -15.0438993
7.45                 0.990574779     -15.0645264
7.452                0.990551914     -15.0851551
7.454                0.990529014     -15.1057853
7.456                0.990506081     -15.1264171
7.458                0.990503871     -15.1471049
7.46                 0.990501721      -15.167794
7.462                0.990499633     -15.1884845
7.464                0.990497604     -15.2091763
7.466                 0.99051469     -15.2304714
7.468                0.990531924     -15.2517674
7.47                 0.990549303     -15.2730644
7.472                0.990566829     -15.2943623
7.474                0.990597782      -15.316721
7.476                0.990628937     -15.3390803
7.478                0.990660291       -15.36144
7.48                 0.990691845     -15.3838002
7.482                0.990728253     -15.4074881
7.484                0.990764872     -15.4311763
7.486                0.990801702     -15.4548645
7.488                0.990838744      -15.478553
7.49                 0.990871058     -15.5035835
7.492                0.990903554      -15.528614
7.494                0.990936233     -15.5536446
7.496                0.990969093     -15.5786754
7.498                 0.99098888     -15.6048172
7.5                  0.991008789     -15.6309594
7.502                0.991028818     -15.6571022
7.504                0.991048968     -15.6832454
7.506                0.991050611     -15.7100824
7.508                 0.99105229     -15.7369208
7.51                 0.991054006     -15.7637605
7.512                0.991055759     -15.7906015
7.514                  0.9910374     -15.8176362
7.516                0.991018985      -15.844673
7.518                0.991000516     -15.8717119
7.52                 0.990981992     -15.8987529
7.522                0.990945567     -15.9255096
7.524                 0.99090901     -15.9522685
7.526                 0.99087232     -15.9790296
7.528                0.990835497     -16.0057929
7.53                 0.990786045     -16.0319057
7.532                0.990736419     -16.0580199
7.534                 0.99068662     -16.0841357
7.536                0.990636647     -16.1102528
7.538                0.990580985     -16.1355185
7.54                 0.990525155     -16.1607846
7.542                0.990469156     -16.1860511
7.544                0.990412989     -16.2113181
7.546                0.990358472     -16.2357114
7.548                0.990303827     -16.2601043
7.55                 0.990249053     -16.2844969
7.552                 0.99019415     -16.3088892
7.554                  0.9901475     -16.3325449
7.556                0.990100775     -16.3562002
7.558                0.990053976      -16.379855
7.56                 0.990007102     -16.4035095
7.562                0.989973583     -16.4266917
7.564                0.989940041     -16.4498739
7.566                0.989906477     -16.4730561
7.568                0.989872892     -16.4962383
7.57                 0.989855645     -16.5193049
7.572                0.989838423     -16.5423719
7.574                0.989821227     -16.5654395
7.576                0.989804055     -16.5885077
7.578                0.989803779     -16.6118608
7.58                 0.989803578     -16.6352148
7.582                 0.98980345     -16.6585695
7.584                0.989803396     -16.6819251
7.586                0.989818023     -16.7059665
7.588                0.989832776     -16.7300086
7.59                 0.989847655     -16.7540513
7.592                0.989862659     -16.7780945
7.594                0.989887472      -16.803155
7.596                0.989912463     -16.8282156
7.598                0.989937633     -16.8532763
7.6                   0.98996298     -16.8783371
7.602                0.989991096       -16.90462
7.604                0.990019428     -16.9309024
7.606                0.990047975     -16.9571845
7.608                0.990076737     -16.9834663
7.61                 0.990100156     -17.0109883
7.612                0.990123792     -17.0385098
7.614                0.990147644     -17.0660308
7.616                0.990171713     -17.0935512
7.618                0.990182826     -17.1221253
7.62                 0.990194103     -17.1506993
7.622                0.990205548      -17.179273
7.624                0.990217158     -17.2078465
7.626                0.990210395     -17.2370934
7.628                0.990203698     -17.2663406
7.63                 0.990197068     -17.2955881
7.632                0.990190504     -17.3248358
7.634                0.990163698     -17.3542626
7.636                 0.99013683     -17.3836901
7.638                0.990109901     -17.4131185
7.64                 0.990082911     -17.4425477
7.642                   0.990038     -17.4716497
7.644                0.989992908     -17.5007528
7.646                0.989947635      -17.529857
7.648                0.989902178     -17.5589622
7.65                 0.989844763     -17.5873359
7.652                0.989787092     -17.6157103
7.654                0.989729165     -17.6440856
7.656                0.989670981     -17.6724618
7.658                0.989609166     -17.6999059
7.66                 0.989547096     -17.7273498
7.662                0.989484771     -17.7547937
7.664                0.989422191     -17.7822375
7.666                 0.98936465     -17.8087764
7.668                0.989306936     -17.8353141
7.67                 0.989249051     -17.8618506
7.672                0.989190995     -17.8883859
7.674                0.989145134     -17.9142684
7.676                0.989099239      -17.940149
7.678                 0.98905331     -17.9660275
7.68                 0.989007346      -17.991904
7.682                 0.98897782     -18.0175269
7.684                  0.9889484     -18.0431476
7.686                0.988919086     -18.0687661
7.688                0.988889878     -18.0943824
7.69                 0.988877915     -18.1202051
7.692                0.988866161     -18.1460258
7.694                0.988854612     -18.1718446
7.696                0.988843271     -18.1976615
7.698                0.988846867     -18.2241018
7.7                  0.988850712     -18.2505405
7.702                0.988854806     -18.2769776
7.704                0.988859148     -18.3034131
7.706                 0.98887377     -18.3307926
7.708                0.988888635     -18.3581706
7.71                 0.988903743     -18.3855472
7.712                0.988919094     -18.4129225
7.714                0.988938711     -18.4414258
7.716                0.988958542     -18.4699277
7.718                0.988978586     -18.4984284
7.72                 0.988998843     -18.5269279
7.722                0.989016884     -18.5565895
7.724                0.989035104     -18.5862498
7.726                0.989053502     -18.6159089
7.728                 0.98907208     -18.6455667
7.73                 0.989082349     -18.6762872
7.732                0.989092766     -18.7070063
7.734                0.989103332     -18.7377241
7.736                0.989114046     -18.7684406
7.738                0.989111342     -18.7999925
7.74                 0.989108758     -18.8315427
7.742                0.989106293     -18.8630913
7.744                0.989103946     -18.8946383
7.746                0.989084933     -18.9266902
7.748                0.989065998     -18.9587399
7.75                 0.989047144     -18.9907874
7.752                0.989028367     -19.0228328
7.754                0.988992065     -19.0549933
7.756                0.988955782     -19.0871509
7.758                0.988919517     -19.1193057
7.76                  0.98888327     -19.1514577
7.762                0.988831669     -19.1833272
7.764                0.988780004     -19.2151932
7.766                0.988728277     -19.2470558
7.768                0.988676489      -19.278915
7.77                 0.988614426     -19.3101574
7.772                 0.98855222     -19.3413962
7.774                0.988489873     -19.3726312
7.776                0.988427385     -19.4038626
7.778                0.988361971     -19.4342841
7.78                 0.988296369      -19.464702
7.782                0.988230577     -19.4951162
7.784                0.988164595     -19.5255269
7.786                0.988103988       -19.55514
7.788                0.988043215     -19.5847496
7.79                 0.987982275     -19.6143556
7.792                 0.98792117      -19.643958
