! TOUCHSTONE file generated by CST DESIGN STUDIO
! Date and time: Mon Feb 10 16:55:44 2025
! Project name: C:\Work\MatlabApps\UnitCellType2OptimizationMatlab\CST\unitcell.cst
! Tree item: Tasks\Sweep1\SPara1\S-Parameters
! Header version: 2024
! Port assignment regex: !\s*Touchstone port\s*([0-9]+)\s*=\s*(CST MWS port|CST DES external port|CST DES block port)\s*(.+)\s* \(\"(.*)\"\)(\s*mode\s*([0-9]+))?.*
! Touchstone port assignment:
! Touchstone port 1 = CST DES external port 1 ("")
# GHz S MA R 50
7                    0.992877456     -14.9210576
7.002                0.992866436     -14.9433074
7.004                0.992855344     -14.9655961
7.006                0.992844181     -14.9879237
7.008                0.992832946     -15.0102905
7.01                 0.992821638     -15.0326966
7.012                0.992810258      -15.055142
7.014                0.992798805      -15.077627
7.016                0.992787279     -15.1001516
7.018                0.992775679     -15.1227161
7.02                 0.992764006     -15.1453205
7.022                0.992752258     -15.1679649
7.024                0.992740437     -15.1906496
7.026                 0.99272854     -15.2133746
7.028                0.992716568     -15.2361401
7.03                 0.992704521     -15.2589462
7.032                0.992692398     -15.2817931
7.034                  0.9926802     -15.3046809
7.036                0.992667925     -15.3276097
7.038                0.992655573     -15.3505797
7.04                 0.992643144     -15.3735911
7.042                0.992630638     -15.3966439
7.044                0.992618054     -15.4197383
7.046                0.992605393     -15.4428745
7.048                0.992592653     -15.4660526
7.05                 0.992579834     -15.4892728
7.052                0.992566936     -15.5125351
7.054                0.992553959     -15.5358398
7.056                0.992540902     -15.5591869
7.058                0.992527765     -15.5825767
7.06                 0.992514548     -15.6060093
7.062                 0.99250125     -15.6294849
7.064                0.992487871     -15.6530035
7.066                0.992474411     -15.6765653
7.068                0.992460868     -15.7001706
7.07                 0.992447244     -15.7238194
7.072                0.992433536     -15.7475118
7.074                0.992419746     -15.7712482
7.076                0.992405873     -15.7950285
7.078                0.992391916      -15.818853
7.08                 0.992377875     -15.8427218
7.082                0.992363749     -15.8666351
7.084                0.992349539      -15.890593
7.086                0.992335244     -15.9145957
7.088                0.992320863     -15.9386434
7.09                 0.992306396     -15.9627362
7.092                0.992291842     -15.9868742
7.094                0.992277202     -16.0110577
7.096                0.992262475     -16.0352868
7.098                 0.99224766     -16.0595616
7.1                  0.992232758     -16.0838824
7.102                0.992217767     -16.1082492
7.104                0.992202687     -16.1326623
7.106                0.992187518     -16.1571218
7.108                 0.99217226     -16.1816279
7.11                 0.992156911     -16.2061808
7.112                0.992141473     -16.2307806
7.114                0.992125943     -16.2554275
7.116                0.992110322     -16.2801216
7.118                 0.99209461     -16.3048632
7.12                 0.992078806     -16.3296524
7.122                0.992062909     -16.3544894
7.124                0.992046919     -16.3793743
7.126                0.992030836     -16.4043074
7.128                0.992014659     -16.4292888
7.13                 0.991998387     -16.4543186
7.132                0.991982021     -16.4793972
7.134                 0.99196556     -16.5045246
7.136                0.991949003      -16.529701
7.138                0.991932351     -16.5549266
7.14                 0.991915601     -16.5802015
7.142                0.991898755     -16.6055261
7.144                0.991881812     -16.6309004
7.146                 0.99186477     -16.6563246
7.148                 0.99184763      -16.681799
7.15                 0.991830391     -16.7073236
7.152                0.991813053     -16.7328988
7.154                0.991795616     -16.7585246
7.156                0.991778077     -16.7842013
7.158                0.991760439     -16.8099291
7.16                 0.991742699     -16.8357081
7.162                0.991724857     -16.8615385
7.164                0.991706913     -16.8874206
7.166                0.991688866     -16.9133545
7.168                0.991670716     -16.9393404
7.17                 0.991652462     -16.9653786
7.172                0.991634104     -16.9914691
7.174                0.991615642     -17.0176123
7.176                0.991597074     -17.0438083
7.178                  0.9915784     -17.0700573
7.18                  0.99155962     -17.0963595
7.182                0.991540733     -17.1227151
7.184                0.991521739     -17.1491243
7.186                0.991502637     -17.1755874
7.188                0.991483426     -17.2021045
7.19                 0.991464106     -17.2286758
7.192                0.991444677     -17.2553015
7.194                0.991425138     -17.2819819
7.196                0.991405488     -17.3087172
7.198                0.991385727     -17.3355075
7.2                  0.991365855     -17.3623531
7.202                 0.99134587     -17.3892542
7.204                0.991325772      -17.416211
7.206                 0.99130556     -17.4432237
7.208                0.991285235     -17.4702926
7.21                 0.991264795     -17.4974178
7.212                 0.99124424     -17.5245996
7.214                0.991223569     -17.5518381
7.216                0.991202782     -17.5791337
7.218                0.991181877     -17.6064865
7.22                 0.991160856     -17.6338968
7.222                0.991139716     -17.6613647
7.224                0.991118457     -17.6888906
7.226                0.991097079     -17.7164746
7.228                 0.99107558      -17.744117
7.23                 0.991053962     -17.7718179
7.232                0.991032221     -17.7995777
7.234                0.991010359     -17.8273965
7.236                0.990988375     -17.8552746
7.238                0.990966267     -17.8832122
7.24                 0.990944036     -17.9112096
7.242                 0.99092168     -17.9392669
7.244                0.990899199     -17.9673845
7.246                0.990876592     -17.9955626
7.248                0.990853858     -18.0238014
7.25                 0.990830998     -18.0521011
7.252                 0.99080801      -18.080462
7.254                0.990784893     -18.1088844
7.256                0.990761647     -18.1373684
7.258                0.990738272     -18.1659144
7.26                 0.990714766     -18.1945225
7.262                0.990691128     -18.2231931
7.264                0.990667359     -18.2519263
7.266                0.990643457     -18.2807225
7.268                0.990619422     -18.3095819
7.27                 0.990595252     -18.3385047
7.272                0.990570948     -18.3674912
7.274                0.990546508     -18.3965417
7.276                0.990521932     -18.4256563
7.278                 0.99049722     -18.4548355
7.28                 0.990472369     -18.4840794
7.282                 0.99044738     -18.5133883
7.284                0.990422251     -18.5427625
7.286                0.990396983     -18.5722022
7.288                0.990371574     -18.6017077
7.29                 0.990346023     -18.6312793
7.292                 0.99032033     -18.6609172
7.294                0.990294494     -18.6906218
7.296                0.990268514     -18.7203932
7.298                0.990242389     -18.7502318
7.3                  0.990216119     -18.7801379
7.302                0.990189702     -18.8101117
7.304                0.990163139     -18.8401535
7.306                0.990136427     -18.8702635
7.308                0.990109567     -18.9004422
7.31                 0.990082557     -18.9306897
7.312                0.990055396     -18.9610064
7.314                0.990028085     -18.9913924
7.316                0.990000621     -19.0218483
7.318                0.989973004     -19.0523741
7.32                 0.989945233     -19.0829702
7.322                0.989917308      -19.113637
7.324                0.989889227     -19.1443746
7.326                0.989860989     -19.1751835
7.328                0.989832595     -19.2060638
7.33                 0.989804041      -19.237016
7.332                0.989775329     -19.2680402
7.334                0.989746457     -19.2991369
7.336                0.989717423     -19.3303063
7.338                0.989688228     -19.3615487
7.34                  0.98965887     -19.3928645
7.342                0.989629348     -19.4242539
7.344                0.989599661     -19.4557173
7.346                0.989569809      -19.487255
7.348                 0.98953979     -19.5188673
7.35                 0.989509603     -19.5505545
7.352                0.989479248      -19.582317
7.354                0.989448723      -19.614155
7.356                0.989418027     -19.6460689
7.358                 0.98938716     -19.6780591
7.36                 0.989356121     -19.7101258
7.362                0.989324907     -19.7422694
7.364                0.989293519     -19.7744902
7.366                0.989261956     -19.8067885
7.368                0.989230216     -19.8391648
7.37                 0.989198298     -19.8716193
7.372                0.989166201     -19.9041524
7.374                0.989133925     -19.9367643
7.376                0.989101467     -19.9694556
7.378                0.989068828     -20.0022264
7.38                 0.989036006     -20.0350773
7.382                0.989002999     -20.0680084
7.384                0.988969807     -20.1010202
7.386                0.988936429      -20.134113
7.388                0.988902863     -20.1672872
7.39                 0.988869108     -20.2005432
7.392                0.988835164     -20.2338812
7.394                0.988801029     -20.2673018
7.396                0.988766702     -20.3008051
7.398                0.988732181     -20.3343917
7.4                  0.988697467     -20.3680618
7.402                0.988662556     -20.4018159
7.404                0.988627449     -20.4356544
7.406                0.988592143     -20.4695775
7.408                0.988556639     -20.5035857
7.41                 0.988520934     -20.5376794
7.412                0.988485027      -20.571859
7.414                0.988448918     -20.6061247
7.416                0.988412604     -20.6404772
7.418                0.988376085     -20.6749166
7.42                 0.988339359     -20.7094435
7.422                0.988302425     -20.7440582
7.424                0.988265282     -20.7787611
7.426                0.988227928     -20.8135526
7.428                0.988190363     -20.8484331
7.43                 0.988152584     -20.8834031
7.432                 0.98811459      -20.918463
7.434                0.988076381      -20.953613
7.436                0.988037955     -20.9888538
7.438                0.987999309     -21.0241856
7.44                 0.987960444      -21.059609
7.442                0.987921358     -21.0951242
7.444                0.987882048     -21.1307319
7.446                0.987842514     -21.1664323
7.448                0.987802755     -21.2022259
7.45                 0.987762769     -21.2381132
7.452                0.987722554     -21.2740945
7.454                0.987682109     -21.3101704
7.456                0.987641433     -21.3463412
7.458                0.987600523     -21.3826075
7.46                 0.987559379     -21.4189696
7.462                   0.987518      -21.455428
7.464                0.987476383     -21.4919832
7.466                0.987434526     -21.5286356
7.468                0.987392429     -21.5653857
7.47                 0.987350091     -21.6022339
7.472                0.987307508     -21.6391807
7.474                 0.98726468     -21.6762266
7.476                0.987221605      -21.713372
7.478                0.987178282     -21.7506175
7.48                 0.987134708     -21.7879634
7.482                0.987090883     -21.8254103
7.484                0.987046805     -21.8629587
7.486                0.987002471      -21.900609
7.488                 0.98695788     -21.9383617
7.49                 0.986913031     -21.9762174
7.492                0.986867922     -22.0141764
7.494                0.986822551     -22.0522394
7.496                0.986776916     -22.0904069
7.498                0.986731016     -22.1286792
7.5                  0.986684849      -22.167057
7.502                0.986638413     -22.2055407
7.504                0.986591706     -22.2441309
7.506                0.986544726     -22.2828281
7.508                0.986497472     -22.3216328
7.51                 0.986449942     -22.3605455
7.512                0.986402133     -22.3995668
7.514                0.986354045     -22.4386972
7.516                0.986305675     -22.4779372
7.518                 0.98625702     -22.5172874
7.52                 0.986208081     -22.5567483
7.522                0.986158853     -22.5963204
7.524                0.986109336     -22.6360044
7.526                0.986059527     -22.6758008
7.528                0.986009425       -22.71571
7.53                 0.985959027     -22.7557328
7.532                0.985908331     -22.7958696
7.534                0.985857336     -22.8361211
7.536                0.985806038     -22.8764877
7.538                0.985754437     -22.9169701
7.54                  0.98570253     -22.9575689
7.542                0.985650315     -22.9982846
7.544                 0.98559779     -23.0391179
7.546                0.985544952     -23.0800693
7.548                  0.9854918     -23.1211394
7.55                 0.985438331     -23.1623288
7.552                0.985384542     -23.2036382
7.554                0.985330433     -23.2450681
7.556                   0.985276     -23.2866192
7.558                0.985221242     -23.3282921
7.56                 0.985166155     -23.3700873
7.562                0.985110738     -23.4120056
7.564                0.985054989     -23.4540475
7.566                0.984998904     -23.4962137
7.568                0.984942482     -23.5385049
7.57                  0.98488572     -23.5809216
7.572                0.984828616     -23.6234646
7.574                0.984771167     -23.6661344
7.576                 0.98471337     -23.7089318
7.578                0.984655225     -23.7518574
7.58                 0.984596726     -23.7949118
7.582                0.984537874     -23.8380958
7.584                0.984478664       -23.88141
7.586                0.984419094     -23.9248551
7.588                0.984359161     -23.9684318
7.59                 0.984298864     -24.0121408
7.592                0.984238199     -24.0559827
7.594                0.984177163     -24.0999583
7.596                0.984115754     -24.1440683
7.598                 0.98405397     -24.1883134
7.6                  0.983991807     -24.2326943
7.602                0.983929262     -24.2772117
7.604                0.983866333     -24.3218664
7.606                0.983803018     -24.3666591
7.608                0.983739312     -24.4115905
7.61                 0.983675214     -24.4566613
7.612                 0.98361072     -24.5018724
7.614                0.983545827     -24.5472244
7.616                0.983480533     -24.5927182
7.618                0.983414834     -24.6383545
7.62                 0.983348728      -24.684134
7.622                0.983282211     -24.7300576
7.624                0.983215281      -24.776126
7.626                0.983147933     -24.8223399
7.628                0.983080166     -24.8687003
7.63                 0.983011976     -24.9152079
7.632                 0.98294336     -24.9618635
7.634                0.982874314     -25.0086679
7.636                0.982804835     -25.0556219
7.638                 0.98273492     -25.1027264
7.64                 0.982664566     -25.1499821
7.642                 0.98259377       -25.19739
7.644                0.982522527     -25.2449508
7.646                0.982450835     -25.2926654
7.648                 0.98237869     -25.3405346
7.65                 0.982306088     -25.3885594
7.652                0.982233027     -25.4367406
7.654                0.982159502      -25.485079
7.656                 0.98208551     -25.5335755
7.658                0.982011048      -25.582231
7.66                 0.981936111     -25.6310465
7.662                0.981860697     -25.6800227
7.664                  0.9817848     -25.7291607
7.666                0.981708419     -25.7784612
7.668                0.981631548     -25.8279254
7.67                 0.981554184      -25.877554
7.672                0.981476323      -25.927348
7.674                0.981397962     -25.9773083
7.676                0.981319096     -26.0274359
7.678                0.981239721     -26.0777318
7.68                 0.981159833     -26.1281969
7.682                0.981079429     -26.1788322
7.684                0.980998503     -26.2296386
7.686                0.980917053     -26.2806172
7.688                0.980835074     -26.3317689
7.69                 0.980752561     -26.3830948
7.692                 0.98066951     -26.4345958
7.694                0.980585918     -26.4862729
7.696                0.980501779     -26.5381273
7.698                 0.98041709     -26.5901598
7.7                  0.980331845     -26.6423716
7.702                0.980246041     -26.6947637
7.704                0.980159673     -26.7473372
7.706                0.980072736     -26.8000931
7.708                0.979985226     -26.8530325
7.71                 0.979897137     -26.9061565
7.712                0.979808467     -26.9594661
7.714                0.979719208     -27.0129626
7.716                0.979629358     -27.0666468
7.718                 0.97953891     -27.1205201
7.72                 0.979447861     -27.1745835
7.722                0.979356205     -27.2288382
7.724                0.979263936     -27.2832852
7.726                0.979171051     -27.3379258
7.728                0.979077544     -27.3927611
7.73                 0.978983409     -27.4477923
7.732                0.978888642     -27.5030206
7.734                0.978793238     -27.5584471
7.736                 0.97869719      -27.614073
7.738                0.978600495     -27.6698996
7.74                 0.978503145     -27.7259281
7.742                0.978405136     -27.7821597
7.744                0.978306462     -27.8385956
7.746                0.978207118     -27.8952372
7.748                0.978107098     -27.9520855
7.75                 0.978006396     -28.0091421
7.752                0.977905007      -28.066408
7.754                0.977802924     -28.1238846
7.756                0.977700142     -28.1815732
7.758                0.977596655     -28.2394751
7.76                 0.977492457     -28.2975917
7.762                0.977387541     -28.3559242
7.764                0.977281902      -28.414474
7.766                0.977175533     -28.4732425
7.768                0.977068429     -28.5322311
7.77                 0.976960582      -28.591441
7.772                0.976851986     -28.6508738
7.774                0.976742636     -28.7105307
7.776                0.976632523     -28.7704133
7.778                0.976521643      -28.830523
7.78                 0.976409987     -28.8908611
7.782                 0.97629755     -28.9514292
7.784                0.976184324     -29.0122286
7.786                0.976070303     -29.0732609
7.788                0.975955479     -29.1345276
7.79                 0.975839846     -29.1960302
7.792                0.975723397     -29.2577701
