! TOUCHSTONE file generated by CST DESIGN STUDIO
! Date and time: Mon Feb 10 16:55:56 2025
! Project name: C:\Work\MatlabApps\UnitCellType2OptimizationMatlab\CST\unitcell.cst
! Tree item: Tasks\Sweep1\SPara1\S-Parameters
! Header version: 2024
! Port assignment regex: !\s*Touchstone port\s*([0-9]+)\s*=\s*(CST MWS port|CST DES external port|CST DES block port)\s*(.+)\s* \(\"(.*)\"\)(\s*mode\s*([0-9]+))?.*
! Touchstone port assignment:
! Touchstone port 1 = CST DES external port 1 ("")
# GHz S MA R 50
7                    0.991436823       -9.484523
7.002                0.991501462     -9.50108017
7.004                0.991566177     -9.51763353
7.006                0.991630968     -9.53418311
7.008                0.991695835     -9.55072904
7.01                 0.991768759     -9.56908992
7.012                0.991841789     -9.58744442
7.014                0.991914924      -9.6057926
7.016                0.991988162     -9.62413469
7.018                0.992055195     -9.64427707
7.02                  0.99212236     -9.66441069
7.022                0.992189658      -9.6845356
7.024                0.992257088     -9.70465187
7.026                0.992306409     -9.72620766
7.028                0.992355903     -9.74775389
7.03                 0.992405569     -9.76929048
7.032                0.992455407     -9.79081747
7.034                0.992479725     -9.81318816
7.036                0.992504234     -9.83555115
7.038                0.992528933     -9.85790645
7.04                 0.992553823     -9.88025409
7.042                0.992551168      -9.9027713
7.044                0.992548648      -9.9252849
7.046                0.992546263      -9.9477949
7.048                0.992544012      -9.9703013
7.05                 0.992517046     -9.99235694
7.052                0.992490089     -10.0144125
7.054                0.992463142     -10.0364679
7.056                0.992436203     -10.0585233
7.058                0.992390934     -10.0796505
7.06                 0.992345539     -10.1007786
7.062                 0.99230002     -10.1219079
7.064                0.992254377     -10.1430382
7.066                 0.99219888     -10.1629406
7.068                0.992143175     -10.1828437
7.07                 0.992087264     -10.2027478
7.072                0.992031148     -10.2226527
7.074                0.991974467     -10.2412247
7.076                0.991917549     -10.2597977
7.078                0.991860396     -10.2783717
7.08                 0.991803008     -10.2969467
7.082                0.991754216     -10.3142726
7.084                0.991705191        -10.3316
7.086                0.991655933     -10.3489291
7.088                0.991606446     -10.3662597
7.09                 0.991573568     -10.3826069
7.092                0.991540498     -10.3989556
7.094                0.991507235     -10.4153058
7.096                0.991473779     -10.4316575
7.098                0.991462803     -10.4474633
7.1                   0.99145172     -10.4632698
7.102                0.991440529      -10.479077
7.104                0.991429229     -10.4948849
7.106                0.991443106     -10.5107104
7.108                0.991456981     -10.5265359
7.11                 0.991470852     -10.5423615
7.112                 0.99148472      -10.558187
7.114                0.991522145     -10.5746563
7.116                0.991559652      -10.591125
7.118                0.991597242      -10.607593
7.12                 0.991634915     -10.6240607
7.122                0.991689879     -10.6417331
7.124                0.991744978     -10.6594035
7.126                0.991800214      -10.677072
7.128                0.991855585     -10.6947386
7.13                 0.991917951     -10.7139799
7.132                 0.99198049      -10.733217
7.134                  0.9920432       -10.75245
7.136                 0.99210608     -10.7716789
7.138                0.992163635     -10.7925544
7.14                 0.992221382     -10.8134248
7.142                0.992279321     -10.8342898
7.144                0.992337453     -10.8551496
7.146                0.992378539     -10.8773922
7.148                0.992419802     -10.8996304
7.15                 0.992461241      -10.921864
7.152                0.992502856     -10.9440931
7.154                0.992519161     -10.9671509
7.156                0.992535579      -10.990206
7.158                 0.99255211     -11.0132585
7.16                 0.992568752     -11.0363082
7.162                0.992557144     -11.0594689
7.164                0.992545558     -11.0826287
7.166                0.992533994     -11.1057877
7.168                0.992522452     -11.1289459
7.17                 0.992485821     -11.1515041
7.172                0.992449113     -11.1740633
7.174                0.992412331     -11.1966234
7.176                0.992375474     -11.2191844
7.178                0.992321804      -11.240599
7.18                  0.99226797      -11.262016
7.182                0.992213973     -11.2834355
7.184                0.992159814     -11.3048574
7.186                0.992100063     -11.3248677
7.188                 0.99204009     -11.3448808
7.19                 0.991979895     -11.3648968
7.192                0.991919478     -11.3849156
7.194                0.991864787     -11.4035697
7.196                0.991809874     -11.4222256
7.198                 0.99175474     -11.4408832
7.2                  0.991699384     -11.4595425
7.202                0.991659012      -11.477143
7.204                0.991618484     -11.4947441
7.206                0.991577802     -11.5123458
7.208                0.991536966     -11.5299479
7.21                 0.991516715     -11.5469737
7.212                0.991496397     -11.5640005
7.214                 0.99147601     -11.5810281
7.216                0.991455555     -11.5980568
7.218                0.991457356     -11.6150423
7.22                 0.991459141     -11.6320296
7.222                 0.99146091     -11.6490188
7.224                0.991462661     -11.6660099
7.226                 0.99148465     -11.6834611
7.228                0.991506653     -11.7009133
7.23                 0.991528669     -11.7183664
7.232                0.991550699     -11.7358205
7.234                0.991588238     -11.7541385
7.236                0.991625844     -11.7724552
7.238                0.991663518     -11.7907706
7.24                  0.99170126     -11.8090847
7.242                0.991747914      -11.828541
7.244                0.991794709     -11.8479949
7.246                0.991841645     -11.8674463
7.248                0.991888725     -11.8868953
7.25                 0.991936841     -11.9076272
7.252                0.991985141     -11.9283572
7.254                0.992033626     -11.9490852
7.256                0.992082294     -11.9698114
7.258                0.992123601     -11.9917824
7.26                 0.992165088     -12.0137513
7.262                0.992206752     -12.0357181
7.264                 0.99224859     -12.0576827
7.266                0.992275259     -12.0806688
7.268                 0.99230209     -12.1036522
7.27                 0.992329084     -12.1266327
7.272                0.992356241     -12.1496104
7.274                0.992362491     -12.1732015
7.276                0.992368861     -12.1967917
7.278                0.992375352     -12.2203812
7.28                 0.992381964     -12.2439699
7.282                0.992365211     -12.2676396
7.284                 0.99234846     -12.2913112
7.286                 0.99233171     -12.3149847
7.288                0.992314961     -12.3386601
7.29                 0.992276673     -12.3618296
7.292                0.992238249     -12.3850016
7.294                0.992199688     -12.4081759
7.296                0.992160992     -12.4313524
7.298                0.992107247     -12.4535115
7.3                  0.992053282     -12.4756725
7.302                0.991999098     -12.4978356
7.304                0.991944697     -12.5200006
7.306                0.991885262     -12.5408464
7.308                0.991825583     -12.5616949
7.31                 0.991765659     -12.5825463
7.312                0.991705492     -12.6034005
7.314                0.991651613       -12.62293
7.316                0.991597507     -12.6424627
7.318                0.991543171     -12.6619985
7.32                 0.991488606     -12.6815374
7.322                0.991450284     -12.7000458
7.324                0.991411815      -12.718556
7.326                0.991373197      -12.737068
7.328                 0.99133443     -12.7555817
7.33                  0.99131828     -12.7736003
7.332                0.991302111     -12.7916198
7.334                0.991285921     -12.8096402
7.336                0.991269713     -12.8276617
7.338                0.991277464     -12.8458253
7.34                 0.991285305     -12.8639902
7.342                0.991293235     -12.8821565
7.344                0.991301254     -12.9003242
7.346                0.991329458     -12.9192306
7.348                0.991357802     -12.9381384
7.35                 0.991386285     -12.9570475
7.352                0.991414908     -12.9759578
7.354                0.991456182     -12.9960261
7.356                0.991497608     -13.0160945
7.358                0.991539183      -13.036163
7.36                 0.991580909     -13.0562316
7.362                0.991626022     -13.0776336
7.364                0.991671286     -13.0990343
7.366                0.991716702     -13.1204337
7.368                0.991762271     -13.1418318
7.37                  0.99180222     -13.1645011
7.372                 0.99184232     -13.1871688
7.374                 0.99188257     -13.2098349
7.376                 0.99192297     -13.2324995
7.378                0.991950494     -13.2561877
7.38                  0.99197815     -13.2798752
7.382                0.992005937     -13.3035618
7.384                0.992033854     -13.3272476
7.386                0.992044261     -13.3515797
7.388                0.992054757     -13.3759119
7.39                 0.992065342     -13.4002443
7.392                0.992076017     -13.4245768
7.394                0.992067373     -13.4491346
7.396                0.992058757     -13.4736934
7.398                0.992050172     -13.4982531
7.4                  0.992041616     -13.5228139
7.402                0.992014786      -13.547171
7.404                0.991987915     -13.5715297
7.406                0.991961001     -13.5958901
7.408                0.991934047     -13.6202521
7.41                 0.991892346     -13.6440349
7.412                0.991850528     -13.6678196
7.414                0.991808593     -13.6916062
7.416                0.991766542     -13.7153948
7.418                0.991715471     -13.7383135
7.42                  0.99166422     -13.7612341
7.422                 0.99161279     -13.7841565
7.424                0.991561181     -13.8070807
7.426                0.991507992     -13.8289752
7.428                0.991454593     -13.8508713
7.43                 0.991400983     -13.8727692
7.432                0.991347165     -13.8946688
7.434                0.991300024     -13.9155628
7.436                0.991252689     -13.9364586
7.438                0.991205159     -13.9573562
7.44                 0.991157435     -13.9782557
7.442                0.991124103     -13.9983707
7.444                0.991090637     -14.0184877
7.446                0.991057037     -14.0386069
7.448                0.991023303     -14.0587283
7.45                 0.991009364      -14.078484
7.452                0.990995389     -14.0982419
7.454                0.990981375     -14.1180018
7.456                0.990967326     -14.1377637
7.458                0.990974828      -14.157699
7.46                 0.990982407     -14.1776359
7.462                0.990990064     -14.1975742
7.464                0.990997798     -14.2175141
7.466                0.991024353     -14.2381874
7.468                0.991051093     -14.2588616
7.47                 0.991078015     -14.2795366
7.472                0.991105119     -14.3002124
7.474                 0.99114418      -14.322065
7.476                0.991183488     -14.3439178
7.478                0.991223041     -14.3657709
7.48                 0.991262841     -14.3876241
7.482                0.991305036     -14.4108765
7.484                0.991347486     -14.4341287
7.486                0.991390189     -14.4573805
7.488                0.991433145     -14.4806321
7.49                 0.991468391     -14.5052282
7.492                0.991503847     -14.5298238
7.494                0.991539513     -14.5544188
7.496                0.991575388     -14.5790135
7.498                0.991595331     -14.6046426
7.5                  0.991615403     -14.6302716
7.502                0.991635604     -14.6559007
7.504                0.991655935     -14.6815298
7.506                0.991655673     -14.7077064
7.508                0.991655435     -14.7338842
7.51                 0.991655224     -14.7600633
7.512                0.991655038     -14.7862435
7.514                0.991633909     -14.8124281
7.516                0.991612697      -14.838615
7.518                0.991591403     -14.8648043
7.52                 0.991570027     -14.8909958
7.522                0.991531347     -14.9167083
7.524                0.991492499     -14.9424233
7.526                0.991453485      -14.968141
7.528                0.991414302     -14.9938613
7.53                 0.991364345     -15.0187685
7.532                0.991314184     -15.0436776
7.534                 0.99126382     -15.0685887
7.536                0.991213251     -15.0935018
7.538                0.991159643     -15.1174615
7.54                  0.99110585     -15.1414222
7.542                0.991051873     -15.1653839
7.544                0.990997711     -15.1893467
7.546                0.990948029     -15.2124064
7.548                0.990898219     -15.2354663
7.55                  0.99084828     -15.2585267
7.552                0.990798213     -15.2815874
7.554                0.990758836     -15.3039487
7.556                0.990719396     -15.3263103
7.558                0.990679892     -15.3486723
7.56                 0.990640324     -15.3710347
7.562                0.990615756     -15.3930088
7.564                 0.99059118     -15.4149837
7.566                0.990566595     -15.4369594
7.568                0.990542004      -15.458936
7.57                 0.990534432     -15.4809027
7.572                0.990526898     -15.5028706
7.574                0.990519403     -15.5248398
7.576                0.990511947     -15.5468102
7.578                0.990521121     -15.5691701
7.58                 0.990530384     -15.5915313
7.582                0.990539735     -15.6138939
7.584                0.990549173     -15.6362577
7.586                0.990572204     -15.6593915
7.588                0.990595381     -15.6825262
7.59                 0.990618706     -15.7056618
7.592                0.990642177     -15.7287982
7.594                0.990673734     -15.7530028
7.596                0.990705502     -15.7772076
7.598                 0.99073748     -15.8014125
7.6                  0.990769669     -15.8256176
7.602                0.990802501     -15.8510532
7.604                0.990835592     -15.8764885
7.606                 0.99086894     -15.9019234
7.608                0.990902546      -15.927358
7.61                 0.990928556     -15.9539934
7.612                0.990954827     -15.9806283
7.614                0.990981359     -16.0072628
7.616                0.991008151     -16.0338968
7.618                 0.99101994     -16.0614953
7.62                 0.991031927     -16.0890937
7.622                0.991044114     -16.1166921
7.624                0.991056499     -16.1442904
7.626                0.991049045     -16.1724278
7.628                0.991041669     -16.2005657
7.63                 0.991034369     -16.2287042
7.632                0.991027147     -16.2568432
7.634                 0.99099915     -16.2849954
7.636                0.990971076     -16.3131489
7.638                0.990942924     -16.3413036
7.64                 0.990914694     -16.3694597
7.642                0.990869178     -16.3971148
7.644                 0.99082344     -16.4247717
7.646                0.990777481     -16.4524305
7.648                0.990731298      -16.480091
7.65                 0.990674934     -16.5068682
7.652                0.990618261     -16.5336472
7.654                 0.99056128      -16.560428
7.656                 0.99050399     -16.5872108
7.658                0.990445689     -16.6129591
7.66                 0.990387089     -16.6387086
7.662                0.990328189     -16.6644591
7.664                0.990268989     -16.6902107
7.666                0.990217734      -16.715025
7.668                0.990166289     -16.7398393
7.67                 0.990114655     -16.7646536
7.672                0.990062833     -16.7894679
7.674                0.990025747     -16.8136689
7.676                0.989988649     -16.8378691
7.678                0.989951537     -16.8620685
7.68                 0.989914413     -16.8862671
7.682                0.989895313     -16.9103079
7.684                0.989876375     -16.9343477
7.686                  0.9898576     -16.9583864
7.688                0.989838989     -16.9824241
7.69                 0.989837939       -17.00679
7.692                0.989837173     -17.0311551
7.694                0.989836689     -17.0555192
7.696                0.989836489     -17.0798825
7.698                0.989850277      -17.104982
7.7                  0.989864389     -17.1300809
7.702                0.989878826     -17.1551789
7.704                0.989893587     -17.1802763
7.706                0.989916723     -17.2063908
7.708                0.989940163     -17.2325045
7.71                 0.989963907     -17.2586175
7.712                0.989987954     -17.2847297
7.714                0.990013876     -17.3119855
7.716                0.990040052     -17.3392405
7.718                0.990066483     -17.3664946
7.72                 0.990093167     -17.3937481
7.722                0.990115256      -17.422118
7.724                 0.99013755     -17.4504872
7.726                0.990160048     -17.4788556
7.728                0.990182753     -17.5072232
7.73                 0.990195172     -17.5365541
7.732                 0.99020776     -17.5658844
7.734                0.990220518     -17.5952139
7.736                0.990233446     -17.6245425
7.738                0.990231646     -17.6545705
7.74                 0.990229989     -17.6845974
7.742                0.990228476     -17.7146234
7.744                0.990227105     -17.7446484
7.746                0.990208542     -17.7750233
7.748                0.990190088     -17.8053968
7.75                 0.990171743     -17.8357689
7.752                0.990153507     -17.8661395
7.754                0.990118026     -17.8964695
7.756                0.990082595     -17.9267975
7.758                0.990047212     -17.9571235
7.76                 0.990011879     -17.9874476
7.762                0.989962236     -18.0173478
7.764                0.989912552     -18.0472454
7.766                0.989862827     -18.0771407
7.768                0.989813063     -18.1070336
7.77                 0.989754738     -18.1361974
7.772                0.989696274     -18.1653587
7.774                0.989637674     -18.1945175
7.776                0.989578936      -18.223674
7.778                0.989519457     -18.2519492
7.78                 0.989459776     -18.2802224
7.782                0.989399893     -18.3084934
7.784                0.989339807     -18.3367624
7.786                0.989287428     -18.3642122
7.788                0.989234867     -18.3916602
7.79                 0.989182124     -18.4191065
7.792                  0.9891292     -18.4465509
