! TOUCHSTONE file generated by CST DESIGN STUDIO
! Date and time: Mon Feb 10 16:55:46 2025
! Project name: C:\Work\MatlabApps\UnitCellType2OptimizationMatlab\CST\unitcell.cst
! Tree item: Tasks\Sweep1\SPara1\S-Parameters
! Header version: 2024
! Port assignment regex: !\s*Touchstone port\s*([0-9]+)\s*=\s*(CST MWS port|CST DES external port|CST DES block port)\s*(.+)\s* \(\"(.*)\"\)(\s*mode\s*([0-9]+))?.*
! Touchstone port assignment:
! Touchstone port 1 = CST DES external port 1 ("")
# GHz S MA R 50
7                    0.992736215     -14.3328114
7.002                0.992727178     -14.3510673
7.004                0.992718119     -14.3693245
7.006                0.992709036     -14.3875831
7.008                0.992699932     -14.4058431
7.01                 0.992712505     -14.4246655
7.012                0.992725111      -14.443489
7.014                 0.99273775     -14.4623135
7.016                0.992750423     -14.4811392
7.018                0.992779144     -14.5010024
7.02                 0.992807947     -14.5208664
7.022                0.992836833     -14.5407312
7.024                0.992865802     -14.5605967
7.026                0.992902547      -14.581795
7.028                0.992939412     -14.6029941
7.03                 0.992976393     -14.6241939
7.032                0.993013493     -14.6453944
7.034                0.993049082     -14.6679962
7.036                0.993084802     -14.6905991
7.038                0.993120653      -14.713203
7.04                 0.993156634      -14.735808
7.042                0.993182412     -14.7596651
7.044                0.993208306      -14.783524
7.046                0.993234316     -14.8073845
7.048                0.993260442     -14.8312469
7.05                 0.993269656     -14.8560336
7.052                0.993278945      -14.880823
7.054                0.993288309      -14.905615
7.056                0.993297749     -14.9304097
7.058                0.993286452     -14.9556809
7.06                 0.993275169     -14.9809556
7.062                0.993263902     -15.0062337
7.064                0.993252651     -15.0315154
7.066                0.993220265     -15.0567703
7.068                 0.99318783     -15.0820293
7.07                 0.993155345     -15.1072923
7.072                0.993122811     -15.1325594
7.074                0.993072179     -15.1573266
7.076                0.993021439      -15.182098
7.078                0.992970593     -15.2068736
7.08                  0.99291964     -15.2316533
7.082                0.992856755     -15.2555583
7.084                0.992793725     -15.2794673
7.086                0.992730548     -15.3033803
7.088                0.992667226     -15.3272971
7.09                 0.992600294     -15.3501329
7.092                0.992533202     -15.3729722
7.094                0.992465951     -15.3958149
7.096                 0.99239854     -15.4186612
7.098                0.992336659     -15.4404398
7.1                  0.992274629     -15.4622213
7.102                0.992212451     -15.4840056
7.104                0.992150125      -15.505793
7.106                0.992101757     -15.5267418
7.108                0.992053273      -15.547693
7.11                 0.992004672     -15.5686467
7.112                0.991955956      -15.589603
7.114                 0.99192714     -15.6101505
7.116                0.991898254     -15.6307001
7.118                0.991869298      -15.651252
7.12                 0.991840273      -15.671806
7.122                0.991833418     -15.6924929
7.124                0.991826546     -15.7131817
7.126                0.991819658     -15.7338723
7.128                0.991812757     -15.7545648
7.13                 0.991825959     -15.7759461
7.132                  0.9918392     -15.7973289
7.134                0.991852481     -15.8187132
7.136                0.991865802      -15.840099
7.138                0.991893186     -15.8626319
7.14                 0.991920659     -15.8851663
7.142                 0.99194822      -15.907702
7.144                0.991975869      -15.930239
7.146                0.992008767     -15.9541844
7.148                0.992041783     -15.9781314
7.15                 0.992074917     -16.0020798
7.152                0.992108171     -16.0260298
7.154                0.992136977     -16.0514034
7.156                0.992165906      -16.076779
7.158                0.992194958     -16.1021566
7.16                 0.992224132     -16.1275364
7.162                0.992240152     -16.1541152
7.164                 0.99225627     -16.1806969
7.166                0.992272484     -16.2072815
7.168                0.992288796      -16.233869
7.17                  0.99228594      -16.261251
7.172                0.992283129     -16.2886369
7.174                0.992280364     -16.3160266
7.176                0.992277647     -16.3434202
7.178                0.992253418     -16.3710969
7.18                  0.99222917     -16.3987783
7.182                0.992204906     -16.4264644
7.184                0.992180624     -16.4541551
7.186                0.992136432     -16.4816153
7.188                 0.99209216     -16.5090805
7.19                 0.992047808     -16.5365509
7.192                0.992003375     -16.5640263
7.194                0.991944009     -16.5908524
7.196                0.991884512     -16.6176835
7.198                0.991824886     -16.6445197
7.2                   0.99176513      -16.671361
7.202                0.991697849     -16.6972865
7.204                 0.99163041     -16.7232168
7.206                0.991562814     -16.7491518
7.208                0.991495059     -16.7750916
7.21                 0.991428126     -16.8000545
7.212                0.991361032     -16.8250216
7.214                0.991293775     -16.8499928
7.216                0.991226357     -16.8749684
7.218                0.991167765     -16.8990901
7.22                  0.99110903     -16.9232155
7.222                 0.99105015     -16.9473446
7.224                0.990991127     -16.9714773
7.226                0.990947246     -16.9950578
7.228                0.990903255     -17.0186414
7.23                 0.990859156     -17.0422283
7.232                0.990814949     -17.0658183
7.234                 0.99078962     -17.0892765
7.236                0.990764229     -17.1127375
7.238                0.990738775     -17.1362012
7.24                 0.990713262     -17.1596678
7.242                0.990707183     -17.1834779
7.244                0.990701094     -17.2072906
7.246                0.990694995     -17.2311057
7.248                0.990688886     -17.2549233
7.25                 0.990699387     -17.2795484
7.252                 0.99070993     -17.3041759
7.254                0.990720513     -17.3288058
7.256                0.990731138     -17.3534379
7.258                 0.99075256     -17.3792354
7.26                 0.990774065     -17.4050353
7.262                0.990795653     -17.4308375
7.264                0.990817323     -17.4566422
7.266                0.990841792     -17.4838175
7.268                0.990866367     -17.5109956
7.27                 0.990891049     -17.5381764
7.272                0.990915836       -17.56536
7.274                0.990934643      -17.593902
7.276                0.990953554     -17.6224474
7.278                0.990972571     -17.6509963
7.28                 0.990991692     -17.6795486
7.282                0.990996852     -17.7092386
7.284                0.991002085     -17.7389331
7.286                0.991007394     -17.7686321
7.288                0.991012778     -17.7983355
7.29                 0.990998613     -17.8287675
7.292                0.990984467     -17.8592049
7.294                0.990970343     -17.8896478
7.296                 0.99095624     -17.9200962
7.298                0.990920664     -17.9507582
7.3                  0.990885042     -17.9814263
7.302                0.990849375     -18.0121007
7.304                0.990813663     -18.0427813
7.306                0.990758604     -18.0731558
7.308                0.990703435     -18.1035369
7.31                 0.990648158     -18.1339244
7.312                 0.99059277     -18.1643184
7.314                0.990523891     -18.1939877
7.316                0.990454855     -18.2236633
7.318                0.990385663     -18.2533453
7.32                 0.990316314     -18.2830336
7.322                0.990241847     -18.3117633
7.324                0.990167201     -18.3404989
7.326                0.990092374     -18.3692402
7.328                0.990017367     -18.3979875
7.33                 0.989946416     -18.4257832
7.332                0.989875288      -18.453584
7.334                0.989803982     -18.4813901
7.336                  0.9897325     -18.5092015
7.338                0.989673141     -18.5362837
7.34                 0.989613631     -18.5633706
7.342                 0.98955397     -18.5904621
7.344                0.989494159     -18.6175582
7.346                0.989451906     -18.6443254
7.348                0.989409545     -18.6710966
7.35                 0.989367076      -18.697872
7.352                0.989324498     -18.7246516
7.354                0.989301446     -18.7515887
7.356                0.989278341     -18.7785295
7.358                0.989255179     -18.8054742
7.36                  0.98923196     -18.8324226
7.362                0.989226621      -18.860005
7.364                 0.98922128     -18.8875909
7.366                0.989215936     -18.9151804
7.368                 0.98921059     -18.9427734
7.37                 0.989218446     -18.9713902
7.372                0.989226347     -19.0000106
7.374                0.989234292     -19.0286345
7.376                0.989242282     -19.0572619
7.378                0.989256706     -19.0871659
7.38                 0.989271207     -19.1170736
7.382                0.989285785     -19.1469852
7.384                0.989300441     -19.1769007
7.386                0.989313831      -19.208162
7.388                0.989327311     -19.2394277
7.39                  0.98934088     -19.2706979
7.392                0.989354539     -19.3019726
7.394                0.989359438     -19.3345018
7.396                0.989364413     -19.3670365
7.398                0.989369466     -19.3995767
7.4                  0.989374597     -19.4321223
7.402                 0.98936482     -19.4656546
7.404                0.989355083     -19.4991935
7.406                0.989345388     -19.5327389
7.408                0.989335734     -19.5662909
7.41                 0.989307269     -19.6004459
7.412                0.989278789     -19.6346085
7.414                0.989250296     -19.6687786
7.416                0.989221788     -19.7029564
7.418                0.989173603     -19.7372817
7.42                  0.98912534     -19.7716152
7.422                0.989076999     -19.8059571
7.424                0.989028579     -19.8403072
7.426                0.988962933     -19.8743508
7.428                0.988897149     -19.9084029
7.43                 0.988831226     -19.9424635
7.432                0.988765164     -19.9765326
7.434                0.988687499     -20.0099369
7.436                0.988609648     -20.0433494
7.438                0.988531613       -20.07677
7.44                 0.988453393     -20.1101987
7.442                0.988371534     -20.1427545
7.444                0.988289469     -20.1753177
7.446                0.988207197     -20.2078884
7.448                0.988124719     -20.2404666
7.45                 0.988047434     -20.2721897
7.452                0.987969948     -20.3039194
7.454                 0.98789226     -20.3356559
7.456                0.987814371     -20.3673991
7.458                0.987749682     -20.3985212
7.46                 0.987684822     -20.4296494
7.462                0.987619789     -20.4607836
7.464                0.987554583     -20.4919239
7.466                0.987507992     -20.5228758
7.468                 0.98746128     -20.5538333
7.47                 0.987414443     -20.5847962
7.472                0.987367482     -20.6157648
7.474                0.987340792     -20.6470677
7.476                0.987314038     -20.6783759
7.478                0.987287218     -20.7096894
7.48                 0.987260332     -20.7410081
7.482                0.987251271     -20.7731791
7.484                0.987242204     -20.8053553
7.486                 0.98723313     -20.8375367
7.488                 0.98722405     -20.8697233
7.49                 0.987226775     -20.9031645
7.492                0.987229542      -20.936611
7.494                0.987232352      -20.970063
7.496                0.987235204     -21.0035206
7.498                0.987241687     -21.0384485
7.5                  0.987248241     -21.0733825
7.502                0.987254866     -21.1083224
7.504                0.987261561     -21.1432684
7.506                0.987263215     -21.1796773
7.508                 0.98726494     -21.2160933
7.51                 0.987266739     -21.2525163
7.512                0.987268611     -21.2889463
7.514                0.987257907     -21.3266296
7.516                0.987247251     -21.3643211
7.518                0.987236641     -21.4020207
7.52                 0.987226079     -21.4397286
7.522                0.987197815     -21.4783272
7.524                0.987169548     -21.5169352
7.526                0.987141279     -21.5555527
7.528                0.987113007     -21.5941797
7.53                 0.987065061     -21.6332557
7.532                 0.98701705     -21.6723422
7.534                0.986968973     -21.7114391
7.536                0.986920829     -21.7505466
7.538                0.986854234     -21.7896596
7.54                 0.986787507     -21.8287838
7.542                0.986720648      -21.867919
7.544                0.986653658     -21.9070654
7.546                0.986572326     -21.9458445
7.548                0.986490804     -21.9846348
7.55                 0.986409093     -22.0234363
7.552                0.986327194      -22.062249
7.554                0.986237201     -22.1004397
7.556                0.986146981      -22.138641
7.558                0.986056533     -22.1768532
7.56                 0.985965856     -22.2150763
7.562                0.985874576     -22.2525828
7.564                0.985783052     -22.2900994
7.566                0.985691284      -22.327626
7.568                0.985599272     -22.3651627
7.57                 0.985514225     -22.4020678
7.572                0.985428944      -22.438982
7.574                0.985343428     -22.4759054
7.576                0.985257676     -22.5128379
7.578                0.985185394     -22.5493948
7.58                 0.985112911     -22.5859601
7.582                0.985040225     -22.6225336
7.584                0.984967336     -22.6591154
7.586                0.984912212     -22.6957253
7.588                0.984856938     -22.7323429
7.59                 0.984801511     -22.7689683
7.592                 0.98474593     -22.8056015
7.594                0.984709276     -22.8427436
7.596                 0.98467253     -22.8798932
7.598                0.984635691     -22.9170504
7.6                  0.984598761     -22.9542153
7.602                0.984578315     -22.9923765
7.604                0.984557838     -23.0305455
7.606                0.984537329     -23.0687223
7.608                 0.98451679     -23.1069071
7.61                  0.98450691     -23.1464809
7.612                 0.98449705     -23.1860632
7.614                0.984487209      -23.225654
7.616                0.984477386     -23.2652532
7.618                 0.98446996      -23.306467
7.62                 0.984462582     -23.3476905
7.622                0.984455251     -23.3889235
7.624                0.984447968      -23.430166
7.626                0.984433982     -23.4730153
7.628                0.984420042     -23.5158755
7.63                 0.984406148     -23.5587466
7.632                  0.9843923     -23.6016286
7.634                0.984363637     -23.6458832
7.636                0.984334986     -23.6901502
7.638                0.984306346     -23.7344297
7.64                 0.984277716     -23.7787217
7.642                0.984228842     -23.8239672
7.644                0.984179916     -23.8692266
7.646                0.984130938     -23.9144998
7.648                0.984081906     -23.9597869
7.65                 0.984011017     -24.0055084
7.652                0.983939997     -24.0512446
7.654                0.983868848     -24.0969957
7.656                 0.98379757     -24.1427617
7.658                0.983706868     -24.1884707
7.66                 0.983615958     -24.2341949
7.662                 0.98352484     -24.2799344
7.664                0.983433516     -24.3256891
7.666                0.983328696     -24.3709919
7.668                0.983223607     -24.4163097
7.67                 0.983118248     -24.4616428
7.672                 0.98301262     -24.5069909
7.674                  0.9829015     -24.5516887
7.676                0.982790073      -24.596401
7.678                 0.98267834     -24.6411279
7.68                 0.982566301     -24.6858694
7.682                0.982457341     -24.7299715
7.684                0.982348068     -24.7740874
7.686                 0.98223848     -24.8182172
7.688                0.982128577     -24.8623608
7.69                  0.98202915     -24.9060865
7.692                 0.98192943     -24.9498252
7.694                0.981829415     -24.9935768
7.696                0.981729106     -25.0373416
7.698                 0.98164446     -25.0810481
7.7                  0.981559564     -25.1247669
7.702                0.981474415     -25.1684981
7.704                0.981389014     -25.2122415
7.706                 0.98132147     -25.2563777
7.708                 0.98125373     -25.3005256
7.71                 0.981185795     -25.3446854
7.712                0.981117666      -25.388857
7.714                 0.98106655     -25.4338848
7.716                0.981015302     -25.4789242
7.718                0.980963921     -25.5239754
7.72                 0.980912408     -25.5690384
7.722                0.980874133     -25.6153621
7.724                0.980835784      -25.661698
7.726                0.980797362      -25.708046
7.728                0.980758864     -25.7544062
7.73                 0.980727587     -25.8023359
7.732                0.980696281     -25.8502789
7.734                0.980664946     -25.8982351
7.736                0.980633581     -25.9462045
7.738                0.980601789     -25.9958909
7.74                 0.980569989     -26.0455921
7.742                0.980538181     -26.0953081
7.744                0.980506365     -26.1450392
7.746                0.980466067      -26.196452
7.748                0.980425753     -26.2478818
7.75                 0.980385422     -26.2993286
7.752                0.980345074     -26.3507925
7.754                0.980288927     -26.4037149
7.756                0.980232722     -26.4566564
7.758                0.980176459     -26.5096171
7.76                 0.980120139      -26.562597
7.762                0.980042946     -26.6166484
7.764                0.979965621     -26.6707209
7.766                0.979888167     -26.7248145
7.768                0.979810584     -26.7789292
7.77                 0.979710319     -26.8336141
7.772                0.979609833     -26.8883212
7.774                0.979509126     -26.9430505
7.776                0.979408201     -26.9978021
7.778                0.979286793     -27.0526088
7.78                 0.979165072     -27.1074378
7.782                0.979043038     -27.1622891
7.784                 0.97892069     -27.2171628
7.786                0.978783951     -27.2716735
7.788                0.978646822     -27.3262058
7.79                 0.978509303     -27.3807597
7.792                0.978371394     -27.4353353
