! TOUCHSTONE file generated by CST DESIGN STUDIO
! Date and time: Mon Feb 10 16:56:00 2025
! Project name: C:\Work\MatlabApps\UnitCellType2OptimizationMatlab\CST\unitcell.cst
! Tree item: Tasks\Sweep1\SPara1\S-Parameters
! Header version: 2024
! Port assignment regex: !\s*Touchstone port\s*([0-9]+)\s*=\s*(CST MWS port|CST DES external port|CST DES block port)\s*(.+)\s* \(\"(.*)\"\)(\s*mode\s*([0-9]+))?.*
! Touchstone port assignment:
! Touchstone port 1 = CST DES external port 1 ("")
# GHz S MA R 50
7                    0.990796556     -7.37114764
7.002                0.990892712     -7.39107735
7.004                0.990988892     -7.41098452
7.006                0.991085096     -7.43086934
7.008                0.991181325     -7.45073212
7.01                 0.991277201      -7.4728872
7.012                0.991373161     -7.49501482
7.014                0.991469204     -7.51711519
7.016                0.991565329     -7.53918873
7.018                0.991643679     -7.56325703
7.02                 0.991722179     -7.58729459
7.022                 0.99180083     -7.61130165
7.024                0.991879631     -7.63527841
7.026                0.991928499     -7.66055499
7.028                0.991977604      -7.6858014
7.03                 0.992026949     -7.71101772
7.032                0.992076533     -7.73620416
7.034                0.992091351     -7.76180127
7.036                0.992106454      -7.7873737
7.038                0.992121841     -7.81292161
7.04                 0.992137511     -7.83844512
7.042                0.992121008     -7.86353015
7.044                0.992104709     -7.88859901
7.046                0.992088611     -7.91365178
7.048                0.992072713      -7.9386885
7.05                 0.992032706     -7.96264242
7.052                0.991992706     -7.98658695
7.054                0.991952713     -8.01052216
7.056                0.991912727     -8.03444813
7.058                0.991859463     -8.05692894
7.06                 0.991806003     -8.07940291
7.062                 0.99175235     -8.10187028
7.064                0.991698505     -8.12433112
7.066                0.991642487     -8.14524687
7.068                0.991586153     -8.16615626
7.07                 0.991529503     -8.18705945
7.072                 0.99147254      -8.2079565
7.074                0.991423304     -8.22741963
7.076                0.991373703     -8.24687709
7.078                0.991323737     -8.26632893
7.08                 0.991273409     -8.28577514
7.082                0.991239008      -8.3040521
7.084                0.991204233     -8.32232406
7.086                0.991169085     -8.34059104
7.088                0.991133566     -8.35885301
7.09                  0.99112017     -8.37633419
7.092                0.991106444     -8.39380957
7.094                0.991092388     -8.41127918
7.096                0.991078004     -8.42874303
7.098                0.991089519     -8.44593357
7.1                  0.991100823     -8.46311614
7.102                0.991111914     -8.48029083
7.104                0.991122792     -8.49745767
7.106                0.991160163     -8.51494837
7.108                0.991197478     -8.53242906
7.11                 0.991234737     -8.54989982
7.112                0.991271941     -8.56736072
7.114                0.991331919     -8.58577979
7.116                0.991391978     -8.60418706
7.118                0.991452119     -8.62258266
7.12                 0.991512342     -8.64096679
7.122                0.991586895     -8.66085083
7.124                0.991661621     -8.68072079
7.126                 0.99173652     -8.70057679
7.128                 0.99181159     -8.72041914
7.13                 0.991888501     -8.74206872
7.132                 0.99196564     -8.76370163
7.134                0.992043005     -8.78531798
7.136                0.992120597     -8.80691788
7.138                0.992185887     -8.83027466
7.14                 0.992251425     -8.85361376
7.142                0.992317211     -8.87693513
7.144                0.992383244     -8.90023887
7.146                0.992424469     -8.92485775
7.148                0.992465911     -8.94946024
7.15                  0.99250757     -8.97404638
7.152                0.992549444     -8.99861629
7.154                0.992559056     -9.02374569
7.156                  0.9925688     -9.04886196
7.158                0.992578676     -9.07396518
7.16                 0.992588682      -9.0990554
7.162                0.992566037     -9.12381588
7.164                0.992543405     -9.14856729
7.166                0.992520787      -9.1733097
7.168                0.992498184     -9.19804317
7.17                 0.992449941      -9.2216469
7.172                0.992401579     -9.24524551
7.174                0.992353103     -9.26883916
7.176                0.992304511      -9.2924279
7.178                0.992242792     -9.31436871
7.18                 0.992180836     -9.33630756
7.182                0.992118644     -9.35824459
7.184                0.992056218     -9.38017981
7.186                0.991995369     -9.40034938
7.188                0.991934209     -9.42051816
7.19                 0.991872738     -9.44068621
7.192                0.991810959     -9.46085347
7.194                0.991763758     -9.47953127
7.196                0.991716254      -9.4982074
7.198                0.991668448     -9.51688189
7.2                  0.991620341     -9.53555466
7.202                0.991595467      -9.5532897
7.204                0.991570372     -9.57102176
7.206                0.991545056     -9.58875085
7.208                0.991519518     -9.60647698
7.21                  0.99152025     -9.62393581
7.212                0.991520857     -9.64139104
7.214                0.991521337     -9.65884274
7.216                0.991521692     -9.67629092
7.218                0.991546425     -9.69409157
7.22                 0.991571094     -9.71188792
7.222                0.991595698     -9.72968001
7.224                0.991620238      -9.7474679
7.226                0.991663672     -9.76609267
7.228                0.991707088     -9.78471084
7.23                 0.991750486     -9.80332247
7.232                0.991793868      -9.8219277
7.234                0.991848794     -9.84167648
7.236                0.991903778     -9.86141551
7.238                0.991958822     -9.88114484
7.24                 0.992013926     -9.90086472
7.242                0.992072536     -9.92187021
7.244                0.992131308     -9.94286409
7.246                0.992190242     -9.96384642
7.248                0.992249337     -9.98481727
7.25                 0.992303808     -10.0070769
7.252                0.992358519     -10.0293252
7.254                0.992413472     -10.0515624
7.256                0.992468666     -10.0737883
7.258                0.992511436     -10.0971543
7.26                 0.992554467     -10.1205104
7.262                0.992597759     -10.1438566
7.264                0.992641309      -10.167193
7.266                0.992665598     -10.1913665
7.268                0.992690107     -10.2155316
7.27                 0.992714835     -10.2396883
7.272                 0.99273978     -10.2638368
7.274                0.992740864     -10.2883504
7.276                0.992742078     -10.3128577
7.278                 0.99274342     -10.3373584
7.28                 0.992744892     -10.3618528
7.282                0.992721585      -10.386126
7.284                0.992698265     -10.4103955
7.286                0.992674935     -10.4346614
7.288                0.992651595     -10.4589236
7.29                  0.99260729     -10.4823522
7.292                0.992562806     -10.5057797
7.294                0.992518144     -10.5292061
7.296                0.992473305     -10.5526316
7.298                0.992416152     -10.5747288
7.3                  0.992358684     -10.5968263
7.302                  0.9923009     -10.6189241
7.304                0.992242802     -10.6410221
7.306                0.992184442     -10.6615565
7.308                0.992125718     -10.6820914
7.31                  0.99206663     -10.7026269
7.312                0.992007179     -10.7231627
7.314                0.991960293     -10.7422521
7.316                0.991913095     -10.7613422
7.318                0.991865587     -10.7804328
7.32                 0.991817768      -10.799524
7.322                0.991792769      -10.817634
7.324                0.991767585     -10.8357444
7.326                0.991742214     -10.8538553
7.328                0.991716657     -10.8719666
7.33                 0.991718914     -10.8898045
7.332                0.991721135     -10.9076418
7.334                0.991723321     -10.9254786
7.336                 0.99172547     -10.9433149
7.338                 0.99175399     -10.9616316
7.34                 0.991782611     -10.9799461
7.342                0.991811333     -10.9982582
7.344                0.991840155     -11.0165681
7.346                0.991888214      -11.035981
7.348                0.991936459     -11.0553899
7.35                  0.99198489     -11.0747947
7.352                0.992033506     -11.0941956
7.354                0.992090761     -11.1150519
7.356                 0.99214822      -11.135903
7.358                0.992205882     -11.1567487
7.36                 0.992263747     -11.1775891
7.362                0.992318921     -11.1999193
7.364                0.992374276     -11.2222426
7.366                0.992429811     -11.2445589
7.368                0.992485525     -11.2668684
7.37                 0.992528964     -11.2904245
7.372                0.992572568     -11.3139726
7.374                0.992616336     -11.3375128
7.376                0.992660266     -11.3610451
7.378                0.992685696     -11.3854073
7.38                 0.992711283     -11.4097626
7.382                0.992737027     -11.4341111
7.384                0.992762927     -11.4584528
7.386                0.992767852      -11.483137
7.388                0.992772897     -11.5078175
7.39                 0.992778063     -11.5324944
7.392                0.992783349     -11.5571678
7.394                0.992768336     -11.5817256
7.396                0.992753352     -11.6062826
7.398                0.992738397      -11.630839
7.4                  0.992723472     -11.6553946
7.402                0.992691511     -11.6794292
7.404                0.992659475     -11.7034635
7.406                0.992627362     -11.7274974
7.408                 0.99259517     -11.7515309
7.41                 0.992551194     -11.7747302
7.412                0.992507065     -11.7979288
7.414                0.992462787     -11.8211266
7.416                0.992418359     -11.8443234
7.418                0.992368963     -11.8664846
7.42                 0.992319356     -11.8886463
7.422                0.992269537     -11.9108085
7.424                 0.99221951     -11.9329714
7.426                0.992172306     -11.9540356
7.428                0.992124825     -11.9751016
7.43                 0.992077064     -11.9961694
7.432                0.992029021     -12.0172391
7.434                0.991991835     -12.0373174
7.436                0.991954363     -12.0573964
7.438                0.991916603      -12.077476
7.44                 0.991878558      -12.097556
7.442                0.991858569     -12.1169391
7.444                0.991838396     -12.1363222
7.446                0.991818045     -12.1557056
7.448                0.991797518     -12.1750894
7.45                 0.991799491     -12.1942684
7.452                0.991801419     -12.2134495
7.454                0.991803296      -12.232633
7.456                0.991805119      -12.251819
7.458                0.991829531     -12.2713953
7.46                  0.99185401     -12.2909723
7.462                0.991878557     -12.3105494
7.464                0.991903172     -12.3301265
7.466                0.991945619     -12.3506637
7.468                0.991988305     -12.3711977
7.47                 0.992031234     -12.3917284
7.472                0.992074408      -12.412256
7.474                0.992126594     -12.4341556
7.476                0.992179141     -12.4560518
7.478                0.992232047     -12.4779449
7.48                 0.992285309     -12.4998349
7.482                0.992336341     -12.5232413
7.484                0.992387727     -12.5466448
7.486                0.992439464     -12.5700453
7.488                0.992491549     -12.5934429
7.49                 0.992530381     -12.6181768
7.492                 0.99256948     -12.6429071
7.494                0.992608845     -12.6676338
7.496                0.992648474     -12.6923569
7.498                0.992666962     -12.7179585
7.5                  0.992685599     -12.7435568
7.502                0.992704385     -12.7691517
7.504                 0.99272332     -12.7947434
7.506                0.992718079     -12.8205999
7.508                0.992712845     -12.8464554
7.51                 0.992707622     -12.8723098
7.512                0.992702409     -12.8981633
7.514                 0.99267517     -12.9236672
7.516                0.992647793     -12.9491725
7.518                 0.99262028     -12.9746794
7.52                 0.992592631     -13.0001878
7.522                0.992549319     -13.0248654
7.524                0.992505762     -13.0495454
7.526                 0.99246196     -13.0742278
7.528                0.992417914     -13.0989125
7.53                 0.992367028     -13.1225066
7.532                0.992315869     -13.1461025
7.534                 0.99226444     -13.1697003
7.536                0.992212739     -13.1932998
7.538                0.992163233     -13.2157948
7.54                 0.992113504     -13.2382909
7.542                0.992063553     -13.2607881
7.544                0.992013379     -13.2832865
7.546                0.991972942     -13.3048737
7.548                0.991932369     -13.3264617
7.55                 0.991891657     -13.3480505
7.552                0.991850808     -13.3696401
7.554                0.991824803     -13.3906433
7.556                0.991798741     -13.4116473
7.558                 0.99177262      -13.432652
7.56                 0.991746442     -13.4536575
7.562                0.991737646     -13.4744604
7.564                0.991728851     -13.4952641
7.566                0.991720056     -13.5160685
7.568                0.991711263     -13.5368737
7.57                 0.991719975     -13.5578738
7.572                0.991728734     -13.5788746
7.574                0.991737539     -13.5998761
7.576                0.991746391     -13.6208783
7.578                0.991770707      -13.642451
7.58                 0.991795124     -13.6640241
7.582                0.991819642     -13.6855974
7.584                0.991844261      -13.707171
7.586                0.991880038      -13.729643
7.588                0.991915994     -13.7521145
7.59                 0.991952127     -13.7745854
7.592                0.991988437     -13.7970558
7.594                0.992029565      -13.820656
7.596                0.992070965     -13.8442546
7.598                0.992112636     -13.8678516
7.6                  0.992154579     -13.8914472
7.602                0.992193468     -13.9162619
7.604                0.992232706     -13.9410747
7.606                0.992272292     -13.9658855
7.608                0.992312225     -13.9906943
7.61                 0.992340844      -14.016618
7.612                0.992369822     -14.0425399
7.614                 0.99239916     -14.0684602
7.616                0.992428857     -14.0943788
7.618                0.992440278     -14.1211009
7.62                 0.992451975     -14.1478223
7.622                0.992463948     -14.1745428
7.624                0.992476197     -14.2012623
7.626                0.992466347     -14.2282917
7.628                0.992456604     -14.2553213
7.63                 0.992446969     -14.2823509
7.632                 0.99243744     -14.3093806
7.634                0.992406473     -14.3361462
7.636                  0.9923754      -14.362913
7.638                0.992344219     -14.3896813
7.64                 0.992312931     -14.4164508
7.642                0.992265701     -14.4424322
7.644                0.992218163     -14.4684163
7.646                0.992170319     -14.4944031
7.648                0.992122169     -14.5203923
7.65                 0.992067151     -14.5452526
7.652                0.992011708     -14.5701162
7.654                0.991955839     -14.5949831
7.656                0.991899546     -14.6198533
7.658                0.991846974     -14.6435336
7.66                 0.991793995     -14.6672167
7.662                 0.99174061     -14.6909027
7.664                0.991686817     -14.7145914
7.666                0.991646089     -14.7373125
7.668                0.991605118     -14.7600353
7.67                 0.991563905     -14.7827597
7.672                0.991522451     -14.8054858
7.674                0.991500037     -14.8276956
7.676                0.991477637      -14.849906
7.678                0.991455252     -14.8721172
7.68                 0.991432883     -14.8943292
7.682                0.991430955     -14.9165759
7.684                0.991429293     -14.9388228
7.686                0.991427896     -14.9610701
7.688                0.991426764     -14.9833177
7.69                 0.991443204      -15.006123
7.692                0.991460071     -15.0289284
7.694                0.991477365     -15.0517339
7.696                0.991495085     -15.0745394
7.698                0.991524517     -15.0982816
7.7                  0.991554418     -15.1220235
7.702                0.991584788     -15.1457649
7.704                0.991615626     -15.1695059
7.706                0.991650975      -15.194381
7.708                0.991686745     -15.2192551
7.71                 0.991722935     -15.2441282
7.712                0.991759545     -15.2690005
7.714                0.991793542     -15.2950216
7.716                0.991827873     -15.3210415
7.718                0.991862539     -15.3470602
7.72                 0.991897539     -15.3730779
7.722                0.991923787     -15.4001074
7.724                0.991950292     -15.4271358
7.726                0.991977057     -15.4541633
7.728                0.992004079     -15.4811898
7.73                 0.992017663     -15.5089877
7.732                0.992031462     -15.5367852
7.734                0.992045477      -15.564582
7.736                0.992059707     -15.5923782
7.738                0.992057417     -15.6206315
7.74                 0.992055325     -15.6488844
7.742                0.992053434      -15.677137
7.744                0.992051741     -15.7053893
7.746                0.992032468     -15.7337345
7.748                0.992013375     -15.7620794
7.75                 0.991994461      -15.790424
7.752                0.991975725     -15.8187682
7.754                0.991940639     -15.8468305
7.756                0.991905673     -15.8748923
7.758                0.991870827     -15.9029535
7.76                 0.991836102     -15.9310142
7.762                0.991789055     -15.9584455
7.764                0.991742016     -15.9858761
7.766                0.991694986     -16.0133061
7.768                0.991647965     -16.0407353
7.77                 0.991595271      -16.067283
7.772                0.991542446     -16.0938304
7.774                0.991489489     -16.1203775
7.776                  0.9914364     -16.1469243
7.778                 0.99138607      -16.172503
7.78                 0.991335498     -16.1980823
7.782                0.991284685     -16.2236622
7.784                0.991233631     -16.2492426
7.786                0.991193917     -16.2739928
7.788                 0.99115397     -16.2987441
7.79                 0.991113789     -16.3234965
7.792                0.991073376     -16.3482501
