! TOUCHSTONE file generated by CST DESIGN STUDIO
! Date and time: Mon Feb 10 16:45:17 2025
! Project name: C:\Work\MatlabApps\UnitCellType2OptimizationMatlab\CST\unitcell.cst
! Tree item: Tasks\Sweep1\SPara1\S-Parameters
! Header version: 2024
! Port assignment regex: !\s*Touchstone port\s*([0-9]+)\s*=\s*(CST MWS port|CST DES external port|CST DES block port)\s*(.+)\s* \(\"(.*)\"\)(\s*mode\s*([0-9]+))?.*
! Touchstone port assignment:
! Touchstone port 1 = CST DES external port 1 ("")
# GHz S MA R 50
7                    0.996403782       -14.25995
7.002                0.996406005     -14.2796392
7.004                0.996408186     -14.2993558
7.006                0.996410327     -14.3190998
7.008                0.996412426     -14.3388714
7.01                 0.996414484     -14.3586705
7.012                  0.9964165     -14.3784974
7.014                0.996418475     -14.3983519
7.016                0.996420409     -14.4182343
7.018                0.996422301     -14.4381446
7.02                 0.996424151     -14.4580829
7.022                 0.99642596     -14.4780493
7.024                0.996427727     -14.4980437
7.026                0.996429452     -14.5180664
7.028                0.996431136     -14.5381174
7.03                 0.996432777     -14.5581967
7.032                0.996434377     -14.5783044
7.034                0.996435935     -14.5984407
7.036                0.996437451     -14.6186056
7.038                0.996438925     -14.6387992
7.04                 0.996440356     -14.6590215
7.042                0.996441746     -14.6792726
7.044                0.996443093     -14.6995527
7.046                0.996444398     -14.7198618
7.048                 0.99644566     -14.7401999
7.05                 0.996446881     -14.7605672
7.052                0.996448058     -14.7809637
7.054                0.996449193     -14.8013896
7.056                0.996450286     -14.8218448
7.058                0.996451336     -14.8423295
7.06                 0.996452343     -14.8628438
7.062                0.996453308     -14.8833878
7.064                 0.99645423     -14.9039614
7.066                0.996455108     -14.9245649
7.068                0.996455944     -14.9451983
7.07                 0.996456737     -14.9658616
7.072                0.996457487      -14.986555
7.074                0.996458194     -15.0072786
7.076                0.996458858     -15.0280324
7.078                0.996459478     -15.0488165
7.08                 0.996460055      -15.069631
7.082                0.996460589      -15.090476
7.084                0.996461079     -15.1113516
7.086                0.996461526     -15.1322578
7.088                0.996461929     -15.1531948
7.09                 0.996462288     -15.1741626
7.092                0.996462604     -15.1951613
7.094                0.996462876      -15.216191
7.096                0.996463104     -15.2372518
7.098                0.996463289     -15.2583438
7.1                  0.996463429     -15.2794671
7.102                0.996463525     -15.3006217
7.104                0.996463578     -15.3218078
7.106                0.996463586     -15.3430254
7.108                 0.99646355     -15.3642747
7.11                 0.996463469     -15.3855556
7.112                0.996463344     -15.4068684
7.114                0.996463175     -15.4282131
7.116                0.996462961     -15.4495897
7.118                0.996462703     -15.4709985
7.12                   0.9964624     -15.4924394
7.122                0.996462052     -15.5139126
7.124                0.996461659     -15.5354181
7.126                0.996461222     -15.5569561
7.128                0.996460739     -15.5785267
7.13                 0.996460212     -15.6001298
7.132                0.996459639     -15.6217657
7.134                0.996459021     -15.6434345
7.136                0.996458358     -15.6651361
7.138                 0.99645765     -15.6868708
7.14                 0.996456896     -15.7086386
7.142                0.996456096     -15.7304396
7.144                0.996455252     -15.7522739
7.146                0.996454361     -15.7741415
7.148                0.996453425     -15.7960427
7.15                 0.996452443     -15.8179775
7.152                0.996451415      -15.839946
7.154                 0.99645034     -15.8619483
7.156                 0.99644922     -15.8839844
7.158                0.996448054     -15.9060545
7.16                 0.996446842     -15.9281588
7.162                0.996445583     -15.9502972
7.164                0.996444278     -15.9724699
7.166                0.996442926      -15.994677
7.168                0.996441528     -16.0169185
7.17                 0.996440083     -16.0391947
7.172                0.996438592     -16.0615055
7.174                0.996437053     -16.0838512
7.176                0.996435468     -16.1062317
7.178                0.996433836     -16.1286472
7.18                 0.996432156     -16.1510978
7.182                 0.99643043     -16.1735837
7.184                0.996428656     -16.1961048
7.186                0.996426835     -16.2186613
7.188                0.996424966     -16.2412534
7.19                  0.99642305     -16.2638811
7.192                0.996421086     -16.2865445
7.194                0.996419074     -16.3092437
7.196                0.996417015     -16.3319789
7.198                0.996414908     -16.3547501
7.2                  0.996412752     -16.3775575
7.202                0.996410549     -16.4004011
7.204                0.996408297     -16.4232811
7.206                0.996405997     -16.4461976
7.208                0.996403649     -16.4691507
7.21                 0.996401252     -16.4921404
7.212                0.996398806      -16.515167
7.214                0.996396312     -16.5382305
7.216                0.996393769      -16.561331
7.218                0.996391177     -16.5844686
7.22                 0.996388536     -16.6076435
7.222                0.996385846     -16.6308557
7.224                0.996383107     -16.6541055
7.226                0.996380318     -16.6773928
7.228                 0.99637748     -16.7007178
7.23                 0.996374593     -16.7240806
7.232                0.996371656     -16.7474813
7.234                0.996368669     -16.7709201
7.236                0.996365632      -16.794397
7.238                0.996362545     -16.8179123
7.24                 0.996359408     -16.8414659
7.242                0.996356221      -16.865058
7.244                0.996352984     -16.8886887
7.246                0.996349696     -16.9123582
7.248                0.996346358     -16.9360665
7.25                 0.996342969     -16.9598138
7.252                0.996339529     -16.9836002
7.254                0.996336039     -17.0074258
7.256                0.996332497     -17.0312907
7.258                0.996328905     -17.0551951
7.26                 0.996325261     -17.0791391
7.262                0.996321566     -17.1031228
7.264                0.996317819     -17.1271463
7.266                0.996314021     -17.1512097
7.268                0.996310171     -17.1753132
7.27                 0.996306269     -17.1994569
7.272                0.996302315     -17.2236408
7.274                 0.99629831     -17.2478653
7.276                0.996294252     -17.2721303
7.278                0.996290141     -17.2964359
7.28                 0.996285978     -17.3207824
7.282                0.996281763     -17.3451698
7.284                0.996277495     -17.3695983
7.286                0.996273174      -17.394068
7.288                  0.9962688      -17.418579
7.29                 0.996264373     -17.4431314
7.292                0.996259893     -17.4677255
7.294                0.996255359     -17.4923612
7.296                0.996250772     -17.5170388
7.298                0.996246131     -17.5417583
7.3                  0.996241437     -17.5665199
7.302                0.996236688     -17.5913238
7.304                0.996231885       -17.61617
7.306                0.996227029     -17.6410587
7.308                0.996222118     -17.6659901
7.31                 0.996217152     -17.6909642
7.312                0.996212132     -17.7159812
7.314                0.996207057     -17.7410413
7.316                0.996201927     -17.7661445
7.318                0.996196742      -17.791291
7.32                 0.996191502      -17.816481
7.322                0.996186206     -17.8417145
7.324                0.996180855     -17.8669918
7.326                0.996175448     -17.8923129
7.328                0.996169985      -17.917678
7.33                 0.996164467     -17.9430872
7.332                0.996158892     -17.9685407
7.334                0.996153261     -17.9940387
7.336                0.996147574     -18.0195811
7.338                 0.99614183     -18.0451683
7.34                 0.996136029     -18.0708003
7.342                0.996130171     -18.0964774
7.344                0.996124256     -18.1221995
7.346                0.996118284     -18.1479669
7.348                0.996112255     -18.1737797
7.35                 0.996106168     -18.1996381
7.352                0.996100023     -18.2255422
7.354                 0.99609382     -18.2514922
7.356                0.996087559     -18.2774881
7.358                 0.99608124     -18.3035302
7.36                 0.996074862     -18.3296186
7.362                0.996068426     -18.3557535
7.364                0.996061931      -18.381935
7.366                0.996055377     -18.4081632
7.368                0.996048764     -18.4344383
7.37                 0.996042092     -18.4607604
7.372                 0.99603536     -18.4871298
7.374                0.996028568     -18.5135465
7.376                0.996021716     -18.5400108
7.378                0.996014805     -18.5665227
7.38                 0.996007833     -18.5930825
7.382                0.996000801     -18.6196902
7.384                0.995993708      -18.646346
7.386                0.995986554     -18.6730502
7.388                0.995979339     -18.6998028
7.39                 0.995972063      -18.726604
7.392                0.995964726      -18.753454
7.394                0.995957326     -18.7803529
7.396                0.995949866     -18.8073009
7.398                0.995942343     -18.8342982
7.4                  0.995934757     -18.8613448
7.402                 0.99592711     -18.8884411
7.404                  0.9959194     -18.9155871
7.406                0.995911626      -18.942783
7.408                 0.99590379     -18.9700289
7.41                 0.995895891     -18.9973252
7.412                0.995887928     -19.0246718
7.414                0.995879901     -19.0520689
7.416                 0.99587181     -19.0795168
7.418                0.995863655     -19.1070157
7.42                 0.995855436     -19.1345656
7.422                0.995847152     -19.1621667
7.424                0.995838803     -19.1898193
7.426                 0.99583039     -19.2175234
7.428                0.995821911     -19.2452793
7.43                 0.995813366     -19.2730872
7.432                0.995804755     -19.3009471
7.434                0.995796079     -19.3288594
7.436                0.995787336      -19.356824
7.438                0.995778527     -19.3848414
7.44                 0.995769651     -19.4129115
7.442                0.995760708     -19.4410346
7.444                0.995751698     -19.4692109
7.446                 0.99574262     -19.4974406
7.448                0.995733474     -19.5257237
7.45                 0.995724261     -19.5540606
7.452                0.995714979     -19.5824514
7.454                0.995705629     -19.6108962
7.456                 0.99569621     -19.6393953
7.458                0.995686721     -19.6679489
7.46                 0.995677164     -19.6965571
7.462                0.995667536       -19.72522
7.464                0.995657839      -19.753938
7.466                0.995648072     -19.7827112
7.468                0.995638234     -19.8115397
7.47                 0.995628326     -19.8404238
7.472                0.995618346     -19.8693637
7.474                0.995608295     -19.8983595
7.476                0.995598173     -19.9274114
7.478                0.995587979     -19.9565197
7.48                 0.995577712     -19.9856845
7.482                0.995567373      -20.014906
7.484                0.995556961     -20.0441845
7.486                0.995546476       -20.07352
7.488                0.995535917     -20.1029129
7.49                 0.995525285     -20.1323632
7.492                0.995514579     -20.1618713
7.494                0.995503798     -20.1914372
7.496                0.995492942     -20.2210613
7.498                0.995482012     -20.2507437
7.5                  0.995471006     -20.2804846
7.502                0.995459924     -20.3102842
7.504                0.995448767     -20.3401427
7.506                0.995437532     -20.3700603
7.508                0.995426221     -20.4000373
7.51                 0.995414833     -20.4300738
7.512                0.995403368       -20.46017
7.514                0.995391825     -20.4903262
7.516                0.995380203     -20.5205426
7.518                0.995368503     -20.5508193
7.52                 0.995356724     -20.5811566
7.522                0.995344866     -20.6115548
7.524                0.995332928     -20.6420139
7.526                 0.99532091     -20.6725343
7.528                0.995308811     -20.7031161
7.53                 0.995296632     -20.7337596
7.532                0.995284371     -20.7644649
7.534                0.995272028     -20.7952324
7.536                0.995259604     -20.8260621
7.538                0.995247097     -20.8569544
7.54                 0.995234507     -20.8879095
7.542                0.995221834     -20.9189276
7.544                0.995209077     -20.9500088
7.546                0.995196236     -20.9811535
7.548                 0.99518331     -21.0123619
7.55                 0.995170299     -21.0436342
7.552                0.995157202     -21.0749705
7.554                0.995144019     -21.1063712
7.556                 0.99513075     -21.1378365
7.558                0.995117394     -21.1693666
7.56                 0.995103951     -21.2009617
7.562                0.995090419     -21.2326221
7.564                  0.9950768     -21.2643481
7.566                0.995063091     -21.2961397
7.568                0.995049293     -21.3279973
7.57                 0.995035405     -21.3599212
7.572                0.995021426     -21.3919115
7.574                0.995007357     -21.4239685
7.576                0.994993196     -21.4560924
7.578                0.994978943     -21.4882835
7.58                 0.994964597     -21.5205421
7.582                0.994950158     -21.5528683
7.584                0.994935626     -21.5852624
7.586                0.994920999     -21.6177247
7.588                0.994906278     -21.6502554
7.59                  0.99489146     -21.6828547
7.592                0.994876547      -21.715523
7.594                0.994861538     -21.7482604
7.596                 0.99484643     -21.7810672
7.598                0.994831225     -21.8139437
7.6                  0.994815922     -21.8468901
7.602                0.994800519     -21.8799067
7.604                0.994785017     -21.9129937
7.606                0.994769413     -21.9461514
7.608                0.994753709       -21.97938
7.61                 0.994737903     -22.0126798
7.612                0.994721994     -22.0460512
7.614                0.994705982     -22.0794942
7.616                0.994689866     -22.1130093
7.618                0.994673646     -22.1465966
7.62                 0.994657319     -22.1802564
7.622                0.994640887      -22.213989
7.624                0.994624347     -22.2477947
7.626                  0.9946077     -22.2816738
7.628                0.994590944     -22.3156264
7.63                 0.994574079     -22.3496529
7.632                0.994557103     -22.3837535
7.634                0.994540016     -22.4179286
7.636                0.994522818     -22.4521784
7.638                0.994505506     -22.4865031
7.64                 0.994488081     -22.5209031
7.642                0.994470541     -22.5553787
7.644                0.994452886       -22.58993
7.646                0.994435114     -22.6245575
7.648                0.994417225     -22.6592613
7.65                 0.994399217     -22.6940417
7.652                 0.99438109     -22.7288991
7.654                0.994362843     -22.7638338
7.656                0.994344474     -22.7988459
7.658                0.994325983     -22.8339359
7.66                 0.994307368     -22.8691039
7.662                0.994288628     -22.9043503
7.664                0.994269763     -22.9396754
7.666                0.994250771     -22.9750795
7.668                0.994231651     -23.0105628
7.67                 0.994212401     -23.0461256
7.672                0.994193021     -23.0817683
7.674                0.994173509     -23.1174912
7.676                0.994153865     -23.1532945
7.678                0.994134086     -23.1891785
7.68                 0.994114172     -23.2251435
7.682                 0.99409412     -23.2611899
7.684                0.994073931     -23.2973179
7.686                0.994053602     -23.3335279
7.688                0.994033131       -23.36982
7.69                 0.994012519     -23.4061947
7.692                0.993991762     -23.4426523
7.694                0.993970859      -23.479193
7.696                0.993949809     -23.5158171
7.698                0.993928611      -23.552525
7.7                  0.993907262      -23.589317
7.702                0.993885761     -23.6261933
7.704                0.993864106     -23.6631543
7.706                0.993842296     -23.7002002
7.708                0.993820329     -23.7373315
7.71                 0.993798202     -23.7745483
7.712                0.993775914      -23.811851
7.714                0.993753463       -23.84924
7.716                0.993730847     -23.8867154
7.718                0.993708064     -23.9242777
7.72                 0.993685113      -23.961927
7.722                0.993661989     -23.9996639
7.724                0.993638693     -24.0374884
7.726                0.993615221      -24.075401
7.728                0.993591571     -24.1134019
7.73                  0.99356774     -24.1514915
7.732                0.993543727       -24.18967
7.734                0.993519529     -24.2279378
7.736                0.993495143     -24.2662952
7.738                0.993470567     -24.3047423
7.74                 0.993445798     -24.3432797
7.742                0.993420833     -24.3819074
7.744                 0.99339567      -24.420626
7.746                0.993370305     -24.4594355
7.748                0.993344736     -24.4983363
7.75                  0.99331896     -24.5373288
7.752                0.993292973     -24.5764131
7.754                0.993266772     -24.6155896
7.756                0.993240355     -24.6548585
7.758                0.993213717     -24.6942201
7.76                 0.993186855     -24.7336747
7.762                0.993159765     -24.7732226
7.764                0.993132445     -24.8128639
7.766                 0.99310489     -24.8525989
7.768                0.993077096      -24.892428
7.77                  0.99304906     -24.9323512
7.772                0.993020777      -24.972369
7.774                0.992992244     -25.0124813
7.776                0.992963455     -25.0526886
7.778                0.992934407      -25.092991
7.78                 0.992905095     -25.1333887
7.782                0.992875514     -25.1738818
7.784                0.992845661     -25.2144706
7.786                0.992815529     -25.2551552
7.788                0.992785115     -25.2959358
7.79                 0.992754412     -25.3368125
7.792                0.992723417     -25.3777854
