! TOUCHSTONE file generated by CST DESIGN STUDIO
! Date and time: Mon Feb 10 16:45:33 2025
! Project name: C:\Work\MatlabApps\UnitCellType2OptimizationMatlab\CST\unitcell.cst
! Tree item: Tasks\Sweep1\SPara1\S-Parameters
! Header version: 2024
! Port assignment regex: !\s*Touchstone port\s*([0-9]+)\s*=\s*(CST MWS port|CST DES external port|CST DES block port)\s*(.+)\s* \(\"(.*)\"\)(\s*mode\s*([0-9]+))?.*
! Touchstone port assignment:
! Touchstone port 1 = CST DES external port 1 ("")
# GHz S MA R 50
7                    0.983834201     -7.11903604
7.002                0.983906886     -7.14327494
7.004                0.983979092     -7.16747114
7.006                0.984050822       -7.191625
7.008                0.984122081     -7.21573686
7.01                 0.984198061     -7.24007013
7.012                0.984273591     -7.26436058
7.014                0.984348675     -7.28860857
7.016                0.984423318     -7.31281446
7.018                0.984501995     -7.33727748
7.02                 0.984580254     -7.36169745
7.022                  0.9846581     -7.38607471
7.024                0.984735537     -7.41040963
7.026                0.984816236     -7.43502909
7.028                0.984896553     -7.45960531
7.03                  0.98497649     -7.48413862
7.032                0.985056052     -7.50862938
7.034                0.985138086     -7.53342486
7.036                0.985219772     -7.55817701
7.038                0.985301115     -7.58288618
7.04                 0.985382117     -7.60755273
7.042                0.985464824     -7.63253813
7.044                0.985547217     -7.65748031
7.046                0.985629298     -7.68237964
7.048                0.985711072     -7.70723648
7.05                 0.985793829     -7.73241997
7.052                0.985876302     -7.75756056
7.054                0.985958493     -7.78265859
7.056                0.986040404     -7.80771443
7.058                 0.98612263     -7.83310295
7.06                 0.986204597     -7.85844905
7.062                0.986286308     -7.88375306
7.064                0.986367765     -7.90901529
7.066                 0.98644886     -7.93460991
7.068                0.986529719     -7.96016265
7.07                 0.986610346     -7.98567383
7.072                 0.98669074     -8.01114376
7.074                0.986770168      -8.0369426
7.076                0.986849382     -8.06270013
7.078                0.986928384     -8.08841667
7.08                 0.987007177     -8.11409255
7.082                0.987084409     -8.14009373
7.084                 0.98716145     -8.16605421
7.086                0.987238302     -8.19197431
7.088                0.987314967     -8.21785437
7.09                 0.987389481     -8.24404947
7.092                0.987463829     -8.27020456
7.094                0.987538012     -8.29631993
7.096                0.987612032     -8.32239587
7.098                0.987683298     -8.34878179
7.1                  0.987754423     -8.37512847
7.102                0.987825406     -8.40143618
7.104                0.987896251     -8.42770519
7.106                0.987963807     -8.45426475
7.108                0.988031244     -8.48078589
7.11                 0.988098565     -8.50726889
7.112                 0.98816577     -8.53371402
7.114                 0.98822907     -8.56043569
7.116                0.988292274     -8.58711987
7.118                0.988355384     -8.61376682
7.12                 0.988418401     -8.64037684
7.122                0.988477054      -8.6672373
7.124                0.988535631     -8.69406128
7.126                0.988594135     -8.72084903
7.128                0.988652564     -8.74760083
7.13                 0.988706094     -8.77457829
7.132                0.988759568     -8.80152035
7.134                0.988812985     -8.82842725
7.136                0.988866347     -8.85529923
7.138                0.988914425     -8.88236636
7.14                 0.988962463     -8.90939925
7.142                0.989010461     -8.93639812
7.144                 0.98905842     -8.96336319
7.146                0.989100763     -8.99048721
7.148                0.989143081     -9.01757823
7.15                 0.989185374     -9.04463645
7.152                0.989227643      -9.0716621
7.154                0.989264078     -9.09880747
7.156                0.989300502      -9.1259212
7.158                0.989336914     -9.15300351
7.16                 0.989373315     -9.18005462
7.162                0.989403741     -9.20718524
7.164                0.989434166     -9.23428576
7.166                 0.98946459     -9.26135637
7.168                0.989495012     -9.28839727
7.17                 0.989519455     -9.31547994
7.172                0.989543901     -9.34253418
7.174                0.989568351     -9.36956016
7.176                0.989592806     -9.39655807
7.178                0.989611434     -9.42355261
7.18                 0.989630065     -9.45052048
7.182                0.989648701     -9.47746184
7.184                 0.98966734     -9.50437688
7.186                0.989680393     -9.53125007
7.188                0.989693443     -9.55809839
7.19                 0.989706491       -9.584922
7.192                0.989719538     -9.61172105
7.194                0.989727318     -9.63844362
7.196                0.989735086     -9.66514311
7.198                 0.98974284     -9.69181966
7.2                  0.989750582     -9.71847339
7.202                0.989753501      -9.7450186
7.204                0.989756392     -9.77154241
7.206                0.989759257     -9.79804497
7.208                0.989762096     -9.82452641
7.21                 0.989760617     -9.85087623
7.212                0.989759095     -9.87720624
7.214                0.989757531     -9.90351656
7.216                0.989755926     -9.92980731
7.218                0.989750505     -9.95594274
7.22                 0.989745026     -9.98205981
7.222                 0.98973949     -10.0081586
7.224                0.989733897     -10.0342393
7.226                0.989725008     -10.0601487
7.228                0.989716047      -10.086041
7.23                 0.989707015     -10.1119165
7.232                0.989697912     -10.1377751
7.234                0.989686051     -10.1634494
7.236                0.989674104     -10.1891078
7.238                0.989662073     -10.2147506
7.24                 0.989649958     -10.2403777
7.242                0.989635554     -10.2658116
7.244                0.989621053     -10.2912308
7.246                0.989606456     -10.3166354
7.248                0.989591762     -10.3420256
7.25                 0.989575257     -10.3672188
7.252                0.989558643     -10.3923985
7.254                0.989541921     -10.4175646
7.256                0.989525092     -10.4427174
7.258                0.989506941     -10.4676626
7.26                 0.989488671     -10.4925953
7.262                0.989470283     -10.5175155
7.264                0.989451777     -10.5424233
7.266                0.989432381      -10.567123
7.268                0.989412855     -10.5918111
7.27                 0.989393202     -10.6164877
7.272                0.989373423      -10.641153
7.274                0.989353236      -10.665605
7.276                0.989332911     -10.6900464
7.278                 0.98931245     -10.7144773
7.28                 0.989291854     -10.7388977
7.282                0.989271319     -10.7631059
7.284                0.989250638     -10.7873044
7.286                0.989229812     -10.8114933
7.288                0.989208842     -10.8356726
7.29                 0.989188448     -10.8596385
7.292                  0.9891679     -10.8835956
7.294                0.989147199     -10.9075439
7.296                0.989126347     -10.9314834
7.298                 0.98910655     -10.9552145
7.3                  0.989086591     -10.9789375
7.302                0.989066474     -11.0026524
7.304                0.989046197     -11.0263594
7.306                 0.98902757     -11.0498617
7.308                0.989008777     -11.0733566
7.31                 0.988989818      -11.096844
7.312                0.988970695     -11.1203241
7.314                0.988953722     -11.1436122
7.316                0.988936579     -11.1668932
7.318                0.988919267     -11.1901673
7.32                 0.988901787     -11.2134344
7.322                0.988886993      -11.236529
7.324                0.988872029     -11.2596167
7.326                0.988856895     -11.2826978
7.328                0.988841591     -11.3057721
7.33                 0.988829496     -11.3286923
7.332                0.988817233     -11.3516058
7.334                0.988804801     -11.3745127
7.336                0.988792203      -11.397413
7.338                 0.98878323     -11.4201894
7.34                 0.988774094     -11.4429592
7.342                0.988764797     -11.4657224
7.344                0.988755338     -11.4884789
7.346                0.988749925     -11.5111427
7.348                0.988744358     -11.5337998
7.35                 0.988738639     -11.5564502
7.352                0.988732767     -11.5790939
7.354                0.988731164     -11.6016848
7.356                0.988729421     -11.6242688
7.358                0.988727537      -11.646846
7.36                 0.988725514     -11.6694164
7.362                0.988727968     -11.6919732
7.364                0.988730297     -11.7145229
7.366                0.988732501     -11.7370657
7.368                 0.98873458     -11.7596016
7.37                 0.988741134     -11.7821656
7.372                 0.98874758     -11.8047225
7.374                0.988753917     -11.8272724
7.376                0.988760147     -11.8498153
7.378                0.988770756     -11.8724286
7.38                 0.988781274     -11.8950349
7.382                0.988791703     -11.9176342
7.384                0.988802044     -11.9402265
7.386                0.988816566     -11.9629246
7.388                0.988831016     -11.9856159
7.39                 0.988845397     -12.0083002
7.392                0.988859709     -12.0309778
7.394                0.988877865     -12.0537999
7.396                 0.98889597     -12.0766154
7.398                0.988914024     -12.0994244
7.4                  0.988932029      -12.122227
7.402                0.988953461     -12.1452042
7.404                0.988974858     -12.1681754
7.406                0.988996223     -12.1911406
7.408                0.989017556     -12.2141001
7.41                   0.9890419     -12.2372551
7.412                0.989066224     -12.2604048
7.414                0.989090528     -12.2835493
7.416                0.989114814     -12.3066888
7.418                0.989141628     -12.3300445
7.42                 0.989168429     -12.3533958
7.422                0.989195217     -12.3767427
7.424                0.989221996     -12.4000855
7.426                0.989250808     -12.4236556
7.428                0.989279609     -12.4472219
7.43                 0.989308399     -12.4707846
7.432                0.989337176     -12.4943441
7.434                 0.98936757     -12.5181399
7.436                0.989397946     -12.5419326
7.438                0.989428304     -12.5657222
7.44                  0.98945864      -12.589509
7.442                0.989490221     -12.6135335
7.444                0.989521773     -12.6375549
7.446                0.989553293     -12.6615732
7.448                0.989584778     -12.6855888
7.45                 0.989617176     -12.7098447
7.452                0.989649532     -12.7340969
7.454                0.989681844     -12.7583453
7.456                0.989714105     -12.7825902
7.458                0.989747042     -12.8070731
7.46                 0.989779931      -12.831551
7.462                0.989812767     -12.8560237
7.464                0.989845547     -12.8804912
7.466                0.989878859     -12.9052044
7.468                 0.98991213     -12.9299108
7.47                 0.989945356     -12.9546101
7.472                0.989978536     -12.9793021
7.474                0.990012101     -13.0042436
7.476                0.990045651     -13.0291765
7.478                0.990079187     -13.0541005
7.48                 0.990112708     -13.0790155
7.482                  0.9901465     -13.1041959
7.484                0.990180321      -13.129367
7.486                0.990214173     -13.1545287
7.488                 0.99024806      -13.179681
7.49                 0.990282019     -13.2051152
7.492                 0.99031605     -13.2305413
7.494                0.990350157     -13.2559594
7.496                0.990384342     -13.2813697
7.498                0.990418204     -13.3070851
7.5                  0.990452157     -13.3327953
7.502                0.990486199     -13.3585007
7.504                0.990520328     -13.3842015
7.506                0.990553543     -13.4102315
7.508                 0.99058682     -13.4362596
7.51                 0.990620151     -13.4622858
7.512                0.990653529     -13.4883103
7.514                0.990685179     -13.5146698
7.516                0.990716822     -13.5410285
7.518                0.990748449     -13.5673862
7.52                 0.990780052     -13.5937425
7.522                 0.99080904     -13.6204268
7.524                0.990837949     -13.6471085
7.526                0.990866777     -13.6737868
7.528                 0.99089552      -13.700461
7.53                 0.990920826     -13.7274375
7.532                 0.99094602      -13.754407
7.534                0.990971107     -13.7813688
7.536                0.990996093     -13.8083221
7.538                0.991017052     -13.8355343
7.54                 0.991037918     -13.8627351
7.542                0.991058705     -13.8899239
7.544                0.991079425     -13.9171005
7.546                0.991095776     -13.9444911
7.548                0.991112095     -13.9718675
7.55                 0.991128396     -13.9992297
7.552                0.991144691     -14.0265777
7.554                0.991156602     -14.0540929
7.556                0.991168551     -14.0815937
7.558                0.991180549     -14.1090805
7.56                 0.991192605     -14.1365537
7.562                0.991200425     -14.1641538
7.564                0.991208339     -14.1917415
7.566                0.991216353     -14.2193174
7.568                 0.99122447     -14.2468819
7.57                   0.9912287     -14.2745389
7.572                0.991233053     -14.3021867
7.574                0.991237529     -14.3298257
7.576                0.991242128     -14.3574565
7.578                0.991243182     -14.3851622
7.58                 0.991244358     -14.4128619
7.582                0.991245655      -14.440556
7.584                0.991247068      -14.468245
7.586                0.991245332     -14.4959912
7.588                0.991243699     -14.5237344
7.59                 0.991242164     -14.5514745
7.592                0.991240722      -14.579212
7.594                0.991236451     -14.6070027
7.596                0.991232251     -14.6347921
7.598                0.991228115     -14.6625805
7.6                  0.991224041     -14.6903678
7.602                0.991217391     -14.7182022
7.604                0.991210773     -14.7460365
7.606                0.991204187     -14.7738707
7.608                0.991197628     -14.8017047
7.61                 0.991188672     -14.8295844
7.612                0.991179716     -14.8574644
7.614                0.991170758     -14.8853446
7.616                0.991161795     -14.9132249
7.618                0.991150523     -14.9411501
7.62                 0.991139222     -14.9690755
7.622                 0.99112789     -14.9970011
7.624                0.991116528     -15.0249267
7.626                0.991102975     -15.0528921
7.628                0.991089369     -15.0808573
7.63                 0.991075712     -15.1088224
7.632                0.991062003     -15.1367871
7.634                0.991046114     -15.1647835
7.636                0.991030157     -15.1927793
7.638                0.991014132     -15.2207744
7.64                  0.99099804     -15.2487689
7.642                0.990979844     -15.2767827
7.644                 0.99096157     -15.3047956
7.646                0.990943218     -15.3328074
7.648                0.990924789     -15.3608182
7.65                 0.990904333     -15.3888326
7.652                0.990883795     -15.4168458
7.654                0.990863174     -15.4448576
7.656                0.990842471      -15.472868
7.658                0.990819919     -15.5008689
7.66                 0.990797283     -15.5288684
7.662                0.990774565     -15.5568664
7.664                0.990751763      -15.584863
7.666                0.990727387     -15.6128295
7.668                 0.99070293     -15.6407947
7.67                 0.990678391     -15.6687585
7.672                0.990653771      -15.696721
7.674                0.990627883     -15.7246365
7.676                0.990601916      -15.752551
7.678                0.990575869     -15.7804644
7.68                 0.990549743     -15.8083767
7.682                0.990522804     -15.8362289
7.684                0.990495787     -15.8640803
7.686                0.990468691     -15.8919312
7.688                0.990441516     -15.9197814
7.69                 0.990414033     -15.9475613
7.692                 0.99038647     -15.9753411
7.694                0.990358827     -16.0031206
7.696                0.990331104        -16.0309
7.698                0.990303648     -16.0586102
7.7                  0.990276108     -16.0863206
7.702                0.990248485     -16.1140312
7.704                0.990220779     -16.1417422
7.706                0.990193919     -16.1693845
7.708                0.990166972     -16.1970275
7.71                 0.990139938     -16.2246711
7.712                0.990112817     -16.2523153
7.714                0.990087132      -16.279903
7.716                0.990061356     -16.3074915
7.718                0.990035491     -16.3350808
7.72                 0.990009535     -16.3626708
7.722                0.989985506     -16.3902214
7.724                0.989961385     -16.4177728
7.726                0.989937174     -16.4453251
7.728                0.989912871     -16.4728782
7.73                 0.989890992     -16.5004187
7.732                0.989869024       -16.52796
7.734                0.989846968     -16.5555022
7.736                0.989824823     -16.5830452
7.738                0.989805386     -16.6106071
7.74                 0.989785867     -16.6381698
7.742                0.989766264     -16.6657333
7.744                0.989746577     -16.6932975
7.746                0.989729816       -16.72091
7.748                0.989712979     -16.7485232
7.75                 0.989696065     -16.7761372
7.752                0.989679076     -16.8037519
7.754                0.989665118     -16.8314476
7.756                0.989651094     -16.8591441
7.758                0.989637003     -16.8868411
7.76                 0.989622846     -16.9145388
7.762                0.989611695     -16.9423496
7.764                0.989600489     -16.9701609
7.766                0.989589229     -16.9979727
7.768                0.989577913      -17.025785
7.77                 0.989569448     -17.0537383
7.772                0.989560941     -17.0816919
7.774                0.989552393     -17.1096458
7.776                0.989543803     -17.1375999
7.778                 0.98953789     -17.1657219
7.78                 0.989531952     -17.1938439
7.782                0.989525988      -17.221966
7.784                0.989519998      -17.250088
7.786                 0.98951647     -17.2783951
7.788                0.989512934     -17.3067019
7.79                  0.98950939     -17.3350085
7.792                0.989505839      -17.363315
