! TOUCHSTONE file generated by CST DESIGN STUDIO
! Date and time: Mon Feb 10 16:45:28 2025
! Project name: C:\Work\MatlabApps\UnitCellType2OptimizationMatlab\CST\unitcell.cst
! Tree item: Tasks\Sweep1\SPara1\S-Parameters
! Header version: 2024
! Port assignment regex: !\s*Touchstone port\s*([0-9]+)\s*=\s*(CST MWS port|CST DES external port|CST DES block port)\s*(.+)\s* \(\"(.*)\"\)(\s*mode\s*([0-9]+))?.*
! Touchstone port assignment:
! Touchstone port 1 = CST DES external port 1 ("")
# GHz S MA R 50
7                    0.991468378     -10.8248698
7.002                0.991474803     -10.8420663
7.004                0.991481171     -10.8592626
7.006                0.991487481     -10.8764587
7.008                0.991493734     -10.8936547
7.01                 0.991503946     -10.9109505
7.012                0.991514106     -10.9282458
7.014                0.991524213     -10.9455407
7.016                0.991534266     -10.9628353
7.018                0.991548108     -10.9802586
7.02                 0.991561901     -10.9976811
7.022                0.991575646      -11.015103
7.024                0.991589342      -11.032524
7.026                0.991606561     -11.0501007
7.028                0.991623738     -11.0676762
7.03                 0.991640871     -11.0852505
7.032                 0.99165796     -11.1028237
7.034                0.991678284     -11.1205768
7.036                0.991698571     -11.1383284
7.038                0.991718822     -11.1560782
7.04                 0.991739035     -11.1738264
7.042                0.991762153     -11.1917769
7.044                0.991785242     -11.2097252
7.046                0.991808303     -11.2276715
7.048                0.991831335     -11.2456156
7.05                 0.991856937     -11.2637807
7.052                0.991882519     -11.2819435
7.054                0.991908082     -11.3001036
7.056                0.991933626     -11.3182613
7.058                0.991961364     -11.3366585
7.06                 0.991989092      -11.355053
7.062                0.992016809     -11.3734447
7.064                0.992044517     -11.3918337
7.066                0.992074021     -11.4104791
7.068                0.992103523     -11.4291217
7.07                 0.992133022     -11.4477614
7.072                0.992162519     -11.4663982
7.074                0.992193394     -11.4853032
7.076                0.992224271     -11.5042052
7.078                0.992255152     -11.5231041
7.08                 0.992286036     -11.5420001
7.082                0.992317839     -11.5611761
7.084                0.992349648      -11.580349
7.086                0.992381465     -11.5995187
7.088                0.992413291     -11.6186852
7.09                 0.992445578     -11.6381372
7.092                0.992477878     -11.6575857
7.094                 0.99251019     -11.6770308
7.096                0.992542515     -11.6964725
7.098                0.992574793     -11.7162095
7.1                  0.992607088     -11.7359429
7.102                0.992639403     -11.7556727
7.104                0.992671737     -11.7753988
7.106                0.992703546     -11.7954144
7.108                0.992735379     -11.8154262
7.11                 0.992767238     -11.8354341
7.112                0.992799123     -11.8554381
7.114                0.992829967     -11.8757335
7.116                0.992860841     -11.8960248
7.118                0.992891749     -11.9163121
7.12                 0.992922689     -11.9365955
7.122                0.992952139     -11.9571573
7.124                0.992981628     -11.9777149
7.126                0.993011155     -11.9982685
7.128                0.993040722      -12.018818
7.13                 0.993068322     -12.0396386
7.132                0.993095966      -12.060455
7.134                0.993123656     -12.0812673
7.136                0.993151391     -12.1020756
7.138                0.993176767     -12.1231395
7.14                 0.993202194     -12.1441994
7.142                0.993227671     -12.1652551
7.144                0.993253199     -12.1863069
7.146                0.993276021      -12.207595
7.148                0.993298898     -12.2288792
7.15                 0.993321831     -12.2501593
7.152                 0.99334482     -12.2714356
7.154                0.993364826     -12.2929277
7.156                0.993384892     -12.3144159
7.158                0.993405019     -12.3359005
7.16                 0.993425205     -12.3573814
7.162                0.993442179     -12.3790566
7.164                0.993459215     -12.4007283
7.166                0.993476315     -12.4223967
7.168                0.993493477     -12.4440618
7.17                 0.993507267     -12.4659023
7.172                0.993521121       -12.48774
7.174                0.993535036     -12.5095747
7.176                0.993549014     -12.5314067
7.178                 0.99355955     -12.5533875
7.18                 0.993570144     -12.5753659
7.182                0.993580797      -12.597342
7.184                0.993591508     -12.6193158
7.186                0.993598729     -12.6414165
7.188                0.993606001     -12.6635154
7.19                 0.993613323     -12.6856124
7.192                0.993620696     -12.7077077
7.194                0.993624558     -12.7299103
7.196                0.993628461     -12.7521116
7.198                0.993632404     -12.7743114
7.2                  0.993636387     -12.7965098
7.202                0.993636913     -12.8187944
7.204                0.993637469     -12.8410779
7.206                0.993638052     -12.8633604
7.208                0.993638663     -12.8856417
7.21                 0.993635907     -12.9079919
7.212                0.993633168     -12.9303412
7.214                0.993630445     -12.9526896
7.216                0.993627738     -12.9750371
7.218                0.993621751     -12.9974308
7.22                  0.99361577     -13.0198238
7.222                0.993609795      -13.042216
7.224                0.993603826     -13.0646075
7.226                0.993594724     -13.0870285
7.228                0.993585619      -13.109449
7.23                  0.99357651     -13.1318688
7.232                0.993567398     -13.1542879
7.234                0.993555315     -13.1767163
7.236                 0.99354322     -13.1991442
7.238                0.993531113     -13.2215716
7.24                 0.993518993     -13.2439985
7.242                0.993504095     -13.2664193
7.244                0.993489176     -13.2888398
7.246                0.993474238     -13.3112599
7.248                0.993459279     -13.3336797
7.25                 0.993441754     -13.3560786
7.252                0.993424202     -13.3784774
7.254                0.993406621      -13.400876
7.256                0.993389012     -13.4232744
7.258                0.993369114     -13.4456312
7.26                 0.993349179      -13.467988
7.262                0.993329209     -13.4903448
7.264                0.993309203     -13.5127017
7.266                0.993287186     -13.5350054
7.268                0.993265125     -13.5573093
7.27                 0.993243021     -13.5796134
7.272                0.993220874     -13.6019176
7.274                0.993197066      -13.624153
7.276                0.993173209     -13.6463887
7.278                0.993149301     -13.6686247
7.28                 0.993125343      -13.690861
7.282                0.993100098     -13.7130197
7.284                0.993074796     -13.7351787
7.286                0.993049439     -13.7573383
7.288                0.993024025     -13.7794982
7.29                 0.992997751     -13.8015705
7.292                0.992971415     -13.8236433
7.294                0.992945019     -13.8457167
7.296                0.992918562     -13.8677906
7.298                0.992891665     -13.8897738
7.3                  0.992864704     -13.9117575
7.302                0.992837677      -13.933742
7.304                0.992810586     -13.9557271
7.306                0.992783553     -13.9776168
7.308                0.992756453     -13.9995073
7.31                 0.992729285     -14.0213986
7.312                 0.99270205     -14.0432906
7.314                0.992675309     -14.0650931
7.316                  0.9926485     -14.0868964
7.318                0.992621621     -14.1087006
7.32                 0.992594674     -14.1305056
7.322                0.992568658     -14.1522308
7.324                0.992542573     -14.1739569
7.326                0.992516419     -14.1956839
7.328                0.992490196     -14.2174116
7.33                 0.992465328     -14.2390677
7.332                0.992440392     -14.2607246
7.334                0.992415388     -14.2823823
7.336                0.992390316     -14.3040408
7.338                0.992366945     -14.3256469
7.34                  0.99234351     -14.3472538
7.342                0.992320009     -14.3688615
7.344                0.992296444     -14.3904699
7.346                0.992274905     -14.4120403
7.348                0.992253305     -14.4336115
7.35                 0.992231645     -14.4551833
7.352                0.992209924     -14.4767558
7.354                 0.99219045     -14.4983151
7.356                0.992170922      -14.519875
7.358                0.992151339     -14.5414356
7.36                 0.992131702     -14.5629967
7.362                0.992114521     -14.5845634
7.364                0.992097292     -14.6061306
7.366                0.992080016     -14.6276984
7.368                0.992062691     -14.6492668
7.37                 0.992047923     -14.6708635
7.372                0.992033114     -14.6924608
7.374                0.992018265     -14.7140585
7.376                0.992003374     -14.7356568
7.378                0.991991108     -14.7573067
7.38                 0.991978808     -14.7789571
7.382                0.991966474      -14.800608
7.384                0.991954107     -14.8222593
7.386                0.991944387     -14.8439785
7.388                0.991934642     -14.8656981
7.39                 0.991924869     -14.8874182
7.392                 0.99191507     -14.9091387
7.394                0.991907899     -14.9309515
7.396                0.991900708     -14.9527648
7.398                0.991893498     -14.9745785
7.4                  0.991886269     -14.9963926
7.402                0.991881605     -15.0183174
7.404                0.991876928     -15.0402427
7.406                0.991872239     -15.0621683
7.408                0.991867537     -15.0840943
7.41                  0.99186538      -15.106145
7.412                0.991863217     -15.1281961
7.414                0.991861049     -15.1502475
7.416                0.991858875     -15.1722993
7.418                0.991859165     -15.1944957
7.42                 0.991859455     -15.2166924
7.422                0.991859746     -15.2388894
7.424                0.991860039     -15.2610867
7.426                0.991862709     -15.2834445
7.428                0.991865386     -15.3058026
7.43                 0.991868071      -15.328161
7.432                0.991870763     -15.3505197
7.434                0.991875751     -15.3730575
7.436                0.991880752     -15.3955956
7.438                0.991885767      -15.418134
7.44                 0.991890796     -15.4406727
7.442                0.991898027     -15.4634057
7.444                0.991905278      -15.486139
7.446                0.991912547     -15.5088725
7.448                0.991919836     -15.5316062
7.45                 0.991929173     -15.5545543
7.452                0.991938534     -15.5775025
7.454                0.991947919     -15.6004509
7.456                 0.99195733     -15.6233995
7.458                0.991968619     -15.6465777
7.46                 0.991979938     -15.6697561
7.462                0.991991288     -15.6929345
7.464                0.992002667      -15.716113
7.466                0.992015719     -15.7395441
7.468                0.992028806     -15.7629752
7.47                 0.992041928     -15.7864064
7.472                0.992055085     -15.8098376
7.474                0.992069625     -15.8335361
7.476                0.992084205     -15.8572345
7.478                0.992098825     -15.8809329
7.48                 0.992113485     -15.9046312
7.482                0.992129208     -15.9286144
7.484                0.992144976     -15.9525974
7.486                0.992160788     -15.9765803
7.488                0.992176645     -16.0005631
7.49                 0.992193212     -16.0248401
7.492                0.992209828     -16.0491169
7.494                0.992226491     -16.0733934
7.496                0.992243201     -16.0976697
7.498                0.992260211     -16.1222506
7.5                   0.99227727     -16.1468311
7.502                0.992294379     -16.1714113
7.504                0.992311538     -16.1959912
7.506                 0.99232858     -16.2208846
7.508                0.992345674     -16.2457777
7.51                 0.992362819     -16.2706703
7.512                0.992380015     -16.2955626
7.514                0.992396666     -16.3207658
7.516                 0.99241337     -16.3459686
7.518                0.992430126      -16.371171
7.52                 0.992446935     -16.3963728
7.522                 0.99246279     -16.4218843
7.524                0.992478697     -16.4473952
7.526                0.992494658     -16.4729056
7.528                0.992510672     -16.4984155
7.53                 0.992525351     -16.5242291
7.532                0.992540083     -16.5500421
7.534                0.992554868     -16.5758545
7.536                0.992569705     -16.6016664
7.538                0.992582876     -16.6277673
7.54                   0.9925961     -16.6538677
7.542                0.992609375     -16.6799676
7.544                0.992622703     -16.7060668
7.546                 0.99263408     -16.7324463
7.548                0.992645507     -16.7588253
7.55                 0.992656985     -16.7852038
7.552                0.992668513     -16.8115818
7.554                0.992677892     -16.8382241
7.556                0.992687318     -16.8648659
7.558                0.992696792     -16.8915073
7.56                 0.992706315     -16.9181482
7.562                0.992713517     -16.9450393
7.564                0.992720763       -16.97193
7.566                0.992728054     -16.9988204
7.568                0.992735388     -17.0257104
7.57                 0.992740331     -17.0528319
7.572                0.992745312     -17.0799531
7.574                0.992750332     -17.1070741
7.576                0.992755391     -17.1341947
7.578                0.992757982     -17.1615385
7.58                 0.992760605     -17.1888821
7.582                 0.99276326     -17.2162255
7.584                0.992765949     -17.2435686
7.586                0.992766174     -17.2711172
7.588                0.992766426     -17.2986657
7.59                 0.992766704      -17.326214
7.592                0.992767008     -17.3537622
7.594                0.992764853     -17.3815079
7.596                0.992762718     -17.4092535
7.598                0.992760603      -17.436999
7.6                  0.992758509     -17.4647445
7.602                 0.99275396     -17.4926743
7.604                0.992749424     -17.5206042
7.606                0.992744903     -17.5485339
7.608                0.992740394     -17.5764637
7.61                 0.992733454     -17.6045686
7.612                 0.99272652     -17.6326735
7.614                0.992719593     -17.6607784
7.616                0.992712672     -17.6888833
7.618                0.992703313     -17.7171561
7.62                 0.992693952     -17.7454291
7.622                 0.99268459      -17.773702
7.624                0.992675227      -17.801975
7.626                0.992663487     -17.8304052
7.628                0.992651738     -17.8588355
7.63                  0.99263998     -17.8872658
7.632                0.992628213     -17.9156963
7.634                0.992614056     -17.9442708
7.636                0.992599881     -17.9728454
7.638                0.992585689     -18.0014201
7.64                  0.99257148     -18.0299949
7.642                0.992554952     -18.0587033
7.644                0.992538398     -18.0874117
7.646                0.992521819     -18.1161201
7.648                0.992505215     -18.1448287
7.65                 0.992486341     -18.1736557
7.652                0.992467435     -18.2024828
7.654                0.992448496     -18.2313098
7.656                0.992429523     -18.2601369
7.658                0.992408404     -18.2890713
7.66                 0.992387246     -18.3180056
7.662                0.992366047     -18.3469399
7.664                0.992344809     -18.3758742
7.666                0.992321623     -18.4049003
7.668                0.992298393     -18.4339262
7.67                 0.992275117     -18.4629521
7.672                0.992251795     -18.4919778
7.674                0.992226699     -18.5210802
7.676                0.992201552     -18.5501824
7.678                0.992176355     -18.5792844
7.68                 0.992151107     -18.6083863
7.682                0.992124396     -18.6375543
7.684                 0.99209763     -18.6667221
7.686                0.992070809     -18.6958897
7.688                0.992043935      -18.725057
7.69                 0.992015907     -18.7542789
7.692                0.991987821     -18.7835005
7.694                0.991959677     -18.8127219
7.696                0.991931475      -18.841943
7.698                0.991902513     -18.8712165
7.7                  0.991873489     -18.9004898
7.702                0.991844404     -18.9297627
7.704                0.991815258     -18.9590353
7.706                0.991785738     -18.9883557
7.708                0.991756155     -19.0176757
7.71                 0.991726508     -19.0469953
7.712                0.991696799     -19.0763145
7.714                0.991667139     -19.1056838
7.716                0.991637416     -19.1350526
7.718                0.991607629     -19.1644209
7.72                 0.991577779     -19.1937887
7.722                0.991548344     -19.2232118
7.724                0.991518846     -19.2526343
7.726                0.991489286     -19.2820562
7.728                0.991459664     -19.3114774
7.73                 0.991430848     -19.3409672
7.732                0.991401974     -19.3704563
7.734                0.991373041     -19.3999446
7.736                0.991344048     -19.4294322
7.738                0.991316149     -19.4590057
7.74                 0.991288194     -19.4885783
7.742                0.991260186     -19.5181501
7.744                0.991232123      -19.547721
7.746                0.991205392     -19.5773916
7.748                0.991178612     -19.6070611
7.75                 0.991151784     -19.6367298
7.752                0.991124907     -19.6663975
7.754                0.991099578     -19.6961837
7.756                0.991074208     -19.7259689
7.758                0.991048795     -19.7557531
7.76                  0.99102334     -19.7855362
7.762                0.990999549     -19.8154587
7.764                0.990975724     -19.8453802
7.766                0.990951863     -19.8753005
7.768                0.990927968     -19.9052197
7.77                 0.990905775     -19.9352949
7.772                0.990883555     -19.9653689
7.774                0.990861307     -19.9954417
7.776                0.990839032     -20.0255133
7.778                 0.99081851     -20.0557604
7.78                 0.990797968     -20.0860062
7.782                0.990777407     -20.1162508
7.784                0.990756827     -20.1464941
7.786                0.990738019     -20.1769279
7.788                  0.9907192     -20.2073603
7.79                 0.990700372     -20.2377913
7.792                0.990681533      -20.268221
