! TOUCHSTONE file generated by CST DESIGN STUDIO
! Date and time: Mon Feb 10 16:45:30 2025
! Project name: C:\Work\MatlabApps\UnitCellType2OptimizationMatlab\CST\unitcell.cst
! Tree item: Tasks\Sweep1\SPara1\S-Parameters
! Header version: 2024
! Port assignment regex: !\s*Touchstone port\s*([0-9]+)\s*=\s*(CST MWS port|CST DES external port|CST DES block port)\s*(.+)\s* \(\"(.*)\"\)(\s*mode\s*([0-9]+))?.*
! Touchstone port assignment:
! Touchstone port 1 = CST DES external port 1 ("")
# GHz S MA R 50
7                    0.989709597     -9.86367147
7.002                0.989729145      -9.8817694
7.004                0.989748595     -9.89986237
7.006                0.989767946     -9.91795043
7.008                0.989787199     -9.93603361
7.01                   0.9898108     -9.95425211
7.012                0.989834311     -9.97246541
7.014                0.989857732     -9.99067355
7.016                0.989881064     -10.0088766
7.018                0.989908436     -10.0272467
7.02                 0.989935726     -10.0456112
7.022                0.989962937     -10.0639703
7.024                0.989990067      -10.082324
7.026                0.990020832     -10.1008726
7.028                0.990051526     -10.1194155
7.03                 0.990082149     -10.1379524
7.032                0.990112704     -10.1564836
7.034                0.990146462     -10.1752341
7.036                 0.99018016     -10.1939783
7.038                0.990213798     -10.2127164
7.04                 0.990247377     -10.2314483
7.042                0.990283699     -10.2504204
7.044                0.990319972      -10.269386
7.046                0.990356194     -10.2883451
7.048                0.990392367     -10.3072978
7.05                 0.990430831     -10.3265071
7.052                0.990469253     -10.3457097
7.054                0.990507634     -10.3649055
7.056                0.990545974     -10.3840945
7.058                0.990586135     -10.4035556
7.06                 0.990626261     -10.4230096
7.062                0.990666354     -10.4424566
7.064                0.990706414     -10.4618967
7.066                0.990747809     -10.4816212
7.068                0.990789178     -10.5013386
7.07                 0.990830521     -10.5210487
7.072                0.990871838     -10.5407516
7.074                0.990914011     -10.5607465
7.076                0.990956166      -10.580734
7.078                0.990998301      -10.600714
7.08                 0.991040419     -10.6206868
7.082                0.991082891     -10.6409591
7.084                0.991125353     -10.6612239
7.086                0.991167803     -10.6814811
7.088                0.991210243     -10.7017309
7.09                 0.991252546     -10.7222817
7.092                0.991294847     -10.7428248
7.094                0.991337145     -10.7633602
7.096                0.991379441      -10.783888
7.098                0.991421062     -10.8047232
7.1                   0.99146269     -10.8255507
7.102                0.991504325     -10.8463705
7.104                0.991545967     -10.8671826
7.106                0.991586436     -10.8882934
7.108                0.991626921     -10.9093965
7.11                 0.991667421     -10.9304918
7.112                0.991707936     -10.9515795
7.114                0.991746725     -10.9729644
7.116                0.991785538     -10.9943417
7.118                0.991824374     -11.0157113
7.12                 0.991863234     -11.0370733
7.122                0.991899899     -11.0587171
7.124                0.991936595     -11.0803534
7.126                0.991973322     -11.1019823
7.128                 0.99201008     -11.1236037
7.13                 0.992044125      -11.145496
7.132                0.992078206     -11.1673809
7.134                0.992112324     -11.1892587
7.136                0.992146478     -11.2111293
7.138                0.992177493     -11.2332519
7.14                 0.992208549     -11.2553677
7.142                0.992239645     -11.2774765
7.144                0.992270781     -11.2995786
7.146                0.992298387      -11.321909
7.148                0.992326036     -11.3442329
7.15                 0.992353727     -11.3665503
7.152                0.992381459     -11.3888614
7.154                0.992405348     -11.4113746
7.156                0.992429278     -11.4338816
7.158                0.992453249     -11.4563827
7.16                  0.99247726     -11.4788778
7.162                0.992497166     -11.5015465
7.164                 0.99251711     -11.5242095
7.166                 0.99253709      -11.546867
7.168                0.992557105     -11.5695188
7.17                 0.992572854     -11.5923171
7.172                0.992588632     -11.6151101
7.174                0.992604438     -11.6378978
7.176                 0.99262027     -11.6606803
7.178                0.992631806     -11.6835733
7.18                 0.992643362     -11.7064611
7.182                0.992654935     -11.7293438
7.184                0.992666525     -11.7522214
7.186                0.992673859     -11.7751783
7.188                0.992681204     -11.7981302
7.19                 0.992688558     -11.8210768
7.192                 0.99269592     -11.8440181
7.194                0.992699147     -11.8670112
7.196                0.992702379     -11.8899991
7.198                0.992705614     -11.9129816
7.2                  0.992708854     -11.9359588
7.202                0.992708195     -11.9589611
7.204                 0.99270754     -11.9819584
7.206                0.992706889     -12.0049504
7.208                0.992706242     -12.0279372
7.21                 0.992701987     -12.0509305
7.212                0.992697736     -12.0739192
7.214                 0.99269349     -12.0969032
7.216                0.992689251     -12.1198825
7.218                0.992681674     -12.1428484
7.22                 0.992674098     -12.1658106
7.222                0.992666525      -12.188769
7.224                0.992658956     -12.2117236
7.226                0.992648325      -12.234653
7.228                0.992637686     -12.2575798
7.23                 0.992627039     -12.2805038
7.232                0.992616383     -12.3034251
7.234                0.992602907     -12.3263074
7.236                0.992589406     -12.3491879
7.238                0.992575878     -12.3720664
7.24                 0.992562323      -12.394943
7.242                0.992546156       -12.41777
7.244                0.992529942     -12.4405956
7.246                0.992513682     -12.4634196
7.248                0.992497374     -12.4862419
7.25                 0.992478658     -12.5090038
7.252                0.992459876     -12.5317642
7.254                0.992441028     -12.5545229
7.256                0.992422116     -12.5772799
7.258                0.992401052     -12.5999568
7.26                 0.992379908     -12.6226319
7.262                0.992358686      -12.645305
7.264                0.992337388     -12.6679761
7.266                0.992314196     -12.6905548
7.268                0.992290918     -12.7131313
7.27                 0.992267555     -12.7357055
7.272                 0.99224411     -12.7582773
7.274                0.992219132     -12.7807386
7.276                0.992194067     -12.8031973
7.278                0.992168917     -12.8256533
7.28                 0.992143685     -12.8481067
7.282                0.992117337     -12.8704378
7.284                0.992090906      -12.892766
7.286                0.992064396     -12.9150914
7.288                 0.99203781     -12.9374141
7.29                 0.992010617     -12.9596019
7.292                0.991983352      -12.981787
7.294                0.991956017     -13.0039695
7.296                0.991928615     -13.0261496
7.298                0.991901137     -13.0481909
7.3                  0.991873599     -13.0702301
7.302                0.991845999     -13.0922672
7.304                0.991818341     -13.1143025
7.306                0.991791238     -13.1361964
7.308                0.991764082     -13.1580891
7.31                 0.991736871     -13.1799807
7.312                0.991709606     -13.2018712
7.314                0.991683448     -13.2236306
7.316                0.991657238     -13.2453897
7.318                0.991630974     -13.2671487
7.32                 0.991604656     -13.2889075
7.322                0.991579974     -13.3105519
7.324                0.991555235     -13.3321968
7.326                0.991530439     -13.3538424
7.328                0.991505584     -13.3754886
7.33                 0.991482841     -13.3970364
7.332                0.991460035     -13.4185853
7.334                0.991437165     -13.4401353
7.336                0.991414231     -13.4616863
7.338                0.991393761     -13.4831663
7.34                 0.991373222     -13.5046475
7.342                0.991352614       -13.52613
7.344                0.991331936     -13.5476136
7.346                 0.99131403      -13.569049
7.348                0.991296052     -13.5904855
7.35                 0.991278002     -13.6119231
7.352                0.991259881     -13.6333617
7.354                0.991244691     -13.6547835
7.356                0.991229431      -13.676206
7.358                0.991214102     -13.6976294
7.36                 0.991198702     -13.7190534
7.362                0.991186377     -13.7404857
7.364                0.991173987     -13.7619185
7.366                0.991161532     -13.7833517
7.368                0.991149013     -13.8047853
7.37                 0.991139579     -13.8262545
7.372                0.991130087     -13.8477238
7.374                0.991120539     -13.8691932
7.376                0.991110934     -13.8906629
7.378                0.991104386     -13.9121945
7.38                 0.991097791      -13.933726
7.382                0.991091149     -13.9552575
7.384                 0.99108446     -13.9767889
7.386                0.991080761     -13.9984009
7.388                0.991077024     -14.0200127
7.39                  0.99107325     -14.0416243
7.392                0.991069438     -14.0632356
7.394                0.991068502     -14.0849527
7.396                0.991067538     -14.1066694
7.398                0.991066547     -14.1283857
7.4                  0.991065529     -14.1501017
7.402                0.991067243     -14.1719419
7.404                 0.99106894     -14.1937816
7.406                0.991070619      -14.215621
7.408                0.991072281     -14.2374599
7.41                 0.991076586     -14.2594363
7.412                0.991080884     -14.2814123
7.414                0.991085174     -14.3033879
7.416                0.991089456      -14.325363
7.418                0.991096246     -14.3474943
7.42                 0.991103037     -14.3696252
7.422                 0.99110983     -14.3917556
7.424                0.991116624     -14.4138857
7.426                0.991125795     -14.4361866
7.428                0.991134975     -14.4584871
7.43                 0.991144165     -14.4807872
7.432                0.991153364     -14.5030869
7.434                0.991164829     -14.5255754
7.436                0.991176312     -14.5480635
7.438                 0.99118781     -14.5705513
7.44                 0.991199325     -14.5930388
7.442                0.991212984     -14.6157299
7.444                0.991226666     -14.6384207
7.446                0.991240371     -14.6611112
7.448                0.991254097     -14.6838014
7.45                 0.991269783     -14.7067151
7.452                0.991285497     -14.7296285
7.454                0.991301238     -14.7525415
7.456                0.991317007     -14.7754543
7.458                0.991334531      -14.798606
7.46                 0.991352087     -14.8217574
7.462                0.991369676     -14.8449084
7.464                0.991387297     -14.8680591
7.466                0.991406427     -14.8914718
7.468                0.991425594     -14.9148841
7.47                 0.991444798      -14.938296
7.472                0.991464038     -14.9617075
7.474                0.991484447     -14.9853955
7.476                0.991504896      -15.009083
7.478                0.991525387     -15.0327699
7.48                 0.991545918     -15.0564562
7.482                0.991567245     -15.0804364
7.484                0.991588617     -15.1044158
7.486                0.991610033     -15.1283946
7.488                0.991631494     -15.1523725
7.49                 0.991653337     -15.1766528
7.492                0.991675229     -15.2009323
7.494                0.991697168     -15.2252108
7.496                0.991719154     -15.2494884
7.498                 0.99174105     -15.2740766
7.5                  0.991762995     -15.2986638
7.502                0.991784991     -15.3232499
7.504                0.991807037      -15.347835
7.506                 0.99182852      -15.372737
7.508                0.991850055     -15.3976379
7.51                 0.991871642     -15.4225376
7.512                 0.99189328     -15.4474362
7.514                0.991913875     -15.4726459
7.516                0.991934522     -15.4978543
7.518                0.991955223     -15.5230614
7.52                 0.991975976     -15.5482673
7.522                0.991995238     -15.5737786
7.524                0.992014553     -15.5992885
7.526                0.992033923      -15.624797
7.528                0.992053347     -15.6503043
7.53                 0.992070868     -15.6761061
7.532                0.992088444     -15.7019066
7.534                0.992106075     -15.7277057
7.536                 0.99212376     -15.7535035
7.538                0.992139203     -15.7795765
7.54                 0.992154701     -15.8056481
7.542                0.992170254     -15.8317186
7.544                0.992185861     -15.8577877
7.546                0.992198947     -15.8841174
7.548                0.992212085     -15.9104459
7.55                 0.992225277     -15.9367733
7.552                0.992238522     -15.9630995
7.554                0.992249076     -15.9896656
7.556                 0.99225968     -16.0162307
7.558                0.992270333     -16.0427947
7.56                 0.992281037     -16.0693578
7.562                 0.99228892     -16.0961417
7.564                0.992296848     -16.1229248
7.566                0.992304822     -16.1497071
7.568                 0.99231284     -16.1764886
7.57                 0.992318025     -16.2034685
7.572                0.992323248     -16.2304479
7.574                0.992328511     -16.2574266
7.576                0.992333812     -16.2844047
7.578                0.992336266     -16.3115693
7.58                  0.99233875     -16.3387335
7.582                0.992341266     -16.3658973
7.584                0.992343814     -16.3930606
7.586                0.992343589     -16.4203907
7.588                0.992343387     -16.4477206
7.59                 0.992343208     -16.4750501
7.592                0.992343054     -16.5023793
7.594                0.992340198     -16.5298659
7.596                0.992337357     -16.5573523
7.598                0.992334533     -16.5848386
7.6                  0.992331724     -16.6123246
7.602                0.992326285     -16.6399541
7.604                0.992320855     -16.6675836
7.606                0.992315433      -16.695213
7.608                0.992310018     -16.7228423
7.61                 0.992302053     -16.7506055
7.612                0.992294089     -16.7783688
7.614                0.992286124     -16.8061321
7.616                 0.99227816     -16.8338955
7.618                0.992267688     -16.8617854
7.62                 0.992257208     -16.8896755
7.622                0.992246719     -16.9175657
7.624                0.992236222      -16.945456
7.626                0.992223325     -16.9734626
7.628                0.992210412     -17.0014693
7.63                 0.992197481     -17.0294762
7.632                0.992184533     -17.0574833
7.634                0.992169211     -17.0855944
7.636                0.992153862     -17.1137057
7.638                0.992138487     -17.1418173
7.64                 0.992123086     -17.1699291
7.642                0.992105413     -17.1981339
7.644                0.992087706     -17.2263389
7.646                0.992069963     -17.2545442
7.648                0.992052185     -17.2827498
7.65                 0.992032218     -17.3110335
7.652                0.992012208     -17.3393175
7.654                0.991992154     -17.3676018
7.656                0.991972058     -17.3958863
7.658                0.991949928     -17.4242379
7.66                 0.991927748     -17.4525897
7.662                0.991905518     -17.4809418
7.664                 0.99188324     -17.5092941
7.666                0.991859158     -17.5376975
7.668                0.991835021     -17.5661011
7.67                  0.99181083     -17.5945049
7.672                0.991786585     -17.6229089
7.674                0.991760749     -17.6513491
7.676                0.991734855     -17.6797895
7.678                0.991708903     -17.7082301
7.68                 0.991682891     -17.7366709
7.682                0.991655641     -17.7651373
7.684                0.991628328     -17.7936039
7.686                0.991600953     -17.8220707
7.688                0.991573516     -17.8505377
7.69                 0.991545202     -17.8790194
7.692                0.991516823     -17.9075014
7.694                0.991488379     -17.9359836
7.696                0.991459869     -17.9644661
7.698                0.991430922     -17.9929623
7.7                  0.991401907     -18.0214587
7.702                0.991372823     -18.0499553
7.704                0.991343672     -18.0784522
7.706                0.991314522     -18.1069596
7.708                0.991285301     -18.1354673
7.71                 0.991256011     -18.1639751
7.712                0.991226651     -18.1924832
7.714                0.991197762     -18.2210068
7.716                0.991168802     -18.2495305
7.718                0.991139772     -18.2780544
7.72                 0.991110672     -18.3065784
7.722                0.991082445     -18.3351263
7.724                0.991054149     -18.3636742
7.726                0.991025785     -18.3922221
7.728                0.990997352     -18.4207701
7.73                 0.990970218     -18.4493589
7.732                 0.99094302     -18.4779476
7.734                0.990915757     -18.5065362
7.736                 0.99088843     -18.5351248
7.738                0.990862693     -18.5637754
7.74                 0.990836897     -18.5924259
7.742                0.990811042     -18.6210762
7.744                0.990785128     -18.6497264
7.746                0.990761046     -18.6784567
7.748                0.990736911     -18.7071868
7.75                 0.990712725     -18.7359167
7.752                0.990688486     -18.7646464
7.754                0.990666273     -18.7934794
7.756                0.990644015     -18.8223121
7.758                0.990621713     -18.8511445
7.76                 0.990599367     -18.8799766
7.762                0.990579132     -18.9089363
7.764                0.990558861     -18.9378957
7.766                0.990538555     -18.9668547
7.768                0.990518213     -18.9958135
7.77                 0.990499971     -19.0249201
7.772                0.990481703     -19.0540262
7.774                0.990463408      -19.083132
7.776                0.990445087     -19.1122374
7.778                0.990428856     -19.1415129
7.78                  0.99041261     -19.1707879
7.782                0.990396347     -19.2000624
7.784                0.990380069     -19.2293363
7.786                0.990365834     -19.2587968
7.788                0.990351594     -19.2882566
7.79                 0.990337349     -19.3177158
7.792                0.990323101     -19.3471743
