! TOUCHSTONE file generated by CST DESIGN STUDIO
! Date and time: Mon Feb 10 16:45:27 2025
! Project name: C:\Work\MatlabApps\UnitCellType2OptimizationMatlab\CST\unitcell.cst
! Tree item: Tasks\Sweep1\SPara1\S-Parameters
! Header version: 2024
! Port assignment regex: !\s*Touchstone port\s*([0-9]+)\s*=\s*(CST MWS port|CST DES external port|CST DES block port)\s*(.+)\s* \(\"(.*)\"\)(\s*mode\s*([0-9]+))?.*
! Touchstone port assignment:
! Touchstone port 1 = CST DES external port 1 ("")
# GHz S MA R 50
7                    0.992761771     -11.6087829
7.002                0.992758963     -11.6256799
7.004                0.992756127     -11.6425772
7.006                0.992753264     -11.6594749
7.008                0.992750373      -11.676373
7.01                  0.99275112     -11.6933426
7.012                0.992751846     -11.7103126
7.014                0.992752551     -11.7272828
7.016                0.992753235     -11.7442534
7.018                0.992757486     -11.7613228
7.02                 0.992761724     -11.7783924
7.022                0.992765947     -11.7954622
7.024                0.992770156     -11.8125324
7.026                0.992777764     -11.8297277
7.028                0.992785365     -11.8469233
7.03                 0.992792958     -11.8641191
7.032                0.992800544     -11.8813151
7.034                0.992811333      -11.898661
7.036                 0.99282212      -11.916007
7.038                0.992832906     -11.9333531
7.04                 0.992843689     -11.9506994
7.042                0.992857428     -11.9682186
7.044                 0.99287117     -11.9857379
7.046                0.992884916     -12.0032571
7.048                0.992898665     -12.0207764
7.05                 0.992915105     -12.0384886
7.052                0.992931553     -12.0562006
7.054                0.992948009     -12.0739125
7.056                0.992964473     -12.0916244
7.058                0.992983313     -12.1095484
7.06                 0.993002166     -12.1274722
7.062                0.993021029     -12.1453958
7.064                0.993039905     -12.1633192
7.066                0.993060825     -12.1814729
7.068                0.993081761     -12.1996263
7.07                 0.993102713     -12.2177794
7.072                 0.99312368      -12.235932
7.074                0.993146335     -12.2543277
7.076                 0.99316901     -12.2727228
7.078                0.993191704     -12.2911173
7.08                 0.993214418     -12.3095114
7.082                0.993238428     -12.3281616
7.084                0.993262462     -12.3468111
7.086                0.993286519     -12.3654598
7.088                  0.9933106     -12.3841079
7.09                 0.993335595     -12.4030195
7.092                0.993360618     -12.4219302
7.094                0.993385669       -12.44084
7.096                0.993410749     -12.4597489
7.098                0.993436308     -12.4789343
7.1                    0.9934619     -12.4981186
7.102                0.993487524     -12.5173019
7.104                0.993513182     -12.5364841
7.106                0.993538903     -12.5559403
7.108                0.993564662     -12.5753953
7.11                 0.993590458     -12.5948491
7.112                0.993616292     -12.6143018
7.114                 0.99364174     -12.6340348
7.116                 0.99366723     -12.6537666
7.118                0.993692761     -12.6734971
7.12                 0.993718334     -12.6932264
7.122                0.993743115     -12.7132277
7.124                0.993767941     -12.7332277
7.126                0.993792812     -12.7532264
7.128                0.993817728     -12.7732238
7.13                 0.993841417      -12.793492
7.132                0.993865154     -12.8137588
7.134                0.993888939     -12.8340243
7.136                0.993912771     -12.8542883
7.138                0.993934999     -12.8748139
7.14                 0.993957276      -12.895338
7.142                0.993979603     -12.9158608
7.144                 0.99400198     -12.9363821
7.146                  0.9940224     -12.9571519
7.148                0.994042871     -12.9779203
7.15                 0.994063394     -12.9986873
7.152                0.994083968     -13.0194528
7.154                0.994102282     -13.0404525
7.156                0.994120648     -13.0614508
7.158                0.994139067     -13.0824477
7.16                 0.994157537     -13.1034433
7.162                0.994173472      -13.124657
7.164                 0.99418946     -13.1458694
7.166                0.994205499     -13.1670805
7.168                 0.99422159     -13.1882904
7.17                  0.99423493     -13.2097042
7.172                0.994248319      -13.231117
7.174                0.994261759     -13.2525287
7.176                0.994275249     -13.2739392
7.178                0.994285846     -13.2955308
7.18                 0.994296489     -13.3171216
7.182                 0.99430718     -13.3387114
7.184                0.994317918     -13.3603002
7.186                0.994325642     -13.3820511
7.188                0.994333409     -13.4038012
7.19                 0.994341219     -13.4255505
7.192                 0.99434907     -13.4472991
7.194                 0.99435382     -13.4691926
7.196                0.994358606     -13.4910855
7.198                0.994363428     -13.5129778
7.2                  0.994368287     -13.5348696
7.202                0.994370027     -13.5568867
7.204                0.994371797     -13.5789035
7.206                0.994373596     -13.6009199
7.208                0.994375425     -13.6229358
7.21                 0.994374157     -13.6450611
7.212                0.994372911     -13.6671861
7.214                0.994371687      -13.689311
7.216                0.994370484     -13.7114356
7.218                0.994366207     -13.7336475
7.22                 0.994361944     -13.7558594
7.222                0.994357695     -13.7780713
7.224                0.994353459      -13.800283
7.226                 0.99434624     -13.8225665
7.228                0.994339026     -13.8448501
7.23                 0.994331817     -13.8671337
7.232                0.994324614     -13.8894174
7.234                0.994314526     -13.9117526
7.236                0.994304436      -13.934088
7.238                0.994294342     -13.9564236
7.24                 0.994284246     -13.9787594
7.242                0.994271404      -14.001132
7.244                 0.99425855      -14.023505
7.246                0.994245686     -14.0458783
7.248                0.994232811     -14.0682518
7.25                 0.994217347     -14.0906474
7.252                0.994201863     -14.1130435
7.254                0.994186361     -14.1354399
7.256                 0.99417084     -14.1578368
7.258                0.994152943      -14.180235
7.26                 0.994135021     -14.2026337
7.262                0.994117071      -14.225033
7.264                0.994099095     -14.2474327
7.266                0.994078967     -14.2698221
7.268                0.994058805     -14.2922121
7.27                 0.994038609     -14.3146027
7.272                0.994018378     -14.3369939
7.274                0.993996284     -14.3593585
7.276                0.993974148     -14.3817237
7.278                0.993951972     -14.4040896
7.28                 0.993929754     -14.4264562
7.282                0.993905983     -14.4487865
7.284                0.993882165     -14.4711175
7.286                0.993858299     -14.4934492
7.288                0.993834386     -14.5157816
7.29                 0.993809279     -14.5380664
7.292                 0.99378412     -14.5603519
7.294                0.993758908     -14.5826381
7.296                0.993733644     -14.6049251
7.298                0.993707546     -14.6271592
7.3                  0.993681391     -14.6493941
7.302                 0.99365518     -14.6716298
7.304                0.993628913     -14.6938662
7.306                0.993602243     -14.7160423
7.308                0.993575513     -14.7382191
7.31                 0.993548724     -14.7603967
7.312                0.993521876      -14.782575
7.314                0.993495012     -14.8046956
7.316                0.993468087     -14.8268169
7.318                0.993441101      -14.848939
7.32                 0.993414054     -14.8710618
7.322                0.993387385     -14.8931323
7.324                0.993360655     -14.9152035
7.326                0.993333865     -14.9372754
7.328                0.993307013      -14.959348
7.33                 0.993280932     -14.9813715
7.332                0.993254791     -15.0033957
7.334                 0.99322859     -15.0254206
7.336                 0.99320233     -15.0474461
7.338                0.993177177     -15.0694372
7.34                 0.993151968     -15.0914289
7.342                0.993126701     -15.1134213
7.344                0.993101377     -15.1354142
7.346                0.993077484     -15.1573816
7.348                0.993053537     -15.1793495
7.35                 0.993029537      -15.201318
7.352                0.993005483      -15.223287
7.354                0.992983105     -15.2452507
7.356                0.992960679      -15.267215
7.358                0.992938204     -15.2891797
7.36                 0.992915681     -15.3111449
7.362                0.992895072     -15.3331186
7.364                 0.99287442     -15.3550928
7.366                0.992853726     -15.3770674
7.368                0.992832988     -15.3990425
7.37                 0.992814313     -15.4210448
7.372                0.992795601     -15.4430476
7.374                0.992776851     -15.4650508
7.376                0.992758064     -15.4870545
7.378                0.992741465     -15.5091052
7.38                 0.992724835     -15.5311564
7.382                0.992708173     -15.5532079
7.384                0.992691479     -15.5752599
7.386                0.992677058      -15.597372
7.388                 0.99266261     -15.6194844
7.39                 0.992648138     -15.6415973
7.392                0.992633639     -15.6637105
7.394                0.992621462     -15.6859065
7.396                0.992609266      -15.708103
7.398                 0.99259705     -15.7302998
7.4                  0.992584815      -15.752497
7.402                0.992574905      -15.774794
7.404                0.992564982     -15.7970913
7.406                0.992555044      -15.819389
7.408                0.992545094     -15.8416871
7.41                 0.992537511      -15.864098
7.412                0.992529921     -15.8865092
7.414                0.992522322     -15.9089208
7.416                0.992514717     -15.9313327
7.418                0.992509456     -15.9538772
7.42                 0.992504194      -15.976422
7.422                 0.99249893     -15.9989672
7.424                0.992493665     -16.0215126
7.426                0.992490715     -16.0442067
7.428                0.992487769     -16.0669011
7.43                 0.992484826     -16.0895957
7.432                0.992481888     -16.1122907
7.434                0.992481228     -16.1351532
7.436                0.992480578      -16.158016
7.438                0.992479937     -16.1808791
7.44                 0.992479306     -16.2037425
7.442                0.992480904      -16.226789
7.444                0.992482518     -16.2498357
7.446                0.992484146     -16.2728826
7.448                0.992485789     -16.2959298
7.45                  0.99248955     -16.3191803
7.452                 0.99249333     -16.3424311
7.454                0.992497131      -16.365682
7.456                0.992500952     -16.3889332
7.458                0.992506763     -16.4124033
7.46                   0.9925126     -16.4358736
7.462                0.992518462     -16.4593441
7.464                 0.99252435     -16.4828146
7.466                0.992532063     -16.5065276
7.468                0.992539807     -16.5302407
7.47                 0.992547582     -16.5539539
7.472                0.992555388     -16.5776672
7.474                0.992564775     -16.6016383
7.476                0.992574198     -16.6256095
7.478                0.992583657     -16.6495807
7.48                 0.992593151     -16.6735519
7.482                0.992603956     -16.6977994
7.484                  0.9926148     -16.7220468
7.486                0.992625685     -16.7462942
7.488                0.992636609     -16.7705415
7.49                 0.992648541     -16.7950756
7.492                0.992660517     -16.8196095
7.494                0.992672536     -16.8441434
7.496                0.992684599     -16.8686772
7.498                0.992697308     -16.8935099
7.5                  0.992710063     -16.9183425
7.502                0.992722863     -16.9431749
7.504                 0.99273571     -16.9680071
7.506                0.992748833     -16.9931496
7.508                0.992762003     -17.0182919
7.51                 0.992775222      -17.043434
7.512                0.992788488     -17.0685758
7.514                0.992801648     -17.0940282
7.516                0.992814858     -17.1194803
7.518                0.992828116     -17.1449321
7.52                 0.992841423     -17.1703836
7.522                0.992854251     -17.1961479
7.524                0.992867129     -17.2219119
7.526                0.992880057     -17.2476755
7.528                0.992893034     -17.2734388
7.53                  0.99290518     -17.2995131
7.532                0.992917376     -17.3255869
7.534                0.992929622     -17.3516604
7.536                0.992941917     -17.3777335
7.538                0.992953062     -17.4041069
7.54                 0.992964256     -17.4304799
7.542                0.992975499     -17.4568525
7.544                0.992986791     -17.4832248
7.546                0.992996651     -17.5098935
7.548                0.993006559     -17.5365618
7.55                 0.993016515     -17.5632298
7.552                0.993026519     -17.5898973
7.554                0.993034875     -17.6168498
7.556                0.993043277     -17.6438019
7.558                0.993051725     -17.6707536
7.56                 0.993060219     -17.6977049
7.562                0.993066869     -17.7249315
7.564                0.993073562     -17.7521578
7.566                0.993080298     -17.7793837
7.568                0.993087077     -17.8066093
7.57                 0.993091897      -17.834095
7.572                0.993096756     -17.8615805
7.574                0.993101653     -17.8890657
7.576                 0.99310659     -17.9165505
7.578                0.993109441     -17.9442909
7.58                 0.993112326     -17.9720311
7.582                0.993115245      -17.999771
7.584                0.993118198     -18.0275106
7.586                0.993119014     -18.0554904
7.588                0.993119859       -18.08347
7.59                 0.993120732     -18.1114493
7.592                0.993121635     -18.1394284
7.594                0.993120346     -18.1676418
7.596                0.993119081     -18.1958551
7.598                 0.99311784     -18.2240681
7.6                  0.993116622     -18.2522809
7.602                0.993113158     -18.2807163
7.604                0.993109711     -18.3091515
7.606                0.993106283     -18.3375865
7.608                0.993102873     -18.3660213
7.61                 0.993097183     -18.3946703
7.612                0.993091506     -18.4233191
7.614                0.993085841     -18.4519677
7.616                0.993080187      -18.480616
7.618                0.993072197     -18.5094721
7.62                 0.993064212      -18.538328
7.622                0.993056231     -18.5671837
7.624                0.993048256     -18.5960392
7.626                0.993037958     -18.6250917
7.628                0.993027657     -18.6541441
7.63                 0.993017354     -18.6831962
7.632                 0.99300705     -18.7122482
7.634                0.992994366     -18.7414837
7.636                0.992981673      -18.770719
7.638                0.992968969      -18.799954
7.64                 0.992956256     -18.8291889
7.642                  0.9929412     -18.8585973
7.644                0.992926126     -18.8880054
7.646                0.992911035     -18.9174133
7.648                0.992895926      -18.946821
7.65                 0.992878488     -18.9763869
7.652                0.992861025     -19.0059525
7.654                0.992843538     -19.0355178
7.656                0.992826025     -19.0650827
7.658                 0.99280627     -19.0947947
7.66                 0.992786483     -19.1245063
7.662                0.992766664     -19.1542174
7.664                0.992746814     -19.1839282
7.666                0.992724886     -19.2137709
7.668                0.992702921      -19.243613
7.67                 0.992680918     -19.2734547
7.672                0.992658877     -19.3032959
7.674                 0.99263489     -19.3332535
7.676                 0.99261086     -19.3632105
7.678                0.992586787     -19.3931669
7.68                  0.99256267     -19.4231228
7.682                0.992536879     -19.4531846
7.684                 0.99251104     -19.4832458
7.686                0.992485153     -19.5133063
7.688                0.992459219     -19.5433662
7.69                 0.992431873     -19.5735196
7.692                0.992404474     -19.6036723
7.694                0.992377024     -19.6338242
7.696                0.992349522     -19.6639754
7.698                0.992320956     -19.6942173
7.7                  0.992292334     -19.7244583
7.702                0.992263658     -19.7546984
7.704                0.992234926     -19.7849378
7.706                0.992205467     -19.8152617
7.708                0.992175951     -19.8455846
7.71                 0.992146378     -19.8759066
7.712                0.992116746     -19.9062277
7.714                0.992086769     -19.9366334
7.716                0.992056733     -19.9670381
7.718                0.992026638     -19.9974416
7.72                 0.991996485     -20.0278442
7.722                0.991966314     -20.0583337
7.724                0.991936086      -20.088822
7.726                0.991905799     -20.1193091
7.728                0.991875454      -20.149795
7.73                  0.99184545      -20.180378
7.732                0.991815391     -20.2109596
7.734                0.991785275     -20.2415399
7.736                0.991755103     -20.2721189
7.738                0.991725549     -20.3028088
7.74                 0.991695942     -20.3334972
7.742                0.991666283     -20.3641842
7.744                0.991636571     -20.3948697
7.746                0.991607709     -20.4256757
7.748                  0.9915788     -20.4564802
7.75                 0.991549841     -20.4872831
7.752                0.991520835     -20.5180844
7.754                0.991492912     -20.5490213
7.756                0.991464945     -20.5799565
7.758                0.991436935       -20.61089
7.76                 0.991408881     -20.6418219
7.762                 0.99138205     -20.6729069
7.764                 0.99135518     -20.7039901
7.766                0.991328273     -20.7350716
7.768                0.991301328     -20.7661514
7.77                 0.991275683      -20.797397
7.772                0.991250006     -20.8286409
7.774                0.991224297     -20.8598829
7.776                0.991198556     -20.8911231
7.778                0.991174216     -20.9225461
7.78                 0.991149851     -20.9539672
7.782                0.991125459     -20.9853863
7.784                0.991101042     -21.0168035
7.786                0.991078103     -21.0484169
7.788                0.991055144     -21.0800282
7.79                 0.991032167     -21.1116375
7.792                0.991009172     -21.1432447
