! TOUCHSTONE file generated by CST DESIGN STUDIO
! Date and time: Mon Feb 10 16:45:25 2025
! Project name: C:\Work\MatlabApps\UnitCellType2OptimizationMatlab\CST\unitcell.cst
! Tree item: Tasks\Sweep1\SPara1\S-Parameters
! Header version: 2024
! Port assignment regex: !\s*Touchstone port\s*([0-9]+)\s*=\s*(CST MWS port|CST DES external port|CST DES block port)\s*(.+)\s* \(\"(.*)\"\)(\s*mode\s*([0-9]+))?.*
! Touchstone port assignment:
! Touchstone port 1 = CST DES external port 1 ("")
# GHz S MA R 50
7                    0.993765494     -12.2572876
7.002                0.993756465     -12.2742883
7.004                 0.99374741     -12.2912895
7.006                0.993738328     -12.3082914
7.008                0.993729221     -12.3252939
7.01                 0.993723362      -12.342346
7.012                0.993717483     -12.3593987
7.014                0.993711584      -12.376452
7.016                0.993705665     -12.3935059
7.018                0.993703005     -12.4106337
7.02                 0.993700331     -12.4277621
7.022                0.993697643      -12.444891
7.024                0.993694942     -12.4620204
7.026                0.993695414     -12.4792483
7.028                0.993695879     -12.4964766
7.03                 0.993696336     -12.5137055
7.032                0.993696787     -12.5309348
7.034                0.993700303      -12.548286
7.036                0.993703818     -12.5656376
7.038                0.993707332     -12.5829896
7.04                 0.993710845     -12.6003421
7.042                0.993717263     -12.6178387
7.044                0.993723686     -12.6353357
7.046                0.993730114     -12.6528331
7.048                0.993736546     -12.6703308
7.05                 0.993745705     -12.6879926
7.052                0.993754874     -12.7056546
7.054                0.993764052      -12.723317
7.056                 0.99377324     -12.7409797
7.058                0.993784921     -12.7588264
7.06                 0.993796616     -12.7766734
7.062                0.993808325     -12.7945206
7.064                0.993820049      -12.812368
7.066                0.993834014     -12.8304191
7.068                0.993847997     -12.8484705
7.07                    0.993862     -12.8665219
7.072                0.993876022     -12.8845736
7.074                0.993891998     -12.9028433
7.076                0.993907997     -12.9211131
7.078                 0.99392402     -12.9393829
7.08                 0.993940066     -12.9576529
7.082                0.993957739     -12.9761563
7.084                0.993975439     -12.9946596
7.086                0.993993167     -13.0131629
7.088                0.994010923     -13.0316662
7.09                 0.994029984     -13.0504128
7.092                0.994049077     -13.0691594
7.094                0.994068202     -13.0879057
7.096                0.994087358      -13.106652
7.098                0.994107441     -13.1256577
7.1                   0.99412756     -13.1446631
7.102                0.994147715     -13.1636684
7.104                0.994167907     -13.1826734
7.106                0.994188652     -13.2019383
7.108                0.994209436     -13.2212029
7.11                 0.994230261     -13.2404672
7.112                0.994251126     -13.2597311
7.114                0.994272144     -13.2792653
7.116                0.994293206     -13.2987991
7.118                 0.99431431     -13.3183325
7.12                 0.994335459     -13.3378655
7.122                0.994356382     -13.3576641
7.124                0.994377351     -13.3774622
7.126                0.994398367     -13.3972599
7.128                0.994419429      -13.417057
7.13                  0.99443986     -13.4371231
7.132                0.994460341     -13.4571887
7.134                 0.99448087     -13.4772537
7.136                0.994501448     -13.4973182
7.138                0.994521031     -13.5176466
7.14                 0.994540664     -13.5379744
7.142                0.994560348     -13.5583016
7.144                0.994580081     -13.5786283
7.146                0.994598473     -13.5992103
7.148                0.994616915     -13.6197918
7.15                 0.994635409     -13.6403727
7.152                0.994653954      -13.660953
7.154                0.994670845      -13.681779
7.156                0.994687788     -13.7026043
7.158                0.994704783     -13.7234291
7.16                 0.994721829     -13.7442534
7.162                 0.99473693     -13.7653117
7.164                0.994752081     -13.7863694
7.166                0.994767284     -13.8074267
7.168                0.994782537     -13.8284834
7.17                   0.9947956     -13.8497645
7.172                0.994808711     -13.8710451
7.174                0.994821873     -13.8923252
7.176                0.994835083     -13.9136049
7.178                0.994845919     -13.9350899
7.18                 0.994856802     -13.9565745
7.182                0.994867732     -13.9780588
7.184                0.994878708     -13.9995427
7.186                0.994887142     -14.0212162
7.188                0.994895619     -14.0428895
7.19                 0.994904138     -14.0645626
7.192                  0.9949127     -14.0862354
7.194                 0.99491858     -14.1080838
7.196                0.994924497     -14.1299321
7.198                0.994930452     -14.1517803
7.2                  0.994936445     -14.1736283
7.202                 0.99493968     -14.1956351
7.204                0.994942946     -14.2176418
7.206                0.994946245     -14.2396486
7.208                0.994949576     -14.2616553
7.21                 0.994950108     -14.2838067
7.212                0.994950665     -14.3059582
7.214                0.994951248     -14.3281099
7.216                0.994951856     -14.3502616
7.218                0.994949625     -14.3725375
7.22                 0.994947411     -14.3948137
7.222                0.994945216     -14.4170901
7.224                0.994943039     -14.4393666
7.226                0.994938052     -14.4617531
7.228                0.994933075       -14.48414
7.23                  0.99492811     -14.5065271
7.232                0.994923155     -14.5289145
7.234                0.994915423     -14.5513921
7.236                0.994907694     -14.5738702
7.238                0.994899968     -14.5963486
7.24                 0.994892245     -14.6188274
7.242                0.994881827     -14.6413824
7.244                0.994871404     -14.6639378
7.246                0.994860976     -14.6864938
7.248                0.994850544     -14.7090501
7.25                 0.994837516     -14.7316679
7.252                0.994824475     -14.7542862
7.254                0.994811421      -14.776905
7.256                0.994798356     -14.7995243
7.258                0.994782847     -14.8221841
7.26                 0.994767319     -14.8448445
7.262                 0.99475177     -14.8675055
7.264                0.994736202     -14.8901671
7.266                0.994718361     -14.9128571
7.268                0.994700494     -14.9355477
7.27                 0.994682599      -14.958239
7.272                0.994664678     -14.9809308
7.274                0.994644713     -15.0036341
7.276                0.994624715     -15.0263381
7.278                0.994604683     -15.0490427
7.28                 0.994584617     -15.0717479
7.282                0.994562765     -15.0944541
7.284                0.994540872     -15.1171609
7.286                0.994518939     -15.1398684
7.288                0.994496966     -15.1625765
7.29                 0.994473509     -15.1852727
7.292                0.994450007     -15.2079696
7.294                0.994426459     -15.2306671
7.296                0.994402867     -15.2533653
7.298                0.994378099     -15.2760447
7.3                  0.994353282     -15.2987248
7.302                0.994328415     -15.3214054
7.304                0.994303499     -15.3440867
7.306                0.994277784     -15.3667392
7.308                0.994252016     -15.3893924
7.31                 0.994226195     -15.4120461
7.312                0.994200322     -15.4347003
7.314                0.994173994     -15.4573259
7.316                0.994147611      -15.479952
7.318                0.994121174     -15.5025787
7.32                 0.994094682     -15.5252058
7.322                0.994068091     -15.5478063
7.324                0.994041445     -15.5704073
7.326                0.994014743     -15.5930087
7.328                0.993987986     -15.6156107
7.33                 0.993961492     -15.6381853
7.332                0.993934943     -15.6607604
7.334                0.993908339      -15.683336
7.336                 0.99388168     -15.7059119
7.338                0.993855609     -15.7284715
7.34                 0.993829483     -15.7510315
7.342                0.993803305     -15.7735918
7.344                0.993777073     -15.7961525
7.346                0.993751741     -15.8187011
7.348                0.993726358     -15.8412499
7.35                 0.993700924     -15.8637991
7.352                 0.99367544     -15.8863486
7.354                0.993651113     -15.9089024
7.356                 0.99362674     -15.9314564
7.358                0.993602319     -15.9540107
7.36                  0.99357785     -15.9765653
7.362                0.993554795     -15.9991334
7.364                0.993531697     -16.0217017
7.366                0.993508556     -16.0442703
7.368                0.993485372     -16.0668391
7.37                 0.993463784     -16.0894365
7.372                0.993442157     -16.1120341
7.374                0.993420492     -16.1346319
7.376                0.993398787     -16.1572299
7.378                0.993378847     -16.1798729
7.38                 0.993358873     -16.2025162
7.382                0.993338864     -16.2251596
7.384                0.993318821     -16.2478032
7.386                0.993300674     -16.2705016
7.388                0.993282498     -16.2932001
7.39                 0.993264292     -16.3158989
7.392                0.993246057     -16.3385977
7.394                0.993229826     -16.3613721
7.396                 0.99321357     -16.3841466
7.398                0.993197291     -16.4069213
7.4                  0.993180987     -16.4296961
7.402                0.993166747     -16.4525616
7.404                0.993152489     -16.4754271
7.406                0.993138212     -16.4982929
7.408                0.993123916     -16.5211587
7.41                 0.993111784     -16.5441269
7.412                0.993099638     -16.5670952
7.414                0.993087479     -16.5900637
7.416                0.993075306     -16.6130322
7.418                 0.99306533     -16.6361223
7.42                 0.993055345     -16.6592124
7.422                0.993045353     -16.6823027
7.424                0.993035353      -16.705393
7.426                0.993027574     -16.7286206
7.428                0.993019792     -16.7518483
7.43                 0.993012007     -16.7750761
7.432                0.993004219      -16.798304
7.434                0.992998663     -16.8216881
7.436                0.992993109     -16.8450723
7.438                0.992987557     -16.8684565
7.44                 0.992982008     -16.8918408
7.442                0.992978687      -16.915397
7.444                0.992975374     -16.9389532
7.446                0.992972068     -16.9625094
7.448                0.992968771     -16.9860656
7.45                 0.992967633     -17.0098143
7.452                0.992966508     -17.0335629
7.454                0.992965396     -17.0573116
7.456                0.992964298     -17.0810603
7.458                0.992965275     -17.1050173
7.46                  0.99296627     -17.1289743
7.462                0.992967284     -17.1529313
7.464                0.992968316     -17.1768882
7.466                0.992971301     -17.2010775
7.468                 0.99297431     -17.2252667
7.47                 0.992977343     -17.2494559
7.472                0.992980399     -17.2736449
7.474                0.992985209     -17.2980825
7.476                0.992990047       -17.32252
7.478                0.992994914     -17.3469574
7.48                 0.992999809     -17.3713946
7.482                0.993006231     -17.3960996
7.484                0.993012687     -17.4208044
7.486                0.993019175     -17.4455091
7.488                0.993025696     -17.4702136
7.49                 0.993033489     -17.4951974
7.492                0.993041318      -17.520181
7.494                0.993049184     -17.5451643
7.496                0.993057086     -17.5701475
7.498                0.993065945      -17.595424
7.5                  0.993074843     -17.6207002
7.502                0.993083781     -17.6459762
7.504                0.993092758     -17.6712519
7.506                0.993102364     -17.6968344
7.508                0.993112012     -17.7224165
7.51                 0.993121702     -17.7479984
7.512                0.993131434     -17.7735799
7.514                0.993141454      -17.799471
7.516                0.993151519     -17.8253617
7.518                0.993161627      -17.851252
7.52                 0.993171779     -17.8771421
7.522                0.993181881      -17.903347
7.524                0.993192027     -17.9295515
7.526                0.993202219     -17.9557557
7.528                0.993212456     -17.9819594
7.53                 0.993222318       -18.00848
7.532                0.993232227         -18.035
7.534                 0.99324218     -18.0615197
7.536                 0.99325218     -18.0880389
7.538                0.993261501     -18.1148678
7.54                 0.993270867     -18.1416963
7.542                 0.99328028     -18.1685242
7.544                0.993289738     -18.1953518
7.546                0.993298241     -18.2224897
7.548                 0.99330679     -18.2496272
7.55                 0.993315385     -18.2767642
7.552                0.993324025     -18.3039008
7.554                0.993331485     -18.3313401
7.556                 0.99333899     -18.3587789
7.558                0.993346539     -18.3862173
7.56                 0.993354131     -18.4136553
7.562                0.993360332     -18.4413905
7.564                0.993366574     -18.4691253
7.566                0.993372857     -18.4968596
7.568                0.993379183     -18.5245935
7.57                 0.993383967     -18.5526131
7.572                0.993388789     -18.5806323
7.574                0.993393651      -18.608651
7.576                0.993398551     -18.6366693
7.578                0.993401744     -18.6649724
7.58                 0.993404972     -18.6932751
7.582                0.993408235     -18.7215774
7.584                0.993411533     -18.7498793
7.586                0.993413023     -18.7784531
7.588                0.993414544     -18.8070265
7.59                 0.993416097     -18.8355994
7.592                 0.99341768     -18.8641719
7.594                0.993417351      -18.893013
7.596                0.993417049     -18.9218536
7.598                0.993416774     -18.9506937
7.6                  0.993416525     -18.9795335
7.602                0.993414255     -19.0086317
7.604                0.993412007     -19.0377294
7.606                0.993409781     -19.0668267
7.608                0.993407576     -19.0959236
7.61                 0.993403267     -19.1252717
7.612                0.993398975     -19.1546193
7.614                0.993394698     -19.1839665
7.616                0.993390439     -19.2133133
7.618                0.993383969     -19.2429058
7.62                 0.993377509     -19.2724978
7.622                 0.99337106     -19.3020894
7.624                0.993364621     -19.3316805
7.626                0.993355938     -19.3615072
7.628                0.993347258     -19.3913334
7.63                 0.993338582     -19.4211591
7.632                0.993329909     -19.4509843
7.634                0.993318894     -19.4810316
7.636                0.993307876     -19.5110783
7.638                0.993296854     -19.5411245
7.64                 0.993285829     -19.5711702
7.642                0.993272459     -19.6014286
7.644                0.993259078     -19.6316864
7.646                0.993245687     -19.6619437
7.648                0.993232285     -19.6922005
7.65                 0.993216514     -19.7226546
7.652                0.993200725     -19.7531082
7.654                0.993184919     -19.7835611
7.656                0.993169095     -19.8140134
7.658                0.993150951     -19.8446518
7.66                 0.993132783     -19.8752896
7.662                0.993114591     -19.9059266
7.664                0.993096374      -19.936563
7.666                0.993075966     -19.9673708
7.668                0.993055527     -19.9981778
7.67                 0.993035058     -20.0289841
7.672                0.993014558     -20.0597895
7.674                0.992991957     -20.0907505
7.676                 0.99296932     -20.1217107
7.678                0.992946646       -20.15267
7.68                 0.992923936     -20.1836284
7.682                0.992899356     -20.2147321
7.684                0.992874736     -20.2458347
7.686                0.992850073     -20.2769365
7.688                0.992825369     -20.3080372
7.69                 0.992799013     -20.3392701
7.692                0.992772609      -20.370502
7.694                 0.99274616     -20.4017328
7.696                0.992719664     -20.4329626
7.698                0.992691821     -20.4643207
7.7                  0.992663927     -20.4956777
7.702                0.992635983     -20.5270335
7.704                0.992607989     -20.5583882
7.706                0.992578938     -20.5898639
7.708                0.992549834     -20.6213383
7.71                 0.992520676     -20.6528115
7.712                0.992491465     -20.6842834
7.714                0.992461536     -20.7158744
7.716                0.992431551      -20.747464
7.718                0.992401511     -20.7790521
7.72                 0.992371417      -20.810639
7.722                0.992340897     -20.8423446
7.724                0.992310322     -20.8740488
7.726                0.992279691     -20.9057514
7.728                0.992249004     -20.9374525
7.73                 0.992218217     -20.9692797
7.732                0.992187375     -21.0011052
7.734                0.992156477     -21.0329291
7.736                0.992125525     -21.0647513
7.738                0.992094738     -21.0967102
7.74                 0.992063897     -21.1286673
7.742                0.992033003     -21.1606226
7.744                0.992002056     -21.1925762
7.746                0.991971498     -21.2246723
7.748                0.991940889     -21.2567665
7.75                 0.991910229     -21.2888588
7.752                0.991879519     -21.3209493
7.754                0.991849441     -21.3531936
7.756                0.991819315     -21.3854358
7.758                0.991789143     -21.4176761
7.76                 0.991758923     -21.4499144
7.762                 0.99172949      -21.482321
7.764                0.991700013     -21.5147255
7.766                0.991670493     -21.5471279
7.768                0.991640929     -21.5795282
7.77                 0.991612265     -21.6121062
7.772                0.991583561      -21.644682
7.774                0.991554818     -21.6772555
7.776                0.991526036     -21.7098269
7.778                0.991498296       -21.74259
7.78                 0.991470521     -21.7753509
7.782                0.991442712     -21.8081094
7.784                0.991414868     -21.8408656
7.786                0.991388193     -21.8738252
7.788                0.991361489     -21.9067823
7.79                 0.991334755      -21.939737
7.792                0.991307991     -21.9726893
