! TOUCHSTONE file generated by CST DESIGN STUDIO
! Date and time: Mon Feb 10 16:45:32 2025
! Project name: C:\Work\MatlabApps\UnitCellType2OptimizationMatlab\CST\unitcell.cst
! Tree item: Tasks\Sweep1\SPara1\S-Parameters
! Header version: 2024
! Port assignment regex: !\s*Touchstone port\s*([0-9]+)\s*=\s*(CST MWS port|CST DES external port|CST DES block port)\s*(.+)\s* \(\"(.*)\"\)(\s*mode\s*([0-9]+))?.*
! Touchstone port assignment:
! Touchstone port 1 = CST DES external port 1 ("")
# GHz S MA R 50
7                     0.98729334     -8.66156341
7.002                0.987333073     -8.68171107
7.004                 0.98737259     -8.70184286
7.006                0.987411893     -8.72195887
7.008                0.987450984     -8.74205922
7.01                 0.987494721     -8.76233558
7.012                0.987538258     -8.78259574
7.014                0.987581594      -8.8028398
7.016                0.987624733     -8.82306791
7.018                0.987672043     -8.84350621
7.02                 0.987719167     -8.86392788
7.022                0.987766108     -8.88433305
7.024                0.987812866     -8.90472183
7.026                0.987863225     -8.92534923
7.028                0.987913417      -8.9459596
7.03                 0.987963442     -8.96655303
7.032                0.988013302     -8.98712966
7.034                 0.98806617     -9.00796805
7.036                0.988118888     -9.02878903
7.038                0.988171456     -9.04959269
7.04                 0.988223877     -9.07037918
7.042                0.988278702     -9.09144608
7.044                0.988333393     -9.11249527
7.046                0.988387951     -9.13352687
7.048                0.988442378     -9.15454103
7.05                 0.988498628     -9.17584884
7.052                0.988554758     -9.19713874
7.054                 0.98861077     -9.21841087
7.056                0.988666665     -9.23966535
7.058                 0.98872381     -9.26122508
7.06                 0.988780849     -9.28276683
7.062                0.988837781     -9.30429069
7.064                0.988894609     -9.32579678
7.066                0.988952104     -9.34761532
7.068                0.989009504     -9.36941581
7.07                 0.989066809     -9.39119834
7.072                 0.98912402     -9.41296303
7.074                0.989181349     -9.43504294
7.076                0.989238594     -9.45710473
7.078                0.989295755     -9.47914851
7.08                 0.989352833     -9.50117442
7.082                0.989409471      -9.5235182
7.084                0.989466036     -9.54584383
7.086                0.989522529     -9.56815145
7.088                0.989578951     -9.59044117
7.09                 0.989634385     -9.61304488
7.092                0.989689759     -9.63563047
7.094                0.989745075     -9.65819805
7.096                0.989800332     -9.68074773
7.098                0.989854021     -9.70361235
7.1                  0.989907665     -9.72645896
7.102                0.989961263     -9.74928764
7.104                0.990014817      -9.7720985
7.106                0.990066279      -9.7952105
7.108                0.990117708     -9.81830462
7.11                 0.990169106     -9.84138095
7.112                0.990220473      -9.8644396
7.114                0.990269157     -9.88779195
7.116                0.990317822     -9.91112664
7.118                0.990366469     -9.93444377
7.12                 0.990415097     -9.95774347
7.122                0.990460572     -9.98131626
7.124                 0.99050604     -10.0048717
7.126                0.990551501     -10.0284099
7.128                0.990596955     -10.0519309
7.13                 0.990638726     -10.0757075
7.132                  0.9906805     -10.0994672
7.134                0.990722278     -10.1232099
7.136                 0.99076406     -10.1469359
7.138                0.990801747     -10.1708931
7.14                 0.990839446     -10.1948338
7.142                0.990877159     -10.2187581
7.144                0.990914886      -10.242666
7.146                 0.99094815     -10.2667756
7.148                0.990981436     -10.2908693
7.15                 0.991014744     -10.3149471
7.152                0.991048074      -10.339009
7.154                0.991076669     -10.3632405
7.156                0.991105292     -10.3874567
7.158                0.991133944     -10.4116577
7.16                 0.991162625     -10.4358435
7.162                0.991186361     -10.4601651
7.164                0.991210131     -10.4844721
7.166                0.991233933     -10.5087646
7.168                0.991257769     -10.5330428
7.17                 0.991276563     -10.5574249
7.172                0.991295392     -10.5817933
7.174                0.991314254     -10.6061481
7.176                 0.99133315     -10.6304893
7.178                0.991347047     -10.6548948
7.18                 0.991360976     -10.6792874
7.182                0.991374935     -10.7036674
7.184                0.991388926     -10.7280347
7.186                0.991398033     -10.7524319
7.188                0.991407163     -10.7768172
7.19                 0.991416319     -10.8011908
7.192                0.991425499     -10.8255526
7.194                0.991429981     -10.8499132
7.196                0.991434477     -10.8742629
7.198                0.991438989     -10.8986018
7.2                  0.991443515     -10.9229298
7.202                0.991443646     -10.9472266
7.204                 0.99144378     -10.9715134
7.206                0.991443919     -10.9957902
7.208                0.991444061      -11.020057
7.21                 0.991440171     -11.0442701
7.212                0.991436273     -11.0684739
7.214                0.991432368     -11.0926685
7.216                0.991428454     -11.1168539
7.218                0.991420878     -11.1409611
7.22                 0.991413282     -11.1650598
7.222                0.991405667     -11.1891501
7.224                0.991398034     -11.2132319
7.226                0.991387143      -11.237219
7.228                0.991376224     -11.2611983
7.23                 0.991365275     -11.2851699
7.232                0.991354297     -11.3091337
7.234                0.991340481     -11.3329872
7.236                0.991326627     -11.3568336
7.238                0.991312735     -11.3806729
7.24                 0.991298805     -11.4045052
7.242                 0.99128242     -11.4282166
7.244                0.991265988     -11.4519216
7.246                0.991249511     -11.4756203
7.248                0.991232989     -11.4993126
7.25                 0.991214396     -11.5228773
7.252                0.991195749     -11.5464363
7.254                0.991177049     -11.5699896
7.256                0.991158297     -11.5935373
7.258                0.991137879     -11.6169444
7.26                 0.991117401     -11.6403465
7.262                0.991096863     -11.6637438
7.264                0.991076267     -11.6871362
7.266                0.991054361     -11.7103843
7.268                0.991032388     -11.7336284
7.27                 0.991010349     -11.7568685
7.272                0.990988244     -11.7801045
7.274                0.990965235     -11.8031879
7.276                0.990942151     -11.8262682
7.278                0.990918992     -11.8493453
7.28                 0.990895761     -11.8724193
7.282                0.990872019      -11.895338
7.284                0.990848194     -11.9182543
7.286                0.990824284     -11.9411684
7.288                0.990800292     -11.9640804
7.29                 0.990776227     -11.9868315
7.292                0.990752066     -12.0095812
7.294                 0.99072781     -12.0323294
7.296                0.990703458     -12.0550765
7.298                0.990679452     -12.0776622
7.3                  0.990655337     -12.1002471
7.302                0.990631112     -12.1228313
7.304                0.990606776      -12.145415
7.306                0.990583318     -12.1678344
7.308                0.990559735     -12.1902535
7.31                 0.990536027     -12.2126722
7.312                0.990512191     -12.2350907
7.314                0.990489712     -12.2573506
7.316                0.990467094     -12.2796099
7.318                0.990444336     -12.3018689
7.32                 0.990421436     -12.3241274
7.322                0.990400429     -12.3462381
7.324                0.990379276     -12.3683478
7.326                0.990357974     -12.3904565
7.328                0.990336522      -12.412564
7.33                 0.990317531     -12.4345343
7.332                0.990298396     -12.4565027
7.334                0.990279115     -12.4784691
7.336                0.990259687     -12.5004334
7.338                0.990243233     -12.5222849
7.34                 0.990226651     -12.5441336
7.342                 0.99020994     -12.5659795
7.344                0.990193101     -12.5878223
7.346                0.990179757     -12.6095794
7.348                0.990166311     -12.6313334
7.35                 0.990152766     -12.6530842
7.352                0.990139123     -12.6748319
7.354                0.990129312     -12.6965345
7.356                 0.99011943     -12.7182346
7.358                0.990109478     -12.7399324
7.36                 0.990099457     -12.7616279
7.362                0.990093523     -12.7833197
7.364                0.990087537     -12.8050105
7.366                0.990081497     -12.8267006
7.368                0.990075402     -12.8483899
7.37                 0.990073379     -12.8701209
7.372                0.990071299     -12.8918527
7.374                 0.99006916     -12.9135853
7.376                0.990066959     -12.9353188
7.378                0.990068641     -12.9571371
7.38                 0.990070245      -12.978957
7.382                0.990071766     -13.0007786
7.384                0.990073199     -13.0226018
7.386                0.990078193     -13.0445401
7.388                0.990083077     -13.0664798
7.39                 0.990087848     -13.0884206
7.392                0.990092503     -13.1103621
7.394                0.990100292     -13.1324477
7.396                0.990107949      -13.154533
7.398                0.990115475     -13.1766174
7.4                  0.990122868     -13.1987006
7.402                0.990132964     -13.2209432
7.404                0.990142927     -13.2431828
7.406                0.990152759      -13.265419
7.408                0.990162466     -13.2876513
7.41                 0.990174571     -13.3100478
7.412                0.990186567     -13.3324386
7.414                0.990198459     -13.3548235
7.416                0.990210255     -13.3772023
7.418                0.990224202     -13.3997522
7.42                 0.990238083     -13.4222946
7.422                0.990251907     -13.4448294
7.424                 0.99026568     -13.4673567
7.426                0.990281461     -13.4900585
7.428                0.990297231     -13.5127523
7.43                 0.990312995     -13.5354381
7.432                0.990328759     -13.5581163
7.434                0.990346496      -13.580979
7.436                0.990364271     -13.6038343
7.438                0.990382086     -13.6266828
7.44                 0.990399946     -13.6495245
7.442                 0.99041976     -13.6725623
7.444                0.990439646     -13.6955944
7.446                0.990459604     -13.7186212
7.448                0.990479634     -13.7416431
7.45                 0.990501531     -13.7648817
7.452                0.990523514     -13.7881165
7.454                0.990545582      -13.811348
7.456                0.990567731     -13.8345763
7.458                0.990591598     -13.8580405
7.46                 0.990615549     -13.8815026
7.462                0.990639583     -13.9049627
7.464                0.990663696      -13.928421
7.466                0.990689285     -13.9521437
7.468                0.990714949     -13.9758652
7.47                 0.990740685     -13.9995856
7.472                 0.99076649     -14.0233049
7.474                0.990793382     -14.0473076
7.476                0.990820334     -14.0713094
7.478                0.990847346     -14.0953104
7.48                 0.990874415     -14.1193104
7.482                0.990902115     -14.1436145
7.484                0.990929866     -14.1679176
7.486                0.990957665     -14.1922194
7.488                0.990985512     -14.2165201
7.49                  0.99101347     -14.2411349
7.492                0.991041472     -14.2657481
7.494                0.991069515     -14.2903595
7.496                0.991097601     -14.3149693
7.498                0.991125211     -14.3399003
7.5                   0.99115286      -14.364829
7.502                 0.99118055     -14.3897555
7.504                 0.99120828     -14.4146797
7.506                0.991234957     -14.4399287
7.508                0.991261676      -14.465175
7.51                 0.991288436     -14.4904185
7.512                0.991315237     -14.5156591
7.514                 0.99134041     -14.5412142
7.516                0.991365627      -14.566766
7.518                0.991390888     -14.5923146
7.52                 0.991416195     -14.6178599
7.522                0.991439358     -14.6437077
7.524                0.991462571      -14.669552
7.526                0.991485833     -14.6953928
7.528                0.991509144     -14.7212302
7.53                 0.991529861      -14.747352
7.532                0.991550633     -14.7734702
7.534                0.991571458      -14.799585
7.536                0.991592337     -14.8256963
7.538                0.991610281     -14.8520657
7.54                 0.991628282     -14.8784317
7.542                0.991646342     -14.9047944
7.544                0.991664459     -14.9311537
7.546                0.991679382     -14.9577487
7.548                0.991694365     -14.9843407
7.55                 0.991709407     -15.0109296
7.552                0.991724508     -15.0375154
7.554                0.991736304     -15.0643101
7.556                0.991748157     -15.0911021
7.558                0.991760068     -15.1178916
7.56                 0.991772037     -15.1446784
7.562                0.991780643     -15.1716493
7.564                0.991789301     -15.1986181
7.566                0.991798013     -15.2255848
7.568                0.991806777     -15.2525494
7.57                 0.991812259      -15.279672
7.572                0.991817785     -15.3067929
7.574                0.991823357     -15.3339123
7.576                0.991828973     -15.3610299
7.578                0.991831386     -15.3882906
7.58                 0.991833834     -15.4155501
7.582                0.991836316     -15.4428084
7.584                0.991838833     -15.4700655
7.586                0.991838315      -15.497445
7.588                0.991837821     -15.5248236
7.59                  0.99183735     -15.5522013
7.592                0.991836903     -15.5795782
7.594                0.991833575     -15.6070677
7.596                 0.99183026     -15.6345566
7.598                0.991826958     -15.6620449
7.6                  0.991823668     -15.6895325
7.602                0.991817642     -15.7171196
7.604                0.991811619     -15.7447062
7.606                0.991805597     -15.7722924
7.608                0.991799576     -15.7998782
7.61                 0.991790956      -15.827555
7.612                0.991782327     -15.8552314
7.614                0.991773688     -15.8829076
7.616                0.991765041     -15.9105835
7.618                 0.99175388     -15.9383439
7.62                 0.991742699     -15.9661043
7.622                0.991731498     -15.9938644
7.624                0.991720278     -16.0216244
7.626                0.991706687     -16.0494598
7.628                0.991693066      -16.077295
7.63                 0.991679415     -16.1051302
7.632                0.991665734     -16.1329652
7.634                0.991649733     -16.1608648
7.636                0.991633691     -16.1887643
7.638                0.991617609     -16.2166638
7.64                 0.991601486     -16.2445632
7.642                0.991583163     -16.2725157
7.644                0.991564791     -16.3004681
7.646                0.991546368     -16.3284205
7.648                0.991527897      -16.356373
7.65                 0.991507327     -16.3843638
7.652                  0.9914867     -16.4123546
7.654                0.991466017     -16.4403455
7.656                0.991445277     -16.4683362
7.658                0.991422618     -16.4963543
7.66                 0.991399897     -16.5243723
7.662                0.991377114     -16.5523903
7.664                0.991354268     -16.5804083
7.666                0.991329763     -16.6084364
7.668                0.991305192     -16.6364646
7.67                 0.991280554     -16.6644928
7.672                0.991255851      -16.692521
7.674                0.991229744     -16.7205444
7.676                0.991203569     -16.7485679
7.678                0.991177325     -16.7765915
7.68                 0.991151011     -16.8046153
7.682                 0.99112369     -16.8326231
7.684                0.991096297     -16.8606311
7.686                0.991068832     -16.8886394
7.688                0.991041296     -16.9166479
7.69                 0.991013173     -16.9446303
7.692                0.990984976     -16.9726131
7.694                0.990956705     -17.0005964
7.696                0.990928359       -17.02858
7.698                0.990899921     -17.0565376
7.7                  0.990871406     -17.0844957
7.702                0.990842814     -17.1124544
7.704                0.990814145     -17.1404135
7.706                0.990785881     -17.1683453
7.708                0.990757538     -17.1962776
7.71                 0.990729115     -17.2242105
7.712                0.990700613     -17.2521441
7.714                0.990673038     -17.2800582
7.716                0.990645383     -17.3079729
7.718                0.990617648     -17.3358883
7.72                 0.990589833     -17.3638042
7.722                0.990563385     -17.3917128
7.724                0.990536859     -17.4196219
7.726                0.990510255     -17.4475316
7.728                0.990483572     -17.4754419
7.73                 0.990458717      -17.503366
7.732                0.990433787     -17.5312906
7.734                0.990408784     -17.5592158
7.736                0.990383705     -17.5871414
7.738                0.990360748     -17.6151065
7.74                 0.990337722     -17.6430721
7.742                0.990314627     -17.6710382
7.744                0.990291465     -17.6990047
7.746                0.990270658      -17.727034
7.748                0.990249791     -17.7550636
7.75                 0.990228863     -17.7830937
7.752                0.990207875     -17.8111241
7.754                0.990189403     -17.8392449
7.756                0.990170879      -17.867366
7.758                0.990152304     -17.8954875
7.76                 0.990133678     -17.9236094
7.762                0.990117609     -17.9518496
7.764                0.990101499     -17.9800901
7.766                0.990085348     -18.0083309
7.768                0.990069156      -18.036572
7.77                 0.990055449     -18.0649555
7.772                0.990041712     -18.0933393
7.774                0.990027945     -18.1217232
7.776                0.990014148     -18.1501073
7.778                0.990002755     -18.1786586
7.78                 0.989991345       -18.20721
7.782                0.989979917     -18.2357615
7.784                0.989968472     -18.2643129
7.786                0.989959308     -18.2930489
7.788                 0.98995014     -18.3217847
7.79                 0.989940969     -18.3505204
7.792                0.989931796      -18.379256
