! TOUCHSTONE file generated by CST DESIGN STUDIO
! Date and time: Mon Feb 10 16:42:50 2025
! Project name: C:\Work\MatlabApps\UnitCellType2OptimizationMatlab\CST\unitcell.cst
! Tree item: Tasks\Sweep1\SPara1\S-Parameters
! Header version: 2024
! Port assignment regex: !\s*Touchstone port\s*([0-9]+)\s*=\s*(CST MWS port|CST DES external port|CST DES block port)\s*(.+)\s* \(\"(.*)\"\)(\s*mode\s*([0-9]+))?.*
! Touchstone port assignment:
! Touchstone port 1 = CST DES external port 1 ("")
# GHz S MA R 50
7                    0.995249626     -13.4466624
7.002                0.995232833     -13.4643437
7.004                0.995216008     -13.4820254
7.006                0.995199151     -13.4997076
7.008                0.995182262     -13.5173902
7.01                 0.995167312     -13.5351175
7.012                0.995152334     -13.5528452
7.014                0.995137329     -13.5705734
7.016                0.995122295      -13.588302
7.018                 0.99510916     -13.6060862
7.02                 0.995096001     -13.6238707
7.022                0.995082818     -13.6416557
7.024                0.995069611     -13.6594411
7.026                0.995058266     -13.6772889
7.028                0.995046901     -13.6951372
7.03                 0.995035516     -13.7129858
7.032                0.995024111     -13.7308348
7.034                0.995014605     -13.7487518
7.036                0.995005083     -13.7666692
7.038                0.994995546      -13.784587
7.04                 0.994985993      -13.802505
7.042                0.994978402     -13.8204987
7.044                  0.9949708     -13.8384928
7.046                0.994963187     -13.8564872
7.048                0.994955564     -13.8744819
7.05                 0.994949996     -13.8925623
7.052                0.994944421     -13.9106431
7.054                0.994938841     -13.9287241
7.056                0.994933254     -13.9468055
7.058                0.994929793     -13.9649887
7.06                 0.994926331     -13.9831723
7.062                0.994922867     -14.0013562
7.064                0.994919403     -14.0195403
7.066                0.994918053     -14.0378445
7.068                0.994916706     -14.0561489
7.07                 0.994915364     -14.0744537
7.072                0.994914026     -14.0927587
7.074                0.994914746     -14.1111995
7.076                0.994915476     -14.1296405
7.078                0.994916214     -14.1480818
7.08                 0.994916961     -14.1665233
7.082                0.994919606     -14.1851164
7.084                0.994922265     -14.2037097
7.086                0.994924937     -14.2223032
7.088                0.994927622     -14.2408969
7.09                 0.994932009     -14.2596563
7.092                0.994936413     -14.2784158
7.094                0.994940835     -14.2971755
7.096                0.994945274     -14.3159354
7.098                0.994951213       -14.33487
7.1                  0.994957173     -14.3538048
7.102                0.994963155     -14.3727398
7.104                0.994969158     -14.3916749
7.106                0.994976481     -14.4107881
7.108                0.994983829     -14.4299015
7.11                 0.994991202     -14.4490149
7.112                  0.9949986     -14.4681285
7.114                0.995007182     -14.4874274
7.116                0.995015792     -14.5067263
7.118                0.995024431     -14.5260253
7.12                 0.995033098     -14.5453245
7.122                0.995042858     -14.5648126
7.124                0.995052651     -14.5843009
7.126                0.995062475     -14.6037892
7.128                 0.99507233     -14.6232776
7.13                 0.995083189     -14.6429587
7.132                0.995094083     -14.6626398
7.134                0.995105012     -14.6823209
7.136                0.995115976     -14.7020021
7.138                0.995127828     -14.7218887
7.14                 0.995139717     -14.7417754
7.142                0.995151645      -14.761662
7.144                 0.99516361     -14.7815487
7.146                0.995176331     -14.8016492
7.148                0.995189092     -14.8217497
7.15                 0.995201894     -14.8418501
7.152                0.995214736     -14.8619506
7.154                0.995228122     -14.8822729
7.156                 0.99524155     -14.9025952
7.158                0.995255021     -14.9229174
7.16                 0.995268535     -14.9432397
7.162                0.995282368     -14.9637891
7.164                0.995296246     -14.9843385
7.166                0.995310169     -15.0048878
7.168                0.995324136     -15.0254371
7.17                 0.995338183     -15.0462194
7.172                0.995352276     -15.0670016
7.174                0.995366414     -15.0877838
7.176                0.995380599      -15.108566
7.178                0.995394626     -15.1295797
7.18                 0.995408699     -15.1505934
7.182                0.995422819      -15.171607
7.184                0.995436986     -15.1926206
7.186                0.995450806      -15.213862
7.188                0.995464673     -15.2351033
7.19                 0.995478587     -15.2563445
7.192                0.995492548     -15.2775857
7.194                0.995506006     -15.2990545
7.196                 0.99551951     -15.3205233
7.198                0.995533061     -15.3419921
7.2                  0.995546659     -15.3634608
7.202                0.995559616     -15.3851544
7.204                0.995572619     -15.4068481
7.206                0.995585668     -15.4285417
7.208                0.995598763     -15.4502352
7.21                 0.995611087      -15.472152
7.212                0.995623457     -15.4940688
7.214                0.995635872     -15.5159855
7.216                0.995648333     -15.5379022
7.218                0.995659878     -15.5600446
7.22                 0.995671467     -15.5821869
7.222                0.995683101     -15.6043292
7.224                0.995694778     -15.6264715
7.226                0.995705405     -15.6488346
7.228                0.995716073     -15.6711976
7.23                 0.995726785     -15.6935606
7.232                0.995737538     -15.7159236
7.234                0.995747067     -15.7385047
7.236                0.995756635     -15.7610858
7.238                0.995766244     -15.7836669
7.24                 0.995775893     -15.8062481
7.242                0.995784157     -15.8290432
7.244                0.995792458     -15.8518384
7.246                0.995800797     -15.8746336
7.248                0.995809173     -15.8974288
7.25                 0.995816025     -15.9204316
7.252                0.995822911     -15.9434345
7.254                0.995829831     -15.9664375
7.256                0.995836785     -15.9894406
7.258                0.995842101     -16.0126457
7.26                 0.995847448     -16.0358509
7.262                0.995852825     -16.0590562
7.264                0.995858232     -16.0822617
7.266                0.995861946     -16.1056579
7.268                0.995865686     -16.1290543
7.27                 0.995869454     -16.1524508
7.272                0.995873247     -16.1758475
7.274                0.995875277     -16.1994265
7.276                0.995877329     -16.2230057
7.278                0.995879404     -16.2465851
7.28                 0.995881502     -16.2701647
7.282                0.995881817     -16.2939259
7.284                 0.99588215     -16.3176874
7.286                0.995882502      -16.341449
7.288                0.995882873     -16.3652109
7.29                 0.995881413      -16.389144
7.292                0.995879967     -16.4130774
7.294                0.995878535      -16.437011
7.296                0.995877117     -16.4609449
7.298                0.995873815     -16.4850457
7.3                  0.995870522     -16.5091467
7.302                0.995867239      -16.533248
7.304                0.995863965     -16.5573496
7.306                0.995858761     -16.5816083
7.308                0.995853562     -16.6058674
7.31                 0.995848367     -16.6301267
7.312                0.995843177     -16.6543863
7.314                0.995836043     -16.6787936
7.316                0.995828909     -16.7032013
7.318                0.995821774     -16.7276093
7.32                 0.995814638     -16.7520176
7.322                 0.99580555     -16.7765665
7.324                0.995796457     -16.8011158
7.326                0.995787358     -16.8256655
7.328                0.995778253     -16.8502155
7.33                 0.995767259     -16.8748927
7.332                0.995756254     -16.8995702
7.334                0.995745239     -16.9242482
7.336                0.995734213     -16.9489265
7.338                0.995721377     -16.9737247
7.34                 0.995708526     -16.9985232
7.342                0.995695659     -17.0233222
7.344                0.995682777     -17.0481216
7.346                0.995668216     -17.0730294
7.348                0.995653636     -17.0979376
7.35                 0.995639036     -17.1228463
7.352                0.995624416     -17.1477554
7.354                0.995608233     -17.1727783
7.356                0.995592026     -17.1978016
7.358                0.995575795     -17.2228254
7.36                 0.995559539     -17.2478497
7.362                0.995541792     -17.2729772
7.364                0.995524016     -17.2981053
7.366                0.995506212     -17.3232338
7.368                 0.99548838     -17.3483628
7.37                 0.995469141     -17.3735933
7.372                 0.99544987     -17.3988242
7.374                0.995430567     -17.4240556
7.376                0.995411232     -17.4492875
7.378                 0.99539051     -17.4746203
7.38                 0.995369752     -17.4999537
7.382                0.995348958     -17.5252875
7.384                0.995328129     -17.5506218
7.386                0.995306001     -17.5760417
7.388                0.995283834     -17.6014621
7.39                 0.995261628      -17.626883
7.392                0.995239381     -17.6523043
7.394                0.995215904     -17.6778125
7.396                0.995192383     -17.7033211
7.398                 0.99516882     -17.7288303
7.4                  0.995145213     -17.7543399
7.402                0.995120526     -17.7799249
7.404                0.995095793     -17.8055104
7.406                0.995071014     -17.8310964
7.408                 0.99504619     -17.8566829
7.41                 0.995020507      -17.882335
7.412                0.994994777     -17.9079877
7.414                0.994968998     -17.9336408
7.416                0.994943171     -17.9592944
7.418                 0.99491672     -17.9850151
7.42                 0.994890219     -18.0107363
7.422                0.994863667      -18.036458
7.424                0.994837066     -18.0621801
7.426                0.994810117     -18.0879666
7.428                0.994783117     -18.1137536
7.43                 0.994756065      -18.139541
7.432                0.994728962     -18.1653289
7.434                  0.9947017     -18.1911914
7.436                0.994674386     -18.2170543
7.438                0.994647019     -18.2429177
7.44                 0.994619601     -18.2687815
7.442                0.994592169     -18.2947249
7.444                0.994564685     -18.3206687
7.446                0.994537148     -18.3466129
7.448                0.994509559     -18.3725576
7.45                  0.99448206     -18.3985855
7.452                0.994454508     -18.4246137
7.454                0.994426904     -18.4506424
7.456                0.994399247     -18.4766715
7.458                0.994371712     -18.5027913
7.46                 0.994344123     -18.5289115
7.462                0.994316483      -18.555032
7.464                0.994288789     -18.5811529
7.466                0.994261264     -18.6073648
7.468                0.994233686      -18.633577
7.47                 0.994206056     -18.6597895
7.472                0.994178374     -18.6860025
7.474                0.994150963     -18.7123053
7.476                  0.9941235     -18.7386084
7.478                0.994095986     -18.7649119
7.48                 0.994068419     -18.7912158
7.482                0.994041297     -18.8176041
7.484                0.994014124     -18.8439928
7.486                0.993986901     -18.8703817
7.488                0.993959626      -18.896771
7.49                 0.993933049      -18.923247
7.492                0.993906423     -18.9497232
7.494                0.993879747     -18.9761998
7.496                0.993853022     -19.0026767
7.498                0.993827263     -19.0292459
7.5                  0.993801457     -19.0558153
7.502                0.993775603     -19.0823851
7.504                0.993749703     -19.1089551
7.506                0.993725011     -19.1356344
7.508                0.993700274     -19.1623141
7.51                 0.993675494     -19.1889939
7.512                 0.99365067     -19.2156741
7.514                0.993627229     -19.2424755
7.516                0.993603747     -19.2692772
7.518                0.993580224     -19.2960791
7.52                  0.99355666     -19.3228812
7.522                0.993534554     -19.3498258
7.524                 0.99351241     -19.3767706
7.526                0.993490229     -19.4037156
7.528                 0.99346801     -19.4306608
7.53                 0.993447182     -19.4577638
7.532                 0.99342632     -19.4848669
7.534                0.993405423     -19.5119701
7.536                0.993384492     -19.5390736
7.538                0.993364871     -19.5663434
7.54                 0.993345219     -19.5936133
7.542                0.993325536     -19.6208834
7.544                0.993305821     -19.6481536
7.546                0.993287324     -19.6755997
7.548                0.993268798     -19.7030458
7.55                 0.993250244      -19.730492
7.552                0.993231662     -19.7579383
7.554                0.993214263     -19.7855628
7.556                0.993196839     -19.8131873
7.558                0.993179389     -19.8408119
7.56                 0.993161914     -19.8684365
7.562                 0.99314573     -19.8962358
7.564                0.993129524     -19.9240351
7.566                0.993113295     -19.9518344
7.568                0.993097045     -19.9796337
7.57                  0.99308224     -20.0076144
7.572                0.993067417      -20.035595
7.574                0.993052576     -20.0635757
7.576                0.993037716     -20.0915564
7.578                0.993024491     -20.1197341
7.58                 0.993011252     -20.1479119
7.582                0.992997998     -20.1760897
7.584                0.992984731     -20.2042675
7.586                0.992973288     -20.2326533
7.588                0.992961836     -20.2610391
7.59                 0.992950374     -20.2894248
7.592                0.992938903     -20.3178105
7.594                0.992929243     -20.3464368
7.596                0.992919578     -20.3750631
7.598                0.992909909     -20.4036893
7.6                  0.992900236     -20.4323155
7.602                0.992892296     -20.4611982
7.604                0.992884357     -20.4900807
7.606                0.992876418     -20.5189632
7.608                0.992868479     -20.5478455
7.61                 0.992862027     -20.5770064
7.612                0.992855579     -20.6061671
7.614                0.992849135     -20.6353277
7.616                0.992842694     -20.6644881
7.618                0.992837455     -20.6939437
7.62                 0.992832224     -20.7233991
7.622                   0.992827     -20.7528544
7.624                0.992821783     -20.7823093
7.626                0.992817496     -20.8120574
7.628                0.992813219     -20.8418053
7.63                 0.992808952     -20.8715529
7.632                0.992804695     -20.9013002
7.634                0.992801205     -20.9313406
7.636                0.992797727     -20.9613806
7.638                0.992794262     -20.9914204
7.64                  0.99279081     -21.0214599
7.642                0.992788091     -21.0517905
7.644                0.992785388     -21.0821208
7.646                  0.9927827     -21.1124508
7.648                0.992780027     -21.1427805
7.65                 0.992778157     -21.1733997
7.652                0.992776305     -21.2040186
7.654                0.992774471     -21.2346371
7.656                0.992772656     -21.2652553
7.658                0.992771768     -21.2961775
7.66                 0.992770902     -21.3270993
7.662                0.992770058     -21.3580208
7.664                0.992769236      -21.388942
7.666                0.992769425     -21.4201838
7.668                 0.99276964     -21.4514252
7.67                 0.992769879     -21.4826663
7.672                0.992770144     -21.5139069
7.674                0.992771322     -21.5454902
7.676                0.992772529     -21.5770731
7.678                0.992773765     -21.6086555
7.68                 0.992775029     -21.6402376
7.682                0.992776965     -21.6721792
7.684                0.992778933     -21.7041204
7.686                0.992780932     -21.7360611
7.688                0.992782962     -21.7680014
7.69                 0.992785318     -21.8003269
7.692                0.992787708     -21.8326519
7.694                 0.99279013     -21.8649765
7.696                0.992792585     -21.8973005
7.698                0.992794936      -21.930007
7.7                  0.992797321      -21.962713
7.702                0.992799739     -21.9954185
7.704                 0.99280219     -22.0281234
7.706                0.992804144     -22.0612107
7.708                0.992806132     -22.0942974
7.71                 0.992808152     -22.1273835
7.712                0.992810205     -22.1604691
7.714                0.992811553     -22.1939239
7.716                0.992812933     -22.2273781
7.718                0.992814345     -22.2608317
7.72                  0.99281579     -22.2942846
7.722                0.992816456     -22.3280962
7.724                0.992817154     -22.3619072
7.726                0.992817884     -22.3957175
7.728                0.992818644     -22.4295272
7.73                 0.992818731     -22.4636924
7.732                0.992818848      -22.497857
7.734                0.992818996      -22.532021
7.736                0.992819175     -22.5661843
7.738                0.992818821     -22.6007046
7.74                 0.992818497     -22.6352243
7.742                0.992818203     -22.6697434
7.744                 0.99281794     -22.7042619
7.746                0.992817183     -22.7391475
7.748                0.992816456     -22.7740324
7.75                 0.992815759     -22.8089168
7.752                0.992815092     -22.8438005
7.754                0.992813916     -22.8790714
7.756                 0.99281277     -22.9143417
7.758                0.992811654     -22.9496113
7.76                 0.992810567     -22.9848803
7.762                 0.99280871     -23.0205548
7.764                0.992806881     -23.0562287
7.766                0.992805081     -23.0919019
7.768                0.992803309     -23.1275745
7.77                 0.992800378     -23.1636599
7.772                0.992797473     -23.1997447
7.774                0.992794593     -23.2358288
7.776                 0.99279174     -23.2719122
7.778                0.992787285     -23.3084078
7.78                 0.992782852     -23.3449027
7.782                0.992778441      -23.381397
7.784                0.992774051     -23.4178905
7.786                0.992767732     -23.4547855
7.788                 0.99276143     -23.4916797
7.79                 0.992755145     -23.5285731
7.792                0.992748877     -23.5654659
