! TOUCHSTONE file generated by CST DESIGN STUDIO
! Date and time: Mon Feb 10 16:42:57 2025
! Project name: C:\Work\MatlabApps\UnitCellType2OptimizationMatlab\CST\unitcell.cst
! Tree item: Tasks\Sweep1\SPara1\S-Parameters
! Header version: 2024
! Port assignment regex: !\s*Touchstone port\s*([0-9]+)\s*=\s*(CST MWS port|CST DES external port|CST DES block port)\s*(.+)\s* \(\"(.*)\"\)(\s*mode\s*([0-9]+))?.*
! Touchstone port assignment:
! Touchstone port 1 = CST DES external port 1 ("")
# GHz S MA R 50
7                    0.991970387     -11.2350641
7.002                0.991970357     -11.2518221
7.004                  0.9919703     -11.2685795
7.006                0.991970215     -11.2853363
7.008                0.991970104     -11.3020927
7.01                 0.991973185     -11.3189427
7.012                0.991976243     -11.3357924
7.014                0.991979279     -11.3526419
7.016                0.991982293     -11.3694914
7.018                0.991988103     -11.3864605
7.02                 0.991993889     -11.4034297
7.022                0.991999652     -11.4203987
7.024                 0.99200539     -11.4373678
7.026                0.992013477     -11.4544674
7.028                 0.99202154     -11.4715668
7.03                 0.992029578      -11.488666
7.032                0.992037593     -11.5057648
7.034                 0.99204764      -11.522993
7.036                0.992057667     -11.5402208
7.038                0.992067673      -11.557448
7.04                  0.99207766     -11.5746747
7.042                0.992089531     -11.5920259
7.044                0.992101386     -11.6093765
7.046                0.992113228     -11.6267265
7.048                0.992125056     -11.6440759
7.05                 0.992138808     -11.6615478
7.052                0.992152552      -11.679019
7.054                0.992166286     -11.6964895
7.056                0.992180013     -11.7139593
7.058                0.992195792       -11.73156
7.06                  0.99221157     -11.7491598
7.062                0.992227346     -11.7667588
7.064                0.992243122     -11.7843569
7.066                0.992261031     -11.8021036
7.068                0.992278949     -11.8198493
7.07                 0.992296875     -11.8375939
7.072                0.992314809     -11.8553375
7.074                0.992334878     -11.8732536
7.076                0.992354963     -11.8911686
7.078                0.992375067     -11.9090827
7.08                 0.992395187     -11.9269958
7.082                0.992417214     -11.9451087
7.084                0.992439262     -11.9632207
7.086                0.992461331     -11.9813319
7.088                0.992483421     -11.9994423
7.09                 0.992506993     -12.0177758
7.092                0.992530585     -12.0361085
7.094                0.992554198     -12.0544403
7.096                0.992577831     -12.0727712
7.098                0.992602433     -12.0913367
7.1                  0.992627056     -12.1099011
7.102                0.992651699     -12.1284644
7.104                0.992676364     -12.1470266
7.106                0.992701513     -12.1658204
7.108                0.992726686      -12.184613
7.11                 0.992751884     -12.2034041
7.112                0.992777106     -12.2221939
7.114                0.992802447     -12.2412093
7.116                0.992827817     -12.2602233
7.118                0.992853216     -12.2792359
7.12                 0.992878645      -12.298247
7.122                0.992904001      -12.317473
7.124                0.992929389     -12.3366975
7.126                0.992954811     -12.3559206
7.128                0.992980264     -12.3751422
7.13                 0.993005559     -12.3945686
7.132                 0.99303089     -12.4139935
7.134                0.993056256      -12.433417
7.136                0.993081658      -12.452839
7.138                0.993106852     -12.4724683
7.14                 0.993132086      -12.492096
7.142                0.993157361     -12.5117222
7.144                0.993182675     -12.5313468
7.146                0.993207741     -12.5511832
7.148                0.993232852      -12.571018
7.15                 0.993258008     -12.5908512
7.152                0.993283208     -12.6106827
7.154                0.993308001     -12.6307341
7.156                0.993332842     -12.6507839
7.158                0.993357731     -12.6708321
7.16                 0.993382669     -12.6908788
7.162                0.993406923     -12.7111532
7.164                0.993431225     -12.7314262
7.166                0.993455578     -12.7516976
7.168                0.993479979     -12.7719675
7.17                 0.993503351     -12.7924696
7.172                0.993526772     -12.8129702
7.174                0.993550241     -12.8334693
7.176                0.993573758     -12.8539668
7.178                 0.99359586     -12.8746902
7.18                 0.993618009      -12.895412
7.182                0.993640205     -12.9161322
7.184                0.993662449     -12.9368508
7.186                0.993682995     -12.9577813
7.188                0.993703587     -12.9787103
7.19                 0.993724226     -12.9996377
7.192                0.993744912     -13.0205636
7.194                0.993763695     -13.0416883
7.196                0.993782524     -13.0628116
7.198                0.993801399     -13.0839335
7.2                   0.99382032      -13.105054
7.202                0.993837242     -13.1263578
7.204                0.993854209     -13.1476604
7.206                0.993871221     -13.1689616
7.208                0.993888277     -13.1902616
7.21                  0.99390331     -13.2117334
7.212                0.993918386      -13.233204
7.214                0.993933505     -13.2546733
7.216                0.993948667     -13.2761414
7.218                0.993961772      -13.297776
7.22                 0.993974919     -13.3194094
7.222                0.993988108     -13.3410416
7.224                0.994001339     -13.3626727
7.226                0.994012507     -13.3844624
7.228                0.994023716     -13.4062509
7.23                 0.994034966     -13.4280384
7.232                0.994046257     -13.4498248
7.234                0.994055376      -13.471766
7.236                0.994064534     -13.4937061
7.238                 0.99407373     -13.5156453
7.24                 0.994082964     -13.5375835
7.242                0.994089902     -13.5596705
7.244                0.994096874     -13.5817565
7.246                0.994103879     -13.6038418
7.248                0.994110919     -13.6259261
7.25                 0.994115529     -13.6481489
7.252                0.994120167     -13.6703709
7.254                0.994124833     -13.6925921
7.256                0.994129529     -13.7148125
7.258                 0.99413169     -13.7371587
7.26                 0.994133873     -13.7595043
7.262                 0.99413608     -13.7818492
7.264                0.994138309     -13.8041935
7.266                0.994138032     -13.8266452
7.268                0.994137773     -13.8490964
7.27                 0.994137529     -13.8715471
7.272                0.994137302     -13.8939973
7.274                 0.99413461     -13.9165388
7.276                0.994131927       -13.93908
7.278                0.994129255     -13.9616208
7.28                 0.994126593     -13.9841613
7.282                0.994121586      -14.006787
7.284                0.994116583     -14.0294125
7.286                0.994111586     -14.0520378
7.288                0.994106593     -14.0746629
7.29                 0.994099374     -14.0973606
7.292                0.994092154     -14.1200582
7.294                0.994084935     -14.1427556
7.296                0.994077715     -14.1654529
7.298                0.994068339     -14.1882189
7.3                  0.994058958     -14.2109848
7.302                0.994049571     -14.2337507
7.304                0.994040179     -14.2565165
7.306                0.994028695     -14.2793422
7.308                0.994017199     -14.3021679
7.31                 0.994005693     -14.3249937
7.312                0.993994174     -14.3478195
7.314                0.993980601     -14.3706974
7.316                 0.99396701     -14.3935753
7.318                0.993953401     -14.4164534
7.32                 0.993939775     -14.4393316
7.322                0.993924139     -14.4622527
7.324                0.993908478     -14.4851739
7.326                0.993892794     -14.5080954
7.328                0.993877087     -14.5310171
7.33                 0.993859492     -14.5539655
7.332                0.993841869     -14.5769142
7.334                0.993824215     -14.5998632
7.336                0.993806532     -14.6228124
7.338                0.993787142     -14.6457768
7.34                 0.993767716     -14.6687416
7.342                0.993748255     -14.6917067
7.344                0.993728758     -14.7146721
7.346                 0.99370786     -14.7376394
7.348                0.993686922     -14.7606071
7.35                 0.993665941     -14.7835752
7.352                 0.99364492     -14.8065437
7.354                0.993622783     -14.8295186
7.356                0.993600601      -14.852494
7.358                0.993578374     -14.8754698
7.36                   0.9935561     -14.8984461
7.362                0.993532969      -14.921424
7.364                0.993509789     -14.9444024
7.366                0.993486561     -14.9673813
7.368                0.993463284     -14.9903606
7.37                 0.993439356     -15.0133475
7.372                0.993415377     -15.0363349
7.374                0.993391347     -15.0593228
7.376                0.993367267     -15.0823111
7.378                0.993342605     -15.1053145
7.38                  0.99331789     -15.1283185
7.382                0.993293121     -15.1513229
7.384                0.993268299     -15.1743278
7.386                0.993242994     -15.1973416
7.388                0.993217631     -15.2203559
7.39                 0.993192212     -15.2433708
7.392                0.993166737     -15.2663862
7.394                0.993140783     -15.2894141
7.396                0.993114769     -15.3124425
7.398                0.993088697     -15.3354714
7.4                  0.993062566     -15.3585009
7.402                0.993036066     -15.3815322
7.404                0.993009506      -15.404564
7.406                0.992982886     -15.4275963
7.408                0.992956206     -15.4506292
7.41                 0.992929394     -15.4736517
7.412                0.992902522     -15.4966748
7.414                0.992875589     -15.5196983
7.416                0.992848597     -15.5427224
7.418                0.992821795     -15.5657344
7.42                 0.992794934     -15.5887469
7.422                0.992768013       -15.61176
7.424                0.992741032     -15.6347735
7.426                0.992714678     -15.6577735
7.428                0.992688265     -15.6807741
7.43                 0.992661793     -15.7037751
7.432                0.992635262     -15.7267766
7.434                0.992609703     -15.7497808
7.436                0.992584089     -15.7727854
7.438                0.992558419     -15.7957904
7.44                 0.992532692     -15.8187959
7.442                0.992508208     -15.8418203
7.444                0.992483673     -15.8648451
7.446                0.992459085     -15.8878703
7.448                0.992434445     -15.9108959
7.45                 0.992411177     -15.9339593
7.452                0.992387859     -15.9570231
7.454                0.992364493     -15.9800873
7.456                0.992341079     -16.0031518
7.458                0.992318983     -16.0262748
7.46                  0.99229684     -16.0493982
7.462                 0.99227465      -16.072522
7.464                0.992252414     -16.0956463
7.466                0.992231373     -16.1188391
7.468                0.992210286     -16.1420324
7.47                 0.992189155     -16.1652261
7.472                0.992167979     -16.1884202
7.474                0.992147892     -16.2116854
7.476                0.992127763      -16.234951
7.478                0.992107592      -16.258217
7.48                 0.992087378     -16.2814834
7.482                0.992068264      -16.304813
7.484                0.992049112     -16.3281429
7.486                0.992029922     -16.3514732
7.488                0.992010694     -16.3748038
7.49                  0.99199273     -16.3981932
7.492                0.991974732     -16.4215831
7.494                0.991956701     -16.4449732
7.496                0.991938637     -16.4683637
7.498                0.991922156     -16.4918129
7.5                  0.991905647     -16.5152625
7.502                0.991889109     -16.5387124
7.504                0.991872543     -16.5621626
7.506                0.991857919     -16.5856871
7.508                0.991843272     -16.6092119
7.51                 0.991828603      -16.632737
7.512                0.991813913     -16.6562624
7.514                 0.99180148     -16.6798817
7.516                0.991789033     -16.7035013
7.518                0.991776571     -16.7271211
7.52                 0.991764095     -16.7507412
7.522                0.991753994     -16.7744885
7.524                0.991743885     -16.7982359
7.526                0.991733768     -16.8219836
7.528                0.991723643     -16.8457316
7.53                 0.991715774     -16.8696377
7.532                0.991707901     -16.8935441
7.534                0.991700024     -16.9174507
7.536                0.991692144     -16.9413576
7.538                0.991686232      -16.965445
7.54                  0.99168032     -16.9895327
7.542                0.991674406     -17.0136207
7.544                0.991668492     -17.0377089
7.546                0.991664146     -17.0619938
7.548                0.991659801      -17.086279
7.55                 0.991655459     -17.1105643
7.552                0.991651118     -17.1348499
7.554                0.991647976     -17.1593319
7.556                0.991644839     -17.1838141
7.558                0.991641708     -17.2082965
7.56                 0.991638582     -17.2327789
7.562                0.991636512     -17.2574448
7.564                0.991634452     -17.2821107
7.566                0.991632402     -17.3067767
7.568                0.991630363     -17.3314429
7.57                 0.991629422     -17.3562836
7.572                0.991628495     -17.3811243
7.574                0.991627584     -17.4059652
7.576                0.991626687     -17.4308061
7.578                0.991627132     -17.4558238
7.58                 0.991627597     -17.4808416
7.582                0.991628083     -17.5058594
7.584                0.991628587     -17.5308772
7.586                0.991630774     -17.5560779
7.588                0.991632987     -17.5812786
7.59                 0.991635227     -17.6064792
7.592                0.991637492     -17.6316799
7.594                0.991641579     -17.6570973
7.596                0.991645698     -17.6825147
7.598                0.991649851      -17.707932
7.6                  0.991654036     -17.7333492
7.602                0.991660061     -17.7590108
7.604                0.991666123     -17.7846723
7.606                0.991672223     -17.8103338
7.608                0.991678362     -17.8359952
7.61                 0.991686001     -17.8619358
7.612                 0.99169368     -17.8878763
7.614                0.991701399     -17.9138167
7.616                0.991709157     -17.9397571
7.618                0.991717903     -17.9660032
7.62                 0.991726688     -17.9922492
7.622                0.991735514      -18.018495
7.624                 0.99174438     -18.0447408
7.626                0.991753615     -18.0712932
7.628                0.991762892     -18.0978454
7.63                 0.991772211     -18.1243974
7.632                 0.99178157     -18.1509491
7.634                0.991790776     -18.1777985
7.636                0.991800025     -18.2046475
7.638                0.991809318     -18.2314962
7.64                 0.991818654     -18.2583446
7.642                0.991827559       -18.28547
7.644                0.991836508     -18.3125952
7.646                0.991845502       -18.33972
7.648                0.991854542     -18.3668444
7.65                 0.991863156     -18.3942227
7.652                0.991871816     -18.4216006
7.654                0.991880522     -18.4489781
7.656                0.991889274     -18.4763553
7.658                 0.99189786     -18.5039794
7.66                 0.991906494     -18.5316031
7.662                0.991915174     -18.5592264
7.664                0.991923902     -18.5868494
7.666                 0.99193281     -18.6147255
7.668                0.991941769     -18.6426011
7.67                 0.991950779     -18.6704763
7.672                 0.99195984     -18.6983509
7.674                0.991969235     -18.7265008
7.676                0.991978684     -18.7546501
7.678                0.991988188      -18.782799
7.68                 0.991997746     -18.8109473
7.682                0.992007586     -18.8393974
7.684                0.992017482      -18.867847
7.686                0.992027433     -18.8962961
7.688                0.992037439     -18.9247448
7.69                 0.992047338     -18.9535324
7.692                 0.99205729     -18.9823197
7.694                0.992067294     -19.0111064
7.696                 0.99207735     -19.0398927
7.698                0.992086699     -19.0690256
7.7                  0.992096096     -19.0981579
7.702                0.992105542     -19.1272898
7.704                0.992115037      -19.156421
7.706                0.992123097     -19.1858984
7.708                0.992131204     -19.2153751
7.71                 0.992139359     -19.2448512
7.712                0.992147559     -19.2743266
7.714                0.992153806     -19.3041223
7.716                0.992160099     -19.3339174
7.718                0.992166437     -19.3637117
7.72                  0.99217282     -19.3935054
7.722                0.992176982     -19.4235867
7.724                0.992181187     -19.4536674
7.726                0.992185434     -19.4837474
7.728                0.992189723     -19.5138267
7.73                 0.992191929     -19.5441635
7.732                0.992194172     -19.5744998
7.734                0.992196451     -19.6048353
7.736                0.992198768     -19.6351702
7.738                0.992199392     -19.6657414
7.74                 0.992200049      -19.696312
7.742                0.992200739     -19.7268818
7.744                0.992201461     -19.7574509
7.746                0.992200922     -19.7882552
7.748                0.992200414     -19.8190588
7.75                 0.992199937     -19.8498615
7.752                0.992199491     -19.8806634
7.754                0.992198144     -19.9117205
7.756                0.992196828     -19.9427767
7.758                0.992195542     -19.9738321
7.76                 0.992194288     -20.0048866
7.762                0.992192153     -20.0362264
7.764                0.992190046     -20.0675654
7.766                0.992187966     -20.0989036
7.768                0.992185913      -20.130241
7.77                  0.99218265     -20.1618871
7.772                0.992179406     -20.1935325
7.774                0.992176183     -20.2251771
7.776                0.992172979     -20.2568209
7.778                0.992167981      -20.288785
7.78                 0.992162996     -20.3207482
7.782                0.992158024     -20.3527105
7.784                0.992153063     -20.3846719
7.786                 0.99214568     -20.4169447
7.788                0.992138304     -20.4492164
7.79                 0.992130937      -20.481487
7.792                0.992123576     -20.5137565
