! TOUCHSTONE file generated by CST DESIGN STUDIO
! Date and time: Mon Feb 10 16:42:55 2025
! Project name: C:\Work\MatlabApps\UnitCellType2OptimizationMatlab\CST\unitcell.cst
! Tree item: Tasks\Sweep1\SPara1\S-Parameters
! Header version: 2024
! Port assignment regex: !\s*Touchstone port\s*([0-9]+)\s*=\s*(CST MWS port|CST DES external port|CST DES block port)\s*(.+)\s* \(\"(.*)\"\)(\s*mode\s*([0-9]+))?.*
! Touchstone port assignment:
! Touchstone port 1 = CST DES external port 1 ("")
# GHz S MA R 50
7                    0.993127446     -11.9553089
7.002                0.993120923     -11.9719949
7.004                0.993114377     -11.9886815
7.006                0.993107807     -12.0053686
7.008                0.993101213     -12.0220561
7.01                 0.993097393     -12.0388223
7.012                0.993093552      -12.055589
7.014                0.993089691     -12.0723561
7.016                 0.99308581     -12.0891237
7.018                0.993084424     -12.1059889
7.02                 0.993083021     -12.1228544
7.022                0.993081601     -12.1397203
7.024                0.993080165     -12.1565867
7.026                 0.99308094     -12.1735588
7.028                0.993081702     -12.1905313
7.03                 0.993082453     -12.2075041
7.032                0.993083192     -12.2244771
7.034                0.993085973     -12.2415574
7.036                0.993088747     -12.2586379
7.038                0.993091514     -12.2757188
7.04                 0.993094273     -12.2927999
7.042                0.993099014     -12.3099886
7.044                0.993103751     -12.3271777
7.046                0.993108486      -12.344367
7.048                0.993113218     -12.3615566
7.05                 0.993119996     -12.3788572
7.052                0.993126775     -12.3961581
7.054                0.993133557     -12.4134592
7.056                 0.99314034     -12.4307605
7.058                0.993149272     -12.4481854
7.06                 0.993158212     -12.4656105
7.062                0.993167159     -12.4830356
7.064                0.993176115     -12.5004609
7.066                0.993187249     -12.5180289
7.068                0.993198397     -12.5355969
7.07                  0.99320956     -12.5531649
7.072                0.993220738     -12.5707331
7.074                0.993234045     -12.5884652
7.076                0.993247373     -12.6061973
7.078                 0.99326072     -12.6239295
7.08                 0.993274088     -12.6416618
7.082                0.993289357     -12.6595805
7.084                 0.99330465     -12.6774992
7.086                0.993319967      -12.695418
7.088                0.993335307     -12.7133368
7.09                 0.993352196      -12.731461
7.092                0.993369111     -12.7495851
7.094                0.993386052     -12.7677092
7.096                 0.99340302     -12.7858331
7.098                0.993421139     -12.8041724
7.1                  0.993439288     -12.8225114
7.102                0.993457466     -12.8408503
7.104                0.993475673      -12.859189
7.106                0.993494662     -12.8777422
7.108                0.993513684     -12.8962953
7.11                 0.993532738      -12.914848
7.112                0.993551824     -12.9334005
7.114                0.993571408     -12.9521665
7.116                0.993591028     -12.9709321
7.118                0.993610683     -12.9896975
7.12                 0.993630374     -13.0084626
7.122                0.993650402     -13.0274358
7.124                0.993670469     -13.0464087
7.126                0.993690573     -13.0653812
7.128                0.993710715     -13.0843534
7.13                 0.993731103     -13.1035288
7.132                0.993751531     -13.1227038
7.134                   0.993772     -13.1418784
7.136                0.993792509     -13.1610526
7.138                0.993813181     -13.1804363
7.14                 0.993833898     -13.1998196
7.142                0.993854658     -13.2192025
7.144                0.993875463     -13.2385849
7.146                0.993896343     -13.2581827
7.148                 0.99391727     -13.2777801
7.15                 0.993938245     -13.2973769
7.152                0.993959267     -13.3169733
7.154                 0.99398017     -13.3367927
7.156                0.994001124     -13.3566116
7.158                0.994022127       -13.37643
7.16                 0.994043179     -13.3962478
7.162                0.994063846      -13.416295
7.164                0.994084563     -13.4363416
7.166                 0.99410533     -13.4563877
7.168                0.994126148     -13.4764333
7.17                 0.994146272     -13.4967122
7.172                0.994166447     -13.5169906
7.174                0.994186672     -13.5372684
7.176                0.994206947     -13.5575456
7.178                0.994226197      -13.578051
7.18                 0.994245497     -13.5985559
7.182                0.994264848     -13.6190603
7.184                0.994284248      -13.639564
7.186                0.994302375     -13.6602853
7.188                 0.99432055     -13.6810061
7.19                 0.994338776     -13.7017264
7.192                0.994357051     -13.7224461
7.194                0.994373862     -13.7433747
7.196                0.994390721     -13.7643028
7.198                0.994407629     -13.7852304
7.2                  0.994424585     -13.8061575
7.202                0.994439965     -13.8272823
7.204                0.994455392     -13.8484067
7.206                0.994470866     -13.8695307
7.208                0.994486387     -13.8906542
7.21                 0.994500269      -13.911967
7.212                0.994514197     -13.9332795
7.214                 0.99452817     -13.9545915
7.216                0.994542188     -13.9759031
7.218                0.994554491     -13.9974012
7.22                 0.994566838      -14.018899
7.222                0.994579229     -14.0403963
7.224                0.994591664     -14.0618932
7.226                0.994602328     -14.0835695
7.228                0.994613034     -14.1052455
7.23                 0.994623782     -14.1269211
7.232                0.994634571     -14.1485963
7.234                0.994643455     -14.1704469
7.236                0.994652377     -14.1922971
7.238                0.994661339      -14.214147
7.24                 0.994670339     -14.2359967
7.242                0.994677296     -14.2580156
7.244                0.994684289     -14.2800343
7.246                0.994691317     -14.3020527
7.248                 0.99469838     -14.3240709
7.25                 0.994703268     -14.3462488
7.252                0.994708186     -14.3684265
7.254                0.994713135      -14.390604
7.256                0.994718115     -14.4127813
7.258                0.994720817     -14.4351077
7.26                 0.994723544      -14.457434
7.262                0.994726297     -14.4797602
7.264                0.994729075     -14.5020863
7.266                 0.99472958     -14.5245453
7.268                0.994730104     -14.5470043
7.27                 0.994730648     -14.5694633
7.272                0.994731212     -14.5919222
7.274                0.994729507     -14.6145004
7.276                0.994727817     -14.6370787
7.278                 0.99472614      -14.659657
7.28                 0.994724478     -14.6822354
7.282                0.994720623     -14.7049285
7.284                0.994716777     -14.7276218
7.286                0.994712939     -14.7503151
7.288                0.994709111     -14.7730086
7.29                 0.994703156     -14.7958048
7.292                0.994697205     -14.8186012
7.294                0.994691258     -14.8413978
7.296                0.994685315     -14.8641945
7.298                0.994677274     -14.8870896
7.3                  0.994669231     -14.9099849
7.302                0.994661188     -14.9328804
7.304                0.994653143     -14.9557762
7.306                0.994643029     -14.9787608
7.308                0.994632909     -15.0017458
7.31                 0.994622782      -15.024731
7.312                0.994612648     -15.0477165
7.314                0.994600467     -15.0707821
7.316                0.994588273     -15.0938481
7.318                0.994576066     -15.1169143
7.32                 0.994563847     -15.1399809
7.322                0.994549613     -15.1631187
7.324                0.994535361     -15.1862569
7.326                0.994521091     -15.2093955
7.328                0.994506803     -15.2325344
7.33                  0.99449061     -15.2557291
7.332                0.994474394     -15.2789242
7.334                0.994458154     -15.3021196
7.336                0.994441891     -15.3253155
7.338                0.994423875     -15.3485569
7.34                 0.994405831     -15.3717987
7.342                0.994387757      -15.395041
7.344                0.994369653     -15.4182837
7.346                0.994350052     -15.4415592
7.348                0.994330417     -15.4648352
7.35                 0.994310747     -15.4881116
7.352                0.994291043     -15.5113885
7.354                0.994270074      -15.534703
7.356                0.994249066     -15.5580179
7.358                0.994228019     -15.5813332
7.36                 0.994206934     -15.6046491
7.362                0.994184784     -15.6279959
7.364                0.994162592     -15.6513431
7.366                0.994140359     -15.6746908
7.368                0.994118084     -15.6980389
7.37                 0.994094914     -15.7214214
7.372                  0.9940717     -15.7448042
7.374                0.994048442     -15.7681875
7.376                0.994025139     -15.7915713
7.378                0.994000998     -15.8149941
7.38                 0.993976809     -15.8384174
7.382                0.993952573     -15.8618411
7.384                 0.99392829     -15.8852652
7.386                0.993903267     -15.9087191
7.388                0.993878194     -15.9321735
7.39                 0.993853071     -15.9556284
7.392                0.993827897     -15.9790836
7.394                0.993802013     -16.0025713
7.396                0.993776076     -16.0260594
7.398                0.993750087      -16.049548
7.4                  0.993724044     -16.0730369
7.402                0.993697423     -16.0965475
7.404                0.993670747     -16.1200583
7.406                0.993644016     -16.1435696
7.408                0.993617232     -16.1670813
7.41                 0.993590107     -16.1906033
7.412                0.993562926     -16.2141257
7.414                0.993535691     -16.2376485
7.416                0.993508401     -16.2611716
7.418                0.993481069     -16.2847046
7.42                 0.993453681     -16.3082379
7.422                0.993426238     -16.3317716
7.424                0.993398739     -16.3553057
7.426                0.993371587     -16.3788479
7.428                0.993344379     -16.4023905
7.43                 0.993317116     -16.4259334
7.432                0.993289799     -16.4494766
7.434                0.993263123     -16.4730424
7.436                0.993236394     -16.4966084
7.438                0.993209613     -16.5201747
7.44                 0.993182778     -16.5437413
7.442                0.993156817     -16.5673432
7.444                0.993130807     -16.5909454
7.446                0.993104746     -16.6145478
7.448                0.993078635     -16.6381504
7.45                 0.993053519     -16.6618024
7.452                0.993028355     -16.6854546
7.454                0.993003144      -16.709107
7.456                0.992977886     -16.7327597
7.458                0.992953597     -16.7564782
7.46                 0.992929263     -16.7801969
7.462                0.992904883     -16.8039159
7.464                0.992880457      -16.827635
7.466                0.992856934      -16.851427
7.468                0.992833366     -16.8752192
7.47                 0.992809755     -16.8990116
7.472                  0.9927861     -16.9228042
7.474                0.992763312     -16.9466711
7.476                0.992740484     -16.9705382
7.478                0.992717613     -16.9944054
7.48                   0.9926947     -17.0182728
7.482                0.992672724     -17.0422076
7.484                0.992650708     -17.0661426
7.486                0.992628654     -17.0900777
7.488                0.992606562     -17.1140129
7.49                   0.9925856     -17.1380137
7.492                0.992564603     -17.1620146
7.494                0.992543572     -17.1860156
7.496                0.992522505     -17.2100167
7.498                0.992502874     -17.2340855
7.5                  0.992483211     -17.2581544
7.502                0.992463518     -17.2822234
7.504                0.992443795     -17.3062925
7.506                0.992425825     -17.3304455
7.508                 0.99240783     -17.3545986
7.51                 0.992389809     -17.3787518
7.512                0.992371763     -17.4029051
7.514                 0.99235574     -17.4271598
7.516                0.992339698     -17.4514145
7.518                0.992323637     -17.4756693
7.52                 0.992307556     -17.4999241
7.522                0.992293598     -17.5243099
7.524                0.992279627     -17.5486957
7.526                0.992265643     -17.5730815
7.528                0.992251645     -17.5974673
7.53                 0.992239662     -17.6220102
7.532                0.992227671     -17.6465531
7.534                0.992215671      -17.671096
7.536                0.992203662     -17.6956389
7.538                0.992193444      -17.720357
7.54                  0.99218322     -17.7450751
7.542                 0.99217299     -17.7697931
7.544                0.992162754     -17.7945112
7.546                0.992154004     -17.8194184
7.548                0.992145252     -17.8443256
7.55                 0.992136496     -17.8692327
7.552                0.992127738     -17.8941398
7.554                0.992120202     -17.9192366
7.556                0.992112668     -17.9443333
7.558                0.992105133     -17.9694299
7.56                   0.9920976     -17.9945265
7.562                0.992091227     -18.0198029
7.564                0.992084859     -18.0450792
7.566                0.992078495     -18.0703553
7.568                0.992072136     -18.0956314
7.57                 0.992067015     -18.1210837
7.572                0.992061903     -18.1465358
7.574                0.992056799     -18.1719878
7.576                0.992051705     -18.1974397
7.578                0.992048071     -18.2230745
7.58                  0.99204445     -18.2487092
7.582                0.992040843     -18.2743438
7.584                0.992037249     -18.2999782
7.586                0.992035403     -18.3258033
7.588                0.992033576     -18.3516283
7.59                 0.992031769     -18.3774531
7.592                 0.99202998     -18.4032776
7.594                0.992030023     -18.4293265
7.596                0.992030091     -18.4553752
7.598                0.992030184     -18.4814237
7.6                  0.992030302     -18.5074718
7.602                0.992032234     -18.5337683
7.604                0.992034195     -18.5600645
7.606                0.992036187     -18.5863604
7.608                0.992038209      -18.612656
7.61                 0.992041727     -18.6392306
7.612                0.992045278     -18.6658049
7.614                0.992048861     -18.6923789
7.616                0.992052477     -18.7189527
7.618                0.992057141     -18.7458285
7.62                 0.992061839      -18.772704
7.622                0.992066572     -18.7995791
7.624                0.992071338     -18.8264539
7.626                0.992076641     -18.8536306
7.628                0.992081979     -18.8808068
7.63                 0.992087354     -18.9079827
7.632                0.992092763     -18.9351581
7.634                0.992098298     -18.9626288
7.636                0.992103871     -18.9900991
7.638                0.992109482     -19.0175689
7.64                  0.99211513     -19.0450382
7.642                0.992120702     -19.0727882
7.644                0.992126313     -19.1005376
7.646                0.992131964     -19.1282865
7.648                0.992137654     -19.1560349
7.65                 0.992143292     -19.1840475
7.652                 0.99214897     -19.2120595
7.654                0.992154689     -19.2400709
7.656                0.992160448     -19.2680819
7.658                 0.99216637     -19.2963568
7.66                 0.992172334     -19.3246311
7.662                0.992178339     -19.3529048
7.664                0.992184387      -19.381178
7.666                0.992190857     -19.4097246
7.668                0.992197372     -19.4382706
7.67                 0.992203933     -19.4668159
7.672                0.992210538     -19.4953606
7.674                0.992217634     -19.5242006
7.676                0.992224778     -19.5530398
7.678                0.992231972     -19.5818784
7.68                 0.992239213     -19.6107163
7.682                0.992246828     -19.6398728
7.684                0.992254493     -19.6690287
7.686                0.992262208     -19.6981838
7.688                0.992269974     -19.7273382
7.69                 0.992277728     -19.7568444
7.692                0.992285532       -19.78635
7.694                0.992293384     -19.8158548
7.696                0.992301285      -19.845359
7.698                0.992308625     -19.8752188
7.7                  0.992316011      -19.905078
7.702                0.992323444     -19.9349363
7.704                0.992330923     -19.9647938
7.706                0.992337217     -19.9950062
7.708                0.992343555     -20.0252177
7.71                 0.992349938     -20.0554283
7.712                0.992356366      -20.085638
7.714                0.992361188     -20.1161803
7.716                0.992366053     -20.1467217
7.718                0.992370961     -20.1772621
7.72                 0.992375912     -20.2078017
7.722                0.992379053     -20.2386477
7.724                0.992382234     -20.2694927
7.726                0.992385455     -20.3003369
7.728                0.992388716     -20.3311801
7.73                 0.992390296     -20.3623077
7.732                0.992391912     -20.3934345
7.734                0.992393564     -20.4245603
7.736                0.992395251     -20.4556852
7.738                0.992395573     -20.4870803
7.74                 0.992395927     -20.5184744
7.742                0.992396313     -20.5498675
7.744                0.992396731     -20.5812596
7.746                0.992396092     -20.6129241
7.748                0.992395483     -20.6445876
7.75                 0.992394906       -20.67625
7.752                 0.99239436     -20.7079113
7.754                0.992392997     -20.7398647
7.756                0.992391665     -20.7718171
7.758                0.992390363     -20.8037683
7.76                 0.992389093     -20.8357184
7.762                0.992386935     -20.8679867
7.764                0.992384806      -20.900254
7.766                0.992382705     -20.9325201
7.768                0.992380631     -20.9647851
7.77                  0.99237732     -20.9973864
7.772                0.992374031     -21.0299866
7.774                0.992370764     -21.0625856
7.776                0.992367519     -21.0951834
7.778                0.992362497     -21.1281249
7.78                  0.99235749      -21.161065
7.782                0.992352499     -21.1940039
7.784                0.992347525     -21.2269416
7.786                0.992340238     -21.2602127
7.788                0.992332962     -21.2934825
7.79                 0.992325697     -21.3267508
7.792                0.992318443     -21.3600178
