! TOUCHSTONE file generated by CST DESIGN STUDIO
! Date and time: Mon Feb 10 16:43:04 2025
! Project name: C:\Work\MatlabApps\UnitCellType2OptimizationMatlab\CST\unitcell.cst
! Tree item: Tasks\Sweep1\SPara1\S-Parameters
! Header version: 2024
! Port assignment regex: !\s*Touchstone port\s*([0-9]+)\s*=\s*(CST MWS port|CST DES external port|CST DES block port)\s*(.+)\s* \(\"(.*)\"\)(\s*mode\s*([0-9]+))?.*
! Touchstone port assignment:
! Touchstone port 1 = CST DES external port 1 ("")
# GHz S MA R 50
7                    0.980362625     -5.74036742
7.002                0.980462687     -5.76946714
7.004                0.980561955     -5.79848507
7.006                0.980660438     -5.82742196
7.008                0.980758144     -5.85627859
7.01                 0.980860787     -5.88533048
7.012                0.980962665     -5.91430194
7.014                0.981063787     -5.94319371
7.016                0.981164162     -5.97200656
7.018                0.981267892     -6.00108434
7.02                 0.981370889     -6.03008281
7.022                0.981473161     -6.05900267
7.024                0.981574715     -6.08784467
7.026                0.981677855     -6.11696786
7.028                0.981780292     -6.14601286
7.03                 0.981882035     -6.17498035
7.032                0.981983092     -6.20387106
7.034                0.982084273     -6.23300686
7.036                 0.98218479     -6.26206559
7.038                 0.98228465     -6.29104795
7.04                 0.982383859     -6.31995463
7.042                0.982482459     -6.34904514
7.044                0.982580445     -6.37805986
7.046                0.982677824     -6.40699948
7.048                0.982774602     -6.43586469
7.05                 0.982870819     -6.46485441
7.052                0.982966486     -6.49377007
7.054                0.983061609     -6.52261236
7.056                0.983156193     -6.55138192
7.058                0.983250837      -6.5802492
7.06                 0.983344993     -6.60904468
7.062                0.983438668       -6.637769
7.064                0.983531867     -6.66642278
7.066                0.983625792     -6.69518648
7.068                0.983719282     -6.72388068
7.07                 0.983812339     -6.75250601
7.072                0.983904968     -6.78106306
7.074                0.983998762      -6.8097778
7.076                0.984092155     -6.83842491
7.078                0.984185152       -6.867005
7.08                 0.984277758     -6.89551866
7.082                0.984371331     -6.92425301
7.084                0.984464534     -6.95292117
7.086                0.984557372     -6.98152372
7.088                0.984649848     -7.01006125
7.09                 0.984742465      -7.0388743
7.092                 0.98483474     -7.06762254
7.094                0.984926677     -7.09630652
7.096                0.985018281     -7.12492681
7.098                0.985108802      -7.1538484
7.1                  0.985199005     -7.18270677
7.102                0.985288892     -7.21150242
7.104                0.985378468     -7.24023588
7.106                0.985465709     -7.26925675
7.108                0.985552649     -7.29821596
7.11                 0.985639292       -7.327114
7.112                0.985725639      -7.3559514
7.114                0.985808674     -7.38503419
7.116                 0.98589143     -7.41405676
7.118                0.985973909     -7.44301961
7.12                 0.986056115     -7.47192322
7.122                0.986134627     -7.50101484
7.124                0.986212894     -7.53004776
7.126                0.986290917     -7.55902245
7.128                  0.9863687     -7.58793941
7.13                 0.986442871     -7.61699077
7.132                0.986516838     -7.64598533
7.134                0.986590602     -7.67492352
7.136                0.986664165      -7.7038058
7.138                0.986734515     -7.73279762
7.14                 0.986804696      -7.7617348
7.142                0.986874709     -7.79061777
7.144                0.986944557     -7.81944695
7.146                0.987011643     -7.84838322
7.148                0.987078586     -7.87726684
7.15                 0.987145387     -7.90609823
7.152                0.987212047     -7.93487779
7.154                0.987276145     -7.96377892
7.156                0.987340119     -7.99262903
7.158                0.987403971     -8.02142851
7.16                 0.987467703     -8.05017778
7.162                0.987528677     -8.07907372
7.164                0.987589547     -8.10792016
7.166                0.987650316     -8.13671749
7.168                0.987710984     -8.16546608
7.17                  0.98776844     -8.19437484
7.172                0.987825808     -8.22323598
7.174                0.987883088     -8.25204983
7.176                0.987940282     -8.28081675
7.178                  0.9879936     -8.30973859
7.18                 0.988046832     -8.33861488
7.182                 0.98809998     -8.36744595
7.184                0.988153044     -8.39623214
7.186                0.988201717     -8.42514467
7.188                0.988250299      -8.4540136
7.19                 0.988298793     -8.48283925
7.192                0.988347198     -8.51162193
7.194                0.988390879     -8.54049201
7.196                0.988434471     -8.56932015
7.198                0.988477975     -8.59810664
7.2                  0.988521391     -8.62685179
7.202                0.988560109     -8.65563831
7.204                0.988598749     -8.68438456
7.206                0.988637315     -8.71309082
7.208                0.988675806     -8.74175737
7.21                 0.988709909     -8.77043353
7.212                0.988743951     -8.79907134
7.214                0.988777934     -8.82767109
7.216                0.988811859     -8.85623302
7.218                0.988841747     -8.88478532
7.22                 0.988871583     -8.91330131
7.222                 0.98890137     -8.94178123
7.224                0.988931107     -8.97022534
7.226                0.988957201     -8.99865213
7.228                0.988983245     -9.02704431
7.23                 0.989009242     -9.05540209
7.232                0.989035191     -9.08372573
7.234                 0.98905763     -9.11203519
7.236                0.989080023     -9.14031139
7.238                 0.98910237     -9.16855454
7.24                 0.989124672     -9.19676487
7.242                0.989143476     -9.22496102
7.244                0.989162238     -9.25312536
7.246                0.989180959     -9.28125809
7.248                0.989199638     -9.30935942
7.25                  0.98921472     -9.33743884
7.252                0.989229755     -9.36548826
7.254                0.989244746     -9.39350787
7.256                0.989259693     -9.42149787
7.258                0.989270938     -9.44944869
7.26                 0.989282121     -9.47737142
7.262                0.989293244     -9.50526623
7.264                0.989304306      -9.5331333
7.266                 0.98931182     -9.56093494
7.268                0.989319253     -9.58871004
7.27                 0.989326603     -9.61645877
7.272                0.989333873     -9.64418129
7.274                0.989337812     -9.67180896
7.276                0.989341657     -9.69941131
7.278                 0.98934541     -9.72698851
7.28                 0.989349072     -9.75454072
7.282                 0.98934981     -9.78198491
7.284                0.989350455     -9.80940507
7.286                0.989351008     -9.83680134
7.288                0.989351472      -9.8641739
7.29                 0.989349469      -9.8914249
7.292                0.989347374     -9.91865342
7.294                 0.98934519     -9.94585961
7.296                0.989342916     -9.97304359
7.298                0.989338528     -10.0001091
7.3                   0.98933404     -10.0271537
7.302                0.989329455     -10.0541774
7.304                0.989324772     -10.0811803
7.306                0.989318216     -10.1080645
7.308                0.989311551     -10.1349288
7.31                 0.989304776     -10.1617733
7.312                0.989297893     -10.1885982
7.314                0.989289254     -10.2153058
7.316                  0.9892805     -10.2419943
7.318                 0.98927163     -10.2686639
7.32                 0.989262647     -10.2953146
7.322                 0.98925199     -10.3218418
7.324                0.989241215     -10.3483509
7.326                0.989230322      -10.374842
7.328                0.989219313     -10.4013152
7.33                 0.989206808     -10.4276488
7.332                0.989194177     -10.4539655
7.334                0.989181419     -10.4802656
7.336                0.989168536     -10.5065489
7.338                0.989154452     -10.5326769
7.34                 0.989140223     -10.5587892
7.342                 0.98912585     -10.5848859
7.344                0.989111334     -10.6109671
7.346                0.989096191     -10.6368765
7.348                0.989080887      -10.662771
7.35                 0.989065423     -10.6886506
7.352                0.989049802     -10.7145154
7.354                0.989034135     -10.7402138
7.356                0.989018304     -10.7658977
7.358                0.989002312     -10.7915673
7.36                 0.988986158     -10.8172226
7.362                0.988970542     -10.8427191
7.364                0.988954769      -10.868202
7.366                0.988938838     -10.8936713
7.368                0.988922752     -10.9191271
7.37                 0.988907613     -10.9444499
7.372                0.988892317     -10.9697601
7.374                0.988876864     -10.9950577
7.376                0.988861255     -11.0203427
7.378                0.988846693     -11.0455224
7.38                 0.988831964     -11.0706903
7.382                0.988817069     -11.0958465
7.384                0.988802009     -11.1209909
7.386                0.988788006     -11.1460438
7.388                0.988773829     -11.1710853
7.39                 0.988759477     -11.1961155
7.392                0.988744951     -11.2211343
7.394                0.988731274     -11.2460724
7.396                0.988717423     -11.2709993
7.398                0.988703399     -11.2959151
7.4                  0.988689202       -11.32082
7.402                0.988675776     -11.3456352
7.404                0.988662182     -11.3704398
7.406                0.988648421     -11.3952339
7.408                0.988634493     -11.4200174
7.41                 0.988621485     -11.4446932
7.412                0.988608311     -11.4693591
7.414                0.988594971     -11.4940151
7.416                0.988581465     -11.5186613
7.418                0.988569293     -11.5431889
7.42                 0.988556952     -11.5677071
7.422                 0.98854444     -11.5922158
7.424                 0.98853176     -11.6167151
7.426                0.988521092     -11.6410921
7.428                0.988510258     -11.6654596
7.43                 0.988499257     -11.6898176
7.432                0.988488091     -11.7141664
7.434                0.988479598     -11.7384179
7.436                0.988470954     -11.7626602
7.438                0.988462158     -11.7868931
7.44                 0.988453211     -11.8111169
7.442                 0.98844745     -11.8352806
7.444                0.988441552     -11.8594355
7.446                0.988435517     -11.8835816
7.448                0.988429346     -11.9077191
7.45                 0.988426527     -11.9318465
7.452                0.988423571     -11.9559657
7.454                0.988420481     -11.9800769
7.456                0.988417257       -12.00418
7.458                0.988417109     -12.0283201
7.46                  0.98841682     -12.0524524
7.462                0.988416389     -12.0765769
7.464                0.988415818     -12.1006936
7.466                0.988417802     -12.1248764
7.468                0.988419645     -12.1490513
7.47                 0.988421347     -12.1732181
7.472                0.988422908     -12.1973771
7.474                 0.98842645     -12.2216084
7.476                0.988429862     -12.2458316
7.478                0.988433145     -12.2700469
7.48                   0.9884363     -12.2942543
7.482                0.988441057     -12.3185178
7.484                0.988445699     -12.3427738
7.486                0.988450228     -12.3670222
7.488                0.988454643      -12.391263
7.49                 0.988460594     -12.4155384
7.492                0.988466439     -12.4398065
7.494                0.988472179     -12.4640675
7.496                0.988477813     -12.4883213
7.498                 0.98848535     -12.5125906
7.5                  0.988492788     -12.5368527
7.502                0.988500127     -12.5611075
7.504                0.988507368     -12.5853551
7.506                0.988517118     -12.6096233
7.508                0.988526788      -12.633884
7.51                 0.988536376     -12.6581371
7.512                0.988545885     -12.6823827
7.514                0.988558591     -12.7066773
7.516                0.988571241     -12.7309644
7.518                0.988583835     -12.7552441
7.52                 0.988596374     -12.7795164
7.522                0.988612426     -12.8038933
7.524                0.988628435     -12.8282635
7.526                0.988644403      -12.852627
7.528                0.988660329     -12.8769838
7.53                 0.988679591     -12.9015086
7.532                0.988698807      -12.926027
7.534                0.988717975     -12.9505392
7.536                0.988737097     -12.9750452
7.538                0.988758886     -12.9997678
7.54                  0.98878062     -13.0244838
7.542                0.988802299     -13.0491933
7.544                0.988823922     -13.0738962
7.546                0.988847246     -13.0988441
7.548                0.988870521     -13.1237849
7.55                 0.988893748     -13.1487186
7.552                0.988916928     -13.1736452
7.554                0.988940817     -13.1988104
7.556                0.988964676     -13.2239686
7.558                0.988988505     -13.2491198
7.56                 0.989012306     -13.2742641
7.562                0.989036181     -13.2996138
7.564                0.989060038      -13.324957
7.566                0.989083877      -13.350294
7.568                0.989107697     -13.3756248
7.57                 0.989131388     -13.4011191
7.572                0.989155062     -13.4266072
7.574                0.989178716     -13.4520892
7.576                0.989202351     -13.4775651
7.578                0.989226219     -13.5031732
7.58                 0.989250076     -13.5287745
7.582                0.989273922     -13.5543688
7.584                0.989297758     -13.5799562
7.586                0.989322583     -13.6056643
7.588                0.989347429     -13.6313649
7.59                 0.989372294     -13.6570582
7.592                0.989397182     -13.6827441
7.594                0.989423702     -13.7085871
7.596                0.989450269     -13.7344236
7.598                0.989476885     -13.7602537
7.6                   0.98950355     -13.7860774
7.602                0.989532173     -13.8121128
7.604                 0.98956084     -13.8381429
7.606                0.989589552     -13.8641677
7.608                0.989618308     -13.8901875
7.61                 0.989648585     -13.9164828
7.612                0.989678888     -13.9427729
7.614                0.989709215     -13.9690577
7.616                0.989739567     -13.9953373
7.618                0.989770541     -14.0219406
7.62                 0.989801536     -14.0485379
7.622                0.989832551     -14.0751293
7.624                0.989863587     -14.1017147
7.626                0.989894051     -14.1286331
7.628                0.989924544     -14.1555453
7.63                 0.989955067     -14.1824516
7.632                0.989985619     -14.2093519
7.634                0.990014417      -14.236563
7.636                0.990043247     -14.2637685
7.638                 0.99007211     -14.2909683
7.64                 0.990101004     -14.3181625
7.642                0.990127384     -14.3456128
7.644                0.990153795     -14.3730572
7.646                0.990180237     -14.4004957
7.648                0.990206711     -14.4279282
7.65                 0.990230602     -14.4555501
7.652                0.990254535     -14.4831656
7.654                0.990278513     -14.5107748
7.656                0.990302537     -14.5383778
7.658                0.990324595     -14.5661226
7.66                 0.990346716     -14.5938616
7.662                0.990368901     -14.6215949
7.664                0.990391148     -14.6493226
7.666                0.990412376     -14.6771827
7.668                0.990433677      -14.705038
7.67                 0.990455048     -14.7328885
7.672                0.990476489     -14.7607343
7.674                0.990497618     -14.7887403
7.676                0.990518815      -14.816742
7.678                0.990540078     -14.8447395
7.68                 0.990561407     -14.8727328
7.682                0.990582758     -14.9009347
7.684                0.990604165     -14.9291324
7.686                0.990625629      -14.957326
7.688                0.990647151     -14.9855154
7.69                 0.990668324     -15.0139777
7.692                0.990689542      -15.042436
7.694                0.990710807     -15.0708901
7.696                0.990732117       -15.09934
7.698                0.990752206     -15.1280949
7.7                  0.990772332     -15.1568456
7.702                0.990792495     -15.1855922
7.704                0.990812697     -15.2143346
7.706                0.990830386     -15.2433881
7.708                0.990848111     -15.2724374
7.71                 0.990865873     -15.3014825
7.712                 0.99088367     -15.3305234
7.714                0.990897845     -15.3598321
7.716                 0.99091206     -15.3891366
7.718                0.990926316      -15.418437
7.72                 0.990940611     -15.4477334
7.722                0.990950668     -15.4772296
7.724                0.990960765     -15.5067222
7.726                0.990970903      -15.536211
7.728                0.990981082     -15.5656961
7.73                 0.990987216     -15.5953069
7.732                0.990993384     -15.6249144
7.734                0.990999586     -15.6545188
7.736                0.991005823       -15.68412
7.738                0.991008843     -15.7137887
7.74                 0.991011889     -15.7434546
7.742                0.991014962     -15.7731175
7.744                0.991018062     -15.8027777
7.746                0.991019069     -15.8324883
7.748                0.991020102     -15.8621963
7.75                 0.991021158     -15.8919014
7.752                0.991022239     -15.9216038
7.754                0.991022264     -15.9513791
7.756                0.991022313     -15.9811518
7.758                0.991022386     -16.0109221
7.76                 0.991022483       -16.04069
7.762                0.991022085     -16.0705866
7.764                0.991021701     -16.1004813
7.766                0.991021331     -16.1303742
7.768                0.991020974     -16.1602652
7.77                 0.991019934     -16.1903433
7.772                0.991018887       -16.22042
7.774                0.991017833     -16.2504953
7.776                0.991016773     -16.2805691
7.778                 0.99101419     -16.3108702
7.78                 0.991011584     -16.3411697
7.782                0.991008955     -16.3714677
7.784                0.991006303     -16.4017642
7.786                0.991000939     -16.4322895
7.788                0.990995551      -16.462813
7.79                  0.99099014     -16.4933345
7.792                0.990984705     -16.5238541
