! TOUCHSTONE file generated by CST DESIGN STUDIO
! Date and time: Mon Feb 10 16:42:48 2025
! Project name: C:\Work\MatlabApps\UnitCellType2OptimizationMatlab\CST\unitcell.cst
! Tree item: Tasks\Sweep1\SPara1\S-Parameters
! Header version: 2024
! Port assignment regex: !\s*Touchstone port\s*([0-9]+)\s*=\s*(CST MWS port|CST DES external port|CST DES block port)\s*(.+)\s* \(\"(.*)\"\)(\s*mode\s*([0-9]+))?.*
! Touchstone port assignment:
! Touchstone port 1 = CST DES external port 1 ("")
# GHz S MA R 50
7                    0.995686039     -13.7901948
7.002                0.995684866     -13.8092779
7.004                0.995683674     -13.8283854
7.006                0.995682463     -13.8475173
7.008                0.995681232     -13.8666738
7.01                 0.995679981     -13.8858549
7.012                 0.99567871     -13.9050606
7.014                0.995677419      -13.924291
7.016                0.995676109     -13.9435463
7.018                0.995674779     -13.9628264
7.02                 0.995673429     -13.9821315
7.022                0.995672059     -14.0014615
7.024                0.995670669     -14.0208166
7.026                0.995669259     -14.0401969
7.028                0.995667828     -14.0596023
7.03                 0.995666378     -14.0790331
7.032                0.995664907     -14.0984891
7.034                0.995663416     -14.1179706
7.036                0.995661905     -14.1374776
7.038                0.995660373     -14.1570101
7.04                 0.995658821     -14.1765682
7.042                0.995657249     -14.1961521
7.044                0.995655656     -14.2157616
7.046                0.995654042     -14.2353971
7.048                0.995652408     -14.2550584
7.05                 0.995650753     -14.2747457
7.052                0.995649077      -14.294459
7.054                 0.99564738     -14.3141985
7.056                0.995645663     -14.3339641
7.058                0.995643925      -14.353756
7.06                 0.995642165     -14.3735743
7.062                0.995640385     -14.3934189
7.064                0.995638584       -14.41329
7.066                0.995636762     -14.4331877
7.068                0.995634918      -14.453112
7.07                 0.995633053      -14.473063
7.072                0.995631167     -14.4930408
7.074                 0.99562926     -14.5130454
7.076                0.995627331      -14.533077
7.078                0.995625381     -14.5531355
7.08                 0.995623409     -14.5732211
7.082                0.995621415     -14.5933339
7.084                  0.9956194     -14.6134739
7.086                0.995617364     -14.6336411
7.088                0.995615305     -14.6538358
7.09                 0.995613225     -14.6740579
7.092                0.995611123     -14.6943075
7.094                0.995608999     -14.7145848
7.096                0.995606853     -14.7348897
7.098                0.995604685     -14.7552224
7.1                  0.995602495     -14.7755829
7.102                0.995600283     -14.7959713
7.104                0.995598049     -14.8163877
7.106                0.995595792     -14.8368322
7.108                0.995593513     -14.8573048
7.11                 0.995591211     -14.8778057
7.112                0.995588887     -14.8983348
7.114                0.995586541     -14.9188924
7.116                0.995584172     -14.9394784
7.118                 0.99558178     -14.9600929
7.12                 0.995579366     -14.9807361
7.122                0.995576929      -15.001408
7.124                0.995574469     -15.0221087
7.126                0.995571986     -15.0428382
7.128                 0.99556948     -15.0635967
7.13                 0.995566951     -15.0843842
7.132                0.995564399     -15.1052009
7.134                0.995561824     -15.1260467
7.136                0.995559226     -15.1469218
7.138                0.995556604     -15.1678263
7.14                 0.995553959     -15.1887602
7.142                0.995551291     -15.2097236
7.144                0.995548599     -15.2307167
7.146                0.995545884     -15.2517394
7.148                0.995543144      -15.272792
7.15                 0.995540382     -15.2938744
7.152                0.995537595     -15.3149867
7.154                0.995534785     -15.3361291
7.156                 0.99553195     -15.3573016
7.158                0.995529092     -15.3785043
7.16                  0.99552621     -15.3997372
7.162                0.995523303     -15.4210006
7.164                0.995520373     -15.4422944
7.166                0.995517418     -15.4636188
7.168                0.995514439     -15.4849738
7.17                 0.995511435     -15.5063596
7.172                0.995508407     -15.5277762
7.174                0.995505354     -15.5492236
7.176                0.995502277     -15.5707021
7.178                0.995499175     -15.5922116
7.18                 0.995496049     -15.6137523
7.182                0.995492897     -15.6353243
7.184                0.995489721     -15.6569276
7.186                0.995486519     -15.6785624
7.188                0.995483293     -15.7002287
7.19                 0.995480041     -15.7219266
7.192                0.995476764     -15.7436562
7.194                0.995473462     -15.7654176
7.196                0.995470135      -15.787211
7.198                0.995466782     -15.8090363
7.2                  0.995463403     -15.8308937
7.202                0.995459999     -15.8527832
7.204                0.995456569     -15.8747051
7.206                0.995453114     -15.8966593
7.208                0.995449633     -15.9186459
7.21                 0.995446125     -15.9406651
7.212                0.995442592      -15.962717
7.214                0.995439033     -15.9848015
7.216                0.995435447     -16.0069189
7.218                0.995431835     -16.0290693
7.22                 0.995428197     -16.0512527
7.222                0.995424533     -16.0734691
7.224                0.995420842     -16.0957188
7.226                0.995417124     -16.1180019
7.228                 0.99541338     -16.1403183
7.23                 0.995409609     -16.1626682
7.232                0.995405811     -16.1850518
7.234                0.995401987     -16.2074691
7.236                0.995398135     -16.2299201
7.238                0.995394256     -16.2524051
7.24                  0.99539035     -16.2749241
7.242                0.995386417     -16.2974772
7.244                0.995382457     -16.3200644
7.246                0.995378469      -16.342686
7.248                0.995374453      -16.365342
7.25                  0.99537041     -16.3880325
7.252                0.995366339     -16.4107577
7.254                0.995362241     -16.4335175
7.256                0.995358114     -16.4563121
7.258                 0.99535396     -16.4791417
7.26                 0.995349778     -16.5020063
7.262                0.995345567      -16.524906
7.264                0.995341328     -16.5478409
7.266                0.995337061     -16.5708112
7.268                0.995332766     -16.5938169
7.27                 0.995328441     -16.6168582
7.272                0.995324089     -16.6399351
7.274                0.995319707     -16.6630477
7.276                0.995315297     -16.6861962
7.278                0.995310858     -16.7093807
7.28                  0.99530639     -16.7326013
7.282                0.995301893     -16.7558581
7.284                0.995297366     -16.7791511
7.286                0.995292811     -16.8024806
7.288                0.995288226     -16.8258465
7.29                 0.995283611     -16.8492491
7.292                0.995278967     -16.8726884
7.294                0.995274293     -16.8961645
7.296                 0.99526959     -16.9196776
7.298                0.995264856     -16.9432278
7.3                  0.995260093     -16.9668151
7.302                0.995255299     -16.9904397
7.304                0.995250476     -17.0141018
7.306                0.995245622     -17.0378013
7.308                0.995240737     -17.0615384
7.31                 0.995235823     -17.0853133
7.312                0.995230877      -17.109126
7.314                0.995225901     -17.1329767
7.316                0.995220894     -17.1568655
7.318                0.995215856     -17.1807925
7.32                 0.995210787     -17.2047578
7.322                0.995205687     -17.2287615
7.324                0.995200556     -17.2528037
7.326                0.995195394     -17.2768847
7.328                  0.9951902     -17.3010044
7.33                 0.995184974     -17.3251629
7.332                0.995179717     -17.3493606
7.334                0.995174428     -17.3735973
7.336                0.995169107     -17.3978733
7.338                0.995163754     -17.4221887
7.34                 0.995158369     -17.4465436
7.342                0.995152952      -17.470938
7.344                0.995147502     -17.4953723
7.346                 0.99514202     -17.5198463
7.348                0.995136505     -17.5443604
7.35                 0.995130958     -17.5689146
7.352                0.995125378      -17.593509
7.354                0.995119765     -17.6181437
7.356                0.995114119     -17.6428189
7.358                 0.99510844     -17.6675348
7.36                 0.995102727     -17.6922913
7.362                0.995096981     -17.7170887
7.364                0.995091202     -17.7419271
7.366                0.995085389     -17.7668066
7.368                0.995079542     -17.7917273
7.37                 0.995073661     -17.8166894
7.372                0.995067747     -17.8416929
7.374                0.995061798     -17.8667381
7.376                0.995055815      -17.891825
7.378                0.995049798     -17.9169538
7.38                 0.995043746     -17.9421246
7.382                0.995037659     -17.9673375
7.384                0.995031538     -17.9925927
7.386                0.995025382     -18.0178903
7.388                0.995019191     -18.0432305
7.39                 0.995012965     -18.0686133
7.392                0.995006703     -18.0940389
7.394                0.995000406     -18.1195074
7.396                0.994994074      -18.145019
7.398                0.994987706     -18.1705738
7.4                  0.994981302     -18.1961719
7.402                0.994974862     -18.2218135
7.404                0.994968387     -18.2474988
7.406                0.994961875     -18.2732277
7.408                0.994955327     -18.2990006
7.41                 0.994948742     -18.3248175
7.412                0.994942121     -18.3506785
7.414                0.994935463     -18.3765838
7.416                0.994928768     -18.4025336
7.418                0.994922036      -18.428528
7.42                 0.994915267     -18.4545671
7.422                0.994908461      -18.480651
7.424                0.994901617       -18.50678
7.426                0.994894736     -18.5329541
7.428                0.994887817     -18.5591735
7.43                  0.99488086     -18.5854383
7.432                0.994873865     -18.6117487
7.434                0.994866832     -18.6381049
7.436                0.994859761     -18.6645069
7.438                0.994852652      -18.690955
7.44                 0.994845503     -18.7174492
7.442                0.994838317     -18.7439897
7.444                0.994831091     -18.7705767
7.446                0.994823826     -18.7972103
7.448                0.994816522     -18.8238907
7.45                 0.994809179      -18.850618
7.452                0.994801796     -18.8773923
7.454                0.994794374     -18.9042139
7.456                0.994786912     -18.9310828
7.458                 0.99477941     -18.9579992
7.46                 0.994771868     -18.9849634
7.462                0.994764285     -19.0119753
7.464                0.994756662     -19.0390352
7.466                0.994748999     -19.0661433
7.468                0.994741295     -19.0932996
7.47                  0.99473355     -19.1205044
7.472                0.994725764     -19.1477578
7.474                0.994717937       -19.17506
7.476                0.994710069     -19.2024111
7.478                0.994702159     -19.2298112
7.48                 0.994694207     -19.2572607
7.482                0.994686213     -19.2847595
7.484                0.994678178     -19.3123078
7.486                  0.9946701     -19.3399059
7.488                 0.99466198     -19.3675539
7.49                 0.994653818     -19.3952519
7.492                0.994645612     -19.4230002
7.494                0.994637364     -19.4507988
7.496                0.994629073      -19.478648
7.498                0.994620739     -19.5065478
7.5                  0.994612361     -19.5344986
7.502                 0.99460394     -19.5625004
7.504                0.994595475     -19.5905534
7.506                0.994586966     -19.6186577
7.508                0.994578413     -19.6468137
7.51                 0.994569815     -19.6750213
7.512                0.994561174     -19.7032809
7.514                0.994552487     -19.7315925
7.516                0.994543756     -19.7599563
7.518                 0.99453498     -19.7883725
7.52                 0.994526159     -19.8168414
7.522                0.994517293     -19.8453629
7.524                 0.99450838     -19.8739374
7.526                0.994499423     -19.9025651
7.528                0.994490419      -19.931246
7.53                 0.994481369     -19.9599803
7.532                0.994472273     -19.9887683
7.534                 0.99446313     -20.0176102
7.536                0.994453941      -20.046506
7.538                0.994444705      -20.075456
7.54                 0.994435422     -20.1044604
7.542                0.994426092     -20.1335193
7.544                0.994416714     -20.1626329
7.546                0.994407288     -20.1918015
7.548                0.994397815     -20.2210251
7.55                 0.994388294     -20.2503041
7.552                0.994378724     -20.2796385
7.554                0.994369106     -20.3090285
7.556                0.994359439     -20.3384744
7.558                0.994349724     -20.3679764
7.56                 0.994339959     -20.3975345
7.562                0.994330146     -20.4271491
7.564                0.994320282     -20.4568203
7.566                0.994310369     -20.4865482
7.568                0.994300407     -20.5163332
7.57                 0.994290394     -20.5461753
7.572                 0.99428033     -20.5760748
7.574                0.994270217     -20.6060319
7.576                0.994260052     -20.6360468
7.578                0.994249837     -20.6661196
7.58                  0.99423957     -20.6962506
7.582                0.994229252     -20.7264399
7.584                0.994218883     -20.7566878
7.586                0.994208461     -20.7869945
7.588                0.994197988     -20.8173602
7.59                 0.994187462      -20.847785
7.592                0.994176884     -20.8782692
7.594                0.994166253     -20.9088129
7.596                0.994155569     -20.9394165
7.598                0.994144832       -20.97008
7.6                  0.994134041     -21.0008037
7.602                0.994123197     -21.0315878
7.604                0.994112299     -21.0624326
7.606                0.994101347     -21.0933381
7.608                0.994090341     -21.1243047
7.61                  0.99407928     -21.1553326
7.612                0.994068164     -21.1864219
7.614                0.994056993     -21.2175728
7.616                0.994045767     -21.2487857
7.618                0.994034485     -21.2800606
7.62                 0.994023147     -21.3113979
7.622                0.994011754     -21.3427977
7.624                0.994000304     -21.3742603
7.626                0.993988798     -21.4057858
7.628                0.993977234     -21.4373746
7.63                 0.993965614     -21.4690267
7.632                0.993953937     -21.5007425
7.634                0.993942202     -21.5325221
7.636                0.993930409     -21.5643659
7.638                0.993918558     -21.5962739
7.64                 0.993906649     -21.6282465
7.642                0.993894682     -21.6602839
7.644                0.993882655     -21.6923863
7.646                 0.99387057     -21.7245538
7.648                0.993858425     -21.7567869
7.65                  0.99384622     -21.7890856
7.652                0.993833956     -21.8214503
7.654                0.993821631     -21.8538811
7.656                0.993809246     -21.8863783
7.658                0.993796801     -21.9189421
7.66                 0.993784294     -21.9515728
7.662                0.993771726     -21.9842706
7.664                0.993759097     -22.0170358
7.666                0.993746405     -22.0498685
7.668                0.993733652     -22.0827691
7.67                 0.993720836     -22.1157377
7.672                0.993707958     -22.1487746
7.674                0.993695017     -22.1818801
7.676                0.993682012     -22.2150544
7.678                0.993668944     -22.2482978
7.68                 0.993655812     -22.2816104
7.682                0.993642616     -22.3149926
7.684                0.993629356     -22.3484447
7.686                0.993616031     -22.3819667
7.688                0.993602641     -22.4155591
7.69                 0.993589186      -22.449222
7.692                0.993575665     -22.4829558
7.694                0.993562078     -22.5167606
7.696                0.993548425     -22.5506368
7.698                0.993534706     -22.5845846
7.7                   0.99352092     -22.6186042
7.702                0.993507066     -22.6526959
7.704                0.993493145       -22.68686
7.706                0.993479157     -22.7210968
7.708                  0.9934651     -22.7554064
7.71                 0.993450975     -22.7897893
7.712                0.993436781     -22.8242455
7.714                0.993422519     -22.8587755
7.716                0.993408187     -22.8933795
7.718                0.993393785     -22.9280577
7.72                 0.993379313     -22.9628105
7.722                0.993364771     -22.9976381
7.724                0.993350158     -23.0325407
7.726                0.993335474     -23.0675187
7.728                0.993320719     -23.1025724
7.73                 0.993305892     -23.1377019
7.732                0.993290993     -23.1729077
7.734                0.993276022     -23.2081899
7.736                0.993260978      -23.243549
7.738                0.993245861      -23.278985
7.74                 0.993230671     -23.3144984
7.742                0.993215407     -23.3500894
7.744                0.993200068     -23.3857584
7.746                0.993184656     -23.4215055
7.748                0.993169168     -23.4573311
7.75                 0.993153605     -23.4932356
7.752                0.993137967     -23.5292191
7.754                0.993122253      -23.565282
7.756                0.993106462     -23.6014246
7.758                0.993090595     -23.6376472
7.76                 0.993074651       -23.67395
7.762                 0.99305863     -23.7103334
7.764                 0.99304253     -23.7467978
7.766                0.993026353     -23.7833433
7.768                0.993010097     -23.8199703
7.77                 0.992993762     -23.8566792
7.772                0.992977348     -23.8934701
7.774                0.992960854     -23.9303435
7.776                 0.99294428     -23.9672997
7.778                0.992927626     -24.0043389
7.78                 0.992910891     -24.0414615
7.782                0.992894074     -24.0786678
7.784                0.992877176     -24.1159581
7.786                0.992860196     -24.1533327
7.788                0.992843133      -24.190792
7.79                 0.992825988     -24.2283363
7.792                0.992808759     -24.2659658
