! TOUCHSTONE file generated by CST DESIGN STUDIO
! Date and time: Mon Feb 10 16:43:02 2025
! Project name: C:\Work\MatlabApps\UnitCellType2OptimizationMatlab\CST\unitcell.cst
! Tree item: Tasks\Sweep1\SPara1\S-Parameters
! Header version: 2024
! Port assignment regex: !\s*Touchstone port\s*([0-9]+)\s*=\s*(CST MWS port|CST DES external port|CST DES block port)\s*(.+)\s* \(\"(.*)\"\)(\s*mode\s*([0-9]+))?.*
! Touchstone port assignment:
! Touchstone port 1 = CST DES external port 1 ("")
# GHz S MA R 50
7                    0.985142956     -7.73594763
7.002                0.985195007     -7.75817993
7.004                0.985246732     -7.78038223
7.006                0.985298134     -7.80255477
7.008                0.985349216     -7.82469778
7.01                 0.985404811     -7.84701172
7.012                0.985460092     -7.86929581
7.014                0.985515061     -7.89155024
7.016                0.985569721     -7.91377528
7.018                0.985627797     -7.93622085
7.02                 0.985685569     -7.95863662
7.022                 0.98574304      -7.9810228
7.024                0.985800213     -8.00337963
7.026                0.985859592     -8.02597043
7.028                0.985918677     -8.04853154
7.03                  0.98597747     -8.07106314
7.032                0.986035975     -8.09356545
7.034                 0.98609571     -8.11628137
7.036                0.986155164     -8.13896762
7.038                0.986214339     -8.16162442
7.04                 0.986273237     -8.18425198
7.042                0.986332862      -8.2070572
7.044                0.986392227     -8.22983284
7.046                0.986451332     -8.25257909
7.048                0.986510182      -8.2752962
7.05                 0.986569784     -8.29815764
7.052                0.986629155      -8.3209898
7.054                0.986688296      -8.3437929
7.056                0.986747209     -8.36656714
7.058                 0.98680725     -8.38947545
7.06                  0.98686709     -8.41235509
7.062                 0.98692673     -8.43520625
7.064                0.986986173     -8.45802915
7.066                0.987047108     -8.48100171
7.068                0.987107866     -8.50394621
7.07                 0.987168448     -8.52686286
7.072                0.987228856     -8.54975186
7.074                0.987290945     -8.57282797
7.076                0.987352875      -8.5958764
7.078                0.987414646     -8.61889735
7.08                  0.98747626     -8.64189103
7.082                0.987539295     -8.66511821
7.084                0.987602185     -8.68831788
7.086                0.987664932     -8.71149025
7.088                0.987727536     -8.73463553
7.09                  0.98779087     -8.75805406
7.092                0.987854072     -8.78144532
7.094                0.987917146     -8.80480952
7.096                 0.98798009     -8.82814683
7.098                 0.98804282     -8.85177589
7.1                  0.988105428     -8.87537812
7.102                0.988167916     -8.89895368
7.104                0.988230286     -8.92250277
7.106                0.988291487     -8.94633371
7.108                0.988352572     -8.97013823
7.11                 0.988413543      -8.9939165
7.112                0.988474401      -9.0176687
7.114                0.988533338      -9.0416749
7.116                0.988592169     -9.06565499
7.118                0.988650894     -9.08960913
7.12                 0.988709514     -9.11353751
7.122                0.988765887     -9.13768094
7.124                0.988822169      -9.1617986
7.126                0.988878362     -9.18589066
7.128                0.988934466     -9.20995731
7.13                 0.988988316     -9.23420258
7.132                0.989042097      -9.2584227
7.134                 0.98909581     -9.28261781
7.136                0.989149457     -9.30678809
7.138                0.989201036     -9.33112265
7.14                 0.989252565     -9.35543287
7.142                0.989304045     -9.37971889
7.144                0.989355477     -9.40398087
7.146                0.989405058     -9.42840649
7.148                0.989454602     -9.45280845
7.15                  0.98950411      -9.4771869
7.152                0.989553581       -9.501542
7.154                0.989601225     -9.52607065
7.156                0.989648841     -9.55057611
7.158                0.989696432     -9.57505852
7.16                 0.989743998     -9.59951804
7.162                0.989789487     -9.62416688
7.164                0.989834961     -9.64879299
7.166                0.989880421     -9.67339651
7.168                0.989925867     -9.69797758
7.17                 0.989968825     -9.72275562
7.172                0.990011777      -9.7475117
7.174                0.990054722     -9.77224594
7.176                0.990097661     -9.79695847
7.178                0.990137556     -9.82186097
7.18                 0.990177445     -9.84674247
7.182                0.990217327     -9.87160308
7.184                0.990257204     -9.89644294
7.186                0.990293608      -9.9214489
7.188                    0.99033     -9.94643472
7.19                  0.99036638     -9.97140051
7.192                0.990402748     -9.99634641
7.194                0.990435352     -10.0214284
7.196                0.990467941     -10.0464909
7.198                0.990500516     -10.0715341
7.2                  0.990533078      -10.096558
7.202                 0.99056185     -10.1216827
7.204                0.990590614     -10.1467886
7.206                 0.99061937     -10.1718759
7.208                0.990648119     -10.1969446
7.21                 0.990673256     -10.2220891
7.212                0.990698393     -10.2472158
7.214                0.990723532     -10.2723247
7.216                0.990748671     -10.2974159
7.218                 0.99077039     -10.3225681
7.22                 0.990792113     -10.3477035
7.222                 0.99081384     -10.3728221
7.224                0.990835571      -10.397924
7.226                0.990854112     -10.4230777
7.228                0.990872655     -10.4482154
7.23                 0.990891202      -10.473337
7.232                0.990909751     -10.4984428
7.234                0.990925144     -10.5235986
7.236                 0.99094054     -10.5487389
7.238                0.990955938     -10.5738638
7.24                 0.990971339     -10.5989733
7.242                0.990983555     -10.6241285
7.244                0.990995774     -10.6492689
7.246                0.991007998     -10.6743945
7.248                0.991020226     -10.6995054
7.25                 0.991029173     -10.7246519
7.252                0.991038121     -10.7497846
7.254                0.991047069     -10.7749034
7.256                0.991056017     -10.8000085
7.258                0.991061593     -10.8251329
7.26                 0.991067156     -10.8502445
7.262                0.991072707     -10.8753433
7.264                0.991078245     -10.9004295
7.266                0.991080525     -10.9255111
7.268                0.991082775     -10.9505807
7.27                 0.991084997     -10.9756383
7.272                 0.99108719     -11.0006841
7.274                0.991086281        -11.0257
7.276                0.991085333     -11.0507044
7.278                0.991084347     -11.0756975
7.28                 0.991083323     -11.1006792
7.282                0.991079505     -11.1256196
7.284                0.991075647     -11.1505493
7.286                 0.99107175     -11.1754682
7.288                0.991067814     -11.2003763
7.29                 0.991061428     -11.2252296
7.292                   0.991055     -11.2500729
7.294                0.991048532     -11.2749064
7.296                0.991042023       -11.29973
7.298                0.991033311     -11.3244985
7.3                   0.99102455      -11.349258
7.302                0.991015739     -11.3740083
7.304                 0.99100688     -11.3987497
7.306                   0.990996     -11.4234313
7.308                0.990985061     -11.4481043
7.31                 0.990974062     -11.4727687
7.312                0.990963005     -11.4974246
7.314                0.990950026     -11.5220175
7.316                0.990936983     -11.5466022
7.318                0.990923876     -11.5711787
7.32                 0.990910704     -11.5957469
7.322                0.990895707     -11.6202439
7.324                0.990880642     -11.6447331
7.326                0.990865511     -11.6692146
7.328                0.990850312     -11.6936885
7.33                  0.99083347      -11.718075
7.332                0.990816553     -11.7424546
7.334                0.990799561     -11.7668272
7.336                0.990782494     -11.7911929
7.338                0.990764048     -11.8154573
7.34                 0.990745512     -11.8397153
7.342                0.990726886      -11.863967
7.344                 0.99070817     -11.8882126
7.346                0.990688559     -11.9123414
7.348                0.990668845     -11.9364643
7.35                 0.990649029     -11.9605812
7.352                0.990629111     -11.9846922
7.354                0.990608782      -12.008691
7.356                0.990588348     -12.0326839
7.358                0.990567809     -12.0566711
7.36                 0.990547166     -12.0806525
7.362                0.990526593     -12.1045251
7.364                0.990505919     -12.1283923
7.366                0.990485144     -12.1522542
7.368                0.990464268     -12.1761108
7.37                 0.990443806     -12.1998774
7.372                 0.99042324     -12.2236393
7.374                0.990402571     -12.2473965
7.376                  0.9903818     -12.2711491
7.378                0.990361531     -12.2948317
7.38                 0.990341151     -12.3185101
7.382                0.990320657     -12.3421841
7.384                0.990300052     -12.3658538
7.386                0.990280005     -12.3894597
7.388                 0.99025984     -12.4130614
7.39                 0.990239557     -12.4366587
7.392                0.990219155     -12.4602518
7.394                0.990199203     -12.4837888
7.396                0.990179135     -12.5073216
7.398                0.990158952     -12.5308502
7.4                  0.990138654     -12.5543746
7.402                0.990118821     -12.5778344
7.404                0.990098877     -12.6012903
7.406                0.990078823     -12.6247425
7.408                0.990058658     -12.6481909
7.41                 0.990039146     -12.6715602
7.412                0.990019521     -12.6949262
7.414                0.989999783      -12.718289
7.416                0.989979933     -12.7416486
7.418                0.989961106      -12.764922
7.42                  0.98994216     -12.7881923
7.422                0.989923095     -12.8114595
7.424                0.989903912     -12.8347235
7.426                0.989886343      -12.857898
7.428                0.989868658     -12.8810692
7.43                 0.989850859     -12.9042369
7.432                0.989832945     -12.9274012
7.434                0.989817209     -12.9504978
7.436                0.989801373     -12.9735911
7.438                0.989785435      -12.996681
7.44                 0.989769398     -13.0197677
7.442                0.989755978     -13.0428174
7.444                0.989742466     -13.0658643
7.446                0.989728864     -13.0889084
7.448                 0.98971517     -13.1119498
7.45                 0.989704234     -13.1349939
7.452                0.989693205     -13.1580355
7.454                0.989682081     -13.1810747
7.456                0.989670863     -13.2041114
7.458                0.989662202     -13.2271878
7.46                 0.989653445     -13.2502615
7.462                 0.98964459     -13.2733324
7.464                0.989635638     -13.2964005
7.466                0.989628893     -13.3195304
7.468                 0.98962206     -13.3426573
7.47                 0.989615139     -13.3657812
7.472                0.989608131     -13.3889021
7.474                 0.98960295     -13.4120921
7.476                0.989597695     -13.4352794
7.478                0.989592367     -13.4584644
7.48                 0.989586966     -13.4816468
7.482                0.989583128     -13.5048885
7.484                0.989579217     -13.5281284
7.486                0.989575234     -13.5513666
7.488                0.989571177     -13.5746031
7.49                 0.989568632     -13.5978834
7.492                0.989566008     -13.6211618
7.494                0.989563305     -13.6444381
7.496                0.989560522     -13.6677124
7.498                0.989559584     -13.6910149
7.5                  0.989558579     -13.7143145
7.502                0.989557507     -13.7376112
7.504                0.989556372     -13.7609048
7.506                0.989557649     -13.7842343
7.508                0.989558887     -13.8075608
7.51                 0.989560087     -13.8308843
7.512                0.989561249     -13.8542051
7.514                0.989565408     -13.8775898
7.516                0.989569544     -13.9009722
7.518                0.989573656     -13.9243525
7.52                 0.989577743     -13.9477307
7.522                 0.98958504     -13.9712224
7.524                0.989592313      -13.994712
7.526                0.989599562     -14.0181998
7.528                0.989606786     -14.0416855
7.53                 0.989617046     -14.0653357
7.532                0.989627283     -14.0889837
7.534                0.989637496     -14.1126293
7.536                0.989647687     -14.1362727
7.538                0.989660401     -14.1601201
7.54                 0.989673098     -14.1839651
7.542                0.989685777     -14.2078078
7.544                0.989698438      -14.231648
7.546                0.989712858     -14.2557191
7.548                0.989727264     -14.2797881
7.55                 0.989741656      -14.303855
7.552                0.989756035     -14.3279199
7.554                 0.98977134     -14.3522134
7.556                0.989786632     -14.3765048
7.558                0.989801909     -14.4007943
7.56                 0.989817173     -14.4250818
7.562                0.989832837     -14.4495697
7.564                0.989848491     -14.4740552
7.566                0.989864135     -14.4985383
7.568                 0.98987977      -14.523019
7.57                 0.989895695     -14.5476661
7.572                0.989911624     -14.5723104
7.574                0.989927558     -14.5969519
7.576                0.989943497     -14.6215906
7.578                0.989960098      -14.646376
7.58                 0.989976721     -14.6711586
7.582                0.989993366     -14.6959386
7.584                0.990010033     -14.7207159
7.586                 0.99002798     -14.7456375
7.588                0.990045961     -14.7705568
7.59                 0.990063978     -14.7954737
7.592                0.990082028     -14.8203884
7.594                0.990101773     -14.8454837
7.596                0.990121558     -14.8705769
7.598                0.990141384      -14.895668
7.6                  0.990161251      -14.920757
7.602                0.990183008     -14.9460696
7.604                0.990204807     -14.9713801
7.606                0.990226648     -14.9966885
7.608                0.990248532     -15.0219948
7.61                 0.990271927     -15.0475774
7.612                0.990295363     -15.0731578
7.614                 0.99031884      -15.098736
7.616                0.990342357     -15.1243121
7.618                0.990366636     -15.1502067
7.62                 0.990390953     -15.1760991
7.622                0.990415309     -15.2019893
7.624                0.990439704     -15.2278773
7.626                 0.99046383     -15.2540917
7.628                0.990487994     -15.2803038
7.63                 0.990512197     -15.3065136
7.632                0.990536438     -15.3327211
7.634                0.990559417     -15.3592364
7.636                0.990582439     -15.3857493
7.638                0.990605502     -15.4122597
7.64                 0.990628606     -15.4387678
7.642                0.990649849     -15.4655393
7.644                0.990671139     -15.4923083
7.646                0.990692476     -15.5190748
7.648                0.990713858     -15.5458388
7.65                  0.99073333     -15.5728144
7.652                0.990752853     -15.5997876
7.654                0.990772428     -15.6267583
7.656                0.990792054     -15.6537266
7.658                0.990810238     -15.6808722
7.66                 0.990828478     -15.7080154
7.662                0.990846775     -15.7351564
7.664                0.990865129     -15.7622951
7.666                 0.99088277     -15.7896047
7.668                0.990900474     -15.8169122
7.67                 0.990918242     -15.8442175
7.672                0.990936071     -15.8715208
7.674                 0.99095373     -15.8990186
7.676                0.990971456     -15.9265144
7.678                0.990989248     -15.9540084
7.68                 0.991007108     -15.9815004
7.682                0.991025034      -16.009228
7.684                0.991043023     -16.0369539
7.686                0.991061077     -16.0646781
7.688                0.991079194     -16.0924005
7.69                 0.991097011      -16.120415
7.692                0.991114881     -16.1484278
7.694                0.991132806     -16.1764391
7.696                0.991150784     -16.2044489
7.698                 0.99116767     -16.2327755
7.7                  0.991184602     -16.2611005
7.702                0.991201578     -16.2894239
7.704                  0.9912186     -16.3177456
7.706                0.991233403     -16.3463884
7.708                0.991248248     -16.3750294
7.71                 0.991263136     -16.4036686
7.712                0.991278067     -16.4323061
7.714                0.991289843     -16.4612265
7.716                0.991301663     -16.4901451
7.718                0.991313527      -16.519062
7.72                 0.991325436     -16.5479772
7.722                0.991333667      -16.577118
7.724                 0.99134194     -16.6062572
7.726                0.991350256     -16.6353949
7.728                0.991358614      -16.664531
7.73                  0.99136346      -16.693831
7.732                0.991368341     -16.7231297
7.734                0.991373257     -16.7524272
7.736                0.991378209     -16.7817234
7.738                0.991380343     -16.8111353
7.74                 0.991382506     -16.8405461
7.742                0.991384698     -16.8699557
7.744                 0.99138692     -16.8993641
7.746                0.991387246     -16.9288752
7.748                0.991387601     -16.9583851
7.75                 0.991387985     -16.9878938
7.752                0.991388398     -17.0174014
7.754                0.991387757     -17.0470328
7.756                0.991387145     -17.0766632
7.758                0.991386562     -17.1062927
7.76                 0.991386007     -17.1359213
7.762                0.991384802     -17.1657217
7.764                0.991383617     -17.1955215
7.766                0.991382452     -17.2253209
7.768                0.991381307     -17.2551197
7.77                  0.99137928     -17.2851379
7.772                0.991377258     -17.3151558
7.774                0.991375239     -17.3451735
7.776                0.991373224     -17.3751908
7.778                0.991369568      -17.405459
7.78                 0.991365903     -17.4357267
7.782                0.991362228      -17.465994
7.784                0.991358544     -17.4962608
7.786                0.991352199     -17.5267768
7.788                0.991345842     -17.5572921
7.79                 0.991339474     -17.5878067
7.792                0.991333094     -17.6183206
