! TOUCHSTONE file generated by CST DESIGN STUDIO
! Date and time: Mon Feb 10 16:50:51 2025
! Project name: C:\Work\MatlabApps\UnitCellType2OptimizationMatlab\CST\unitcell.cst
! Tree item: Tasks\Sweep1\SPara1\S-Parameters
! Header version: 2024
! Port assignment regex: !\s*Touchstone port\s*([0-9]+)\s*=\s*(CST MWS port|CST DES external port|CST DES block port)\s*(.+)\s* \(\"(.*)\"\)(\s*mode\s*([0-9]+))?.*
! Touchstone port assignment:
! Touchstone port 1 = CST DES external port 1 ("")
# GHz S MA R 50
7                    0.992459998     -11.5253069
7.002                0.992489244     -11.5422453
7.004                0.992518602     -11.5591829
7.006                0.992548072     -11.5761198
7.008                0.992577655      -11.593056
7.01                 0.992616652     -11.6119974
7.012                0.992656076     -11.6309306
7.014                0.992695925     -11.6498556
7.016                  0.9927362     -11.6687727
7.018                0.992756808     -11.6894934
7.02                 0.992777628     -11.7102165
7.022                0.992798661     -11.7309421
7.024                0.992819905     -11.7516703
7.026                0.992805827     -11.7727636
7.028                0.992791348      -11.793863
7.03                 0.992776471     -11.8149683
7.032                0.992761196     -11.8360796
7.034                0.992719966     -11.8558563
7.036                0.992678304     -11.8756264
7.038                0.992636213     -11.8953899
7.04                 0.992593696     -11.9151468
7.042                0.992553598     -11.9328812
7.044                0.992513464     -11.9506098
7.046                0.992473294     -11.9683326
7.048                 0.99243309     -11.9860495
7.05                 0.992422215     -12.0025859
7.052                0.992411364     -12.0191288
7.054                0.992400537     -12.0356781
7.056                0.992389734     -12.0522341
7.058                0.992413948     -12.0693477
7.06                 0.992438216     -12.0864641
7.062                0.992462534     -12.1035831
7.064                0.992486902     -12.1207047
7.066                0.992526998     -12.1397706
7.068                0.992567454     -12.1588291
7.07                 0.992608268     -12.1778803
7.072                0.992649443     -12.1969242
7.074                0.992675745       -12.21801
7.076                0.992702362     -12.2390954
7.078                0.992729294     -12.2601803
7.08                 0.992756541      -12.281265
7.082                0.992748394     -12.3030938
7.084                0.992739994     -12.3249292
7.086                0.992731339     -12.3467711
7.088                0.992722427     -12.3686196
7.09                 0.992682457     -12.3893931
7.092                 0.99264203     -12.4101631
7.094                 0.99260115     -12.4309297
7.096                0.992559815     -12.4516927
7.098                0.992514313     -12.4703789
7.1                  0.992468701     -12.4890581
7.102                0.992422981     -12.5077304
7.104                0.992377152     -12.5263961
7.106                0.992357373     -12.5435532
7.108                0.992337622     -12.5607153
7.11                 0.992317898     -12.5778824
7.112                0.992298202     -12.5950545
7.114                0.992315932     -12.6124258
7.116                 0.99233367     -12.6298024
7.118                0.992351417     -12.6471844
7.12                 0.992369172     -12.6645718
7.122                0.992409033     -12.6837734
7.124                0.992449172     -12.7029693
7.126                0.992489589     -12.7221595
7.128                0.992530284     -12.7413444
7.13                 0.992561978     -12.7627603
7.132                0.992594048     -12.7841732
7.134                0.992626495     -12.8055832
7.136                0.992659319     -12.8269904
7.138                0.992657966     -12.8495357
7.14                 0.992656507     -12.8720871
7.142                0.992654944     -12.8946447
7.144                0.992653278     -12.9172084
7.146                0.992616091      -12.939029
7.148                0.992578459      -12.960849
7.15                 0.992540383     -12.9826684
7.152                0.992501865     -13.0044873
7.154                0.992452137     -13.0242454
7.156                0.992402222     -13.0439965
7.158                0.992352122     -13.0637407
7.16                 0.992301838     -13.0834778
7.162                0.992273001     -13.1014042
7.164                0.992244182     -13.1193336
7.166                0.992215383      -13.137266
7.168                0.992186602     -13.1552015
7.17                  0.99219649     -13.1729453
7.172                0.992206366     -13.1906962
7.174                0.992216227     -13.2084544
7.176                0.992226073     -13.2262198
7.178                0.992264154     -13.2455928
7.18                 0.992302431     -13.2649626
7.182                0.992340901     -13.2843291
7.184                0.992379566     -13.3036924
7.186                0.992415935     -13.3254196
7.188                0.992452702      -13.347142
7.19                 0.992489866     -13.3688595
7.192                0.992527428     -13.3905723
7.194                0.992533337     -13.4138127
7.196                0.992539288     -13.4370577
7.198                0.992545282     -13.4603073
7.2                  0.992551314     -13.4835616
7.202                0.992518301     -13.5064531
7.204                0.992484893     -13.5293466
7.206                0.992451089     -13.5522419
7.208                0.992416891     -13.5751392
7.21                  0.99236424     -13.5960761
7.212                0.992311328     -13.6170064
7.214                0.992258158     -13.6379304
7.216                0.992204731     -13.6588481
7.218                0.992167025     -13.6776963
7.22                 0.992129315     -13.6965452
7.222                0.992091601     -13.7153949
7.224                0.992053883     -13.7342455
7.226                0.992054821     -13.7524845
7.228                0.992055734     -13.7707317
7.23                 0.992056622      -13.788987
7.232                0.992057488     -13.8072507
7.234                0.992092277     -13.8268518
7.236                0.992127182     -13.8464524
7.238                0.992162201     -13.8660526
7.24                 0.992197335     -13.8856526
7.242                0.992237553     -13.9076796
7.244                0.992278154     -13.9297007
7.246                0.992319139     -13.9517159
7.248                0.992360508     -13.9737252
7.25                 0.992374098     -13.9976395
7.252                0.992387858     -14.0215563
7.254                0.992401791     -14.0454756
7.256                0.992415894     -14.0693974
7.258                0.992388461     -14.0933896
7.26                 0.992360714     -14.1173855
7.262                0.992332653     -14.1413851
7.264                0.992304278     -14.1653882
7.266                0.992250143     -14.1876154
7.268                0.992195691     -14.2098375
7.27                 0.992140924     -14.2320546
7.272                0.992085843     -14.2542665
7.274                0.992039609     -14.2742009
7.276                0.991993332      -14.294134
7.278                0.991947011      -14.314066
7.28                 0.991900648     -14.3339967
7.282                0.991891453     -14.3528808
7.284                0.991882233      -14.371773
7.286                0.991872987     -14.3906734
7.288                0.991863714     -14.4095821
7.29                 0.991893355     -14.4294798
7.292                0.991923043       -14.44938
7.294                0.991952777     -14.4692825
7.296                0.991982556     -14.4891875
7.298                 0.99202534      -14.511511
7.3                  0.992068462     -14.5338284
7.302                0.992111925     -14.5561397
7.304                0.992155726     -14.5784452
7.306                0.992177133     -14.6029934
7.308                0.992198816     -14.6275415
7.31                 0.992220776     -14.6520895
7.312                0.992243008     -14.6766377
7.314                0.992222614     -14.7017333
7.316                0.992202016     -14.7268333
7.318                0.992181214     -14.7519378
7.32                 0.992160208     -14.7770467
7.322                0.992106528     -14.8006559
7.324                0.992052496     -14.8242617
7.326                0.991998116     -14.8478642
7.328                0.991943388     -14.8714634
7.33                  0.99188964     -14.8926596
7.332                0.991835797     -14.9138528
7.334                 0.99178186     -14.9350431
7.336                0.991727829     -14.9562305
7.338                0.991707898     -14.9759395
7.34                  0.99168794     -14.9956559
7.342                0.991667953     -15.0153797
7.344                0.991647943     -15.0351108
7.346                0.991670686     -15.0554262
7.348                0.991693419     -15.0757467
7.35                 0.991716143     -15.0960722
7.352                0.991738857     -15.1164029
7.354                0.991782636     -15.1390533
7.356                0.991826692     -15.1616988
7.358                0.991871021     -15.1843391
7.36                 0.991915625     -15.2069742
7.362                0.991944406     -15.2321444
7.364                0.991973534     -15.2573121
7.366                0.992003011     -15.2824773
7.368                0.992032838     -15.3076399
7.37                 0.992020416     -15.3338493
7.372                0.992007915     -15.3600629
7.374                0.991995336     -15.3862807
7.376                0.991982676     -15.4125027
7.378                0.991930992       -15.43758
7.38                 0.991878956     -15.4626558
7.382                0.991826567     -15.4877303
7.384                0.991773826     -15.5128032
7.386                 0.99171346     -15.5354256
7.388                 0.99165294     -15.5580439
7.39                 0.991592267     -15.5806582
7.392                 0.99153144     -15.6032684
7.394                0.991500057     -15.6239942
7.396                0.991468644     -15.6447256
7.398                0.991437197     -15.6654629
7.4                  0.991405718      -15.686206
7.402                0.991419621     -15.7070669
7.404                0.991433476     -15.7279351
7.406                0.991447281     -15.7488106
7.408                0.991461037     -15.7696935
7.41                 0.991503909     -15.7927037
7.412                0.991546974     -15.8157105
7.414                0.991590233     -15.8387137
7.416                0.991633687     -15.8617136
7.418                0.991669124     -15.8874766
7.42                 0.991704947     -15.9132348
7.422                0.991741155     -15.9389883
7.424                0.991777745     -15.9647372
7.426                0.991774155     -15.9920369
7.428                 0.99177062     -16.0193396
7.43                 0.991767139     -16.0466453
7.432                0.991763712      -16.073954
7.434                0.991715936     -16.1005574
7.436                0.991667835      -16.127161
7.438                0.991619412      -16.153765
7.44                 0.991570668     -16.1803692
7.442                0.991505255     -16.2045763
7.444                 0.99143963     -16.2287788
7.446                0.991373793     -16.2529766
7.448                0.991307744     -16.2771698
7.45                 0.991264911     -16.2991132
7.452                0.991222032     -16.3210603
7.454                0.991179105     -16.3430113
7.456                0.991136135      -16.364966
7.458                0.991139722     -16.3865289
7.46                 0.991143232     -16.4081005
7.462                0.991146666      -16.429681
7.464                0.991150025     -16.4512704
7.466                0.991190166     -16.4747105
7.468                 0.99123042     -16.4981496
7.47                 0.991270783     -16.5215876
7.472                0.991311256     -16.5450245
7.474                0.991352588     -16.5713774
7.476                0.991394306     -16.5977241
7.478                0.991436411     -16.6240645
7.48                 0.991478904     -16.6503986
7.482                0.991485012     -16.6787873
7.484                0.991491304      -16.707177
7.486                0.991497778     -16.7355677
7.488                0.991504433     -16.7639594
7.49                 0.991462591      -16.792161
7.492                0.991420493     -16.8203641
7.494                 0.99137814     -16.8485688
7.496                 0.99133553     -16.8767748
7.498                0.991266888     -16.9027492
7.5                  0.991197985     -16.9287192
7.502                 0.99112882     -16.9546847
7.504                0.991059395     -16.9806456
7.506                0.991005308     -17.0040542
7.508                0.990951151      -17.027464
7.51                 0.990896922     -17.0508754
7.512                0.990842622     -17.0742883
7.514                0.990834119     -17.0967755
7.516                0.990825526     -17.1192721
7.518                 0.99081684     -17.1417782
7.52                 0.990808063     -17.1642939
7.522                 0.99084291     -17.1882842
7.524                 0.99087778     -17.2122762
7.526                0.990912675     -17.2362699
7.528                0.990947594     -17.2602654
7.53                 0.990992911     -17.2872295
7.532                0.991038578     -17.3141865
7.534                0.991084598     -17.3411364
7.536                0.991130966     -17.3680796
7.538                0.991146492     -17.3975408
7.54                 0.991162311     -17.4270002
7.542                0.991178425      -17.456458
7.544                0.991194833     -17.4859142
7.546                0.991160149     -17.5157495
7.548                0.991125302     -17.5455868
7.55                 0.991090295     -17.5754262
7.552                 0.99105513     -17.6052675
7.554                0.990984804     -17.6331469
7.556                0.990914184     -17.6610221
7.558                 0.99084327     -17.6888935
7.56                 0.990772063     -17.7167607
7.562                0.990707123     -17.7418442
7.564                0.990642076     -17.7669268
7.566                0.990576923     -17.7920087
7.568                0.990511667     -17.8170896
7.57                 0.990489743     -17.8406945
7.572                0.990467716     -17.8643086
7.574                0.990445588      -17.887932
7.576                 0.99042336     -17.9115646
7.578                0.990450688     -17.9362115
7.58                 0.990477966      -17.960863
7.582                0.990505189     -17.9855192
7.584                0.990532357     -18.0101802
7.586                0.990580166     -18.0377677
7.588                0.990628263     -18.0653485
7.59                 0.990676644     -18.0929225
7.592                0.990725312     -18.1204898
7.594                0.990750505     -18.1510024
7.596                0.990776079     -18.1815104
7.598                0.990802034     -18.2120139
7.6                  0.990828369     -18.2425129
7.602                0.990802805     -18.2740169
7.604                0.990777207     -18.3055224
7.606                0.990751573     -18.3370293
7.608                  0.9907259     -18.3685376
7.61                 0.990656447     -18.3984693
7.612                0.990586697     -18.4283977
7.614                 0.99051665     -18.4583229
7.616                0.990446305     -18.4882449
7.618                0.990371837     -18.5152616
7.62                 0.990297221      -18.542275
7.622                0.990222458     -18.5692854
7.624                0.990147548     -18.5962928
7.626                0.990111374     -18.6212947
7.628                0.990075094     -18.6463046
7.63                 0.990038706     -18.6713226
7.632                0.990002212     -18.6963487
7.634                0.990019722     -18.7218451
7.636                0.990037105     -18.7473489
7.638                0.990054364     -18.7728603
7.64                 0.990071499     -18.7983794
7.642                0.990119652      -18.826668
7.644                0.990167997      -18.854951
7.646                0.990216535     -18.8832286
7.648                0.990265263     -18.9115011
7.65                 0.990299524     -18.9430778
7.652                0.990334217     -18.9746472
7.654                0.990369345     -19.0062091
7.656                0.990404907     -19.0377637
7.658                0.990389753     -19.0709773
7.66                 0.990374702     -19.1041908
7.662                0.990359758     -19.1374042
7.664                 0.99034492     -19.1706176
7.666                0.990278494      -19.202762
7.668                0.990211799     -19.2349038
7.67                 0.990144838      -19.267043
7.672                0.990077609     -19.2991795
7.674                0.989994876     -19.3283995
7.676                0.989911955     -19.3576145
7.678                0.989828847     -19.3868246
7.68                 0.989745553     -19.4160295
7.682                0.989694159     -19.4427276
7.684                 0.98964265     -19.4694318
7.686                0.989591027      -19.496142
7.688                 0.98953929     -19.5228584
7.69                 0.989544209     -19.5494305
7.692                0.989548947     -19.5760125
7.694                0.989553499     -19.6026045
7.696                0.989557864     -19.6292065
7.698                0.989603382     -19.6582961
7.7                  0.989648975     -19.6873827
7.702                0.989694641     -19.7164661
7.704                 0.98974038     -19.7455464
7.706                0.989782234     -19.7781955
7.708                0.989824529     -19.8108347
7.71                 0.989867268      -19.843464
7.712                0.989910449     -19.8760837
7.714                0.989906351     -19.9110135
7.716                0.989902509     -19.9459405
7.718                0.989898923     -19.9808648
7.72                 0.989895587     -20.0157864
7.722                0.989834326     -20.0502398
7.724                0.989772868     -20.0846907
7.726                0.989711213     -20.1191393
7.728                0.989649362     -20.1535854
7.73                 0.989560214     -20.1852419
7.732                0.989470845     -20.2168914
7.734                0.989381257     -20.2485341
7.736                 0.98929145     -20.2801699
7.738                0.989224851     -20.3088618
7.74                 0.989158132     -20.3375567
7.742                0.989091295     -20.3662548
7.744                0.989024339      -20.394956
7.746                0.989014766     -20.4228517
7.748                0.989004957     -20.4507593
7.75                 0.988994913     -20.4786786
7.752                0.988984636       -20.50661
7.754                0.989025238     -20.5366343
7.756                0.989065774     -20.5666588
7.758                0.989106243     -20.5966834
7.76                 0.989146646     -20.6267083
7.762                0.989195078      -20.660474
7.764                0.989243916     -20.6942286
7.766                0.989293158     -20.7279716
7.768                0.989342806     -20.7617031
7.77                 0.989350862     -20.7984006
7.772                 0.98935932     -20.8350919
7.774                0.989368183     -20.8717768
7.776                0.989377451     -20.9084554
7.778                0.989323909     -20.9453754
7.78                 0.989270286     -20.9822923
7.782                0.989216583     -21.0192061
7.784                0.989162799     -21.0561169
7.786                0.989069506     -21.0905102
7.788                0.988975986     -21.1248949
7.79                 0.988882236     -21.1592709
7.792                 0.98878826      -21.193638
