! TOUCHSTONE file generated by CST DESIGN STUDIO
! Date and time: Mon Feb 10 16:50:44 2025
! Project name: C:\Work\MatlabApps\UnitCellType2OptimizationMatlab\CST\unitcell.cst
! Tree item: Tasks\Sweep1\SPara1\S-Parameters
! Header version: 2024
! Port assignment regex: !\s*Touchstone port\s*([0-9]+)\s*=\s*(CST MWS port|CST DES external port|CST DES block port)\s*(.+)\s* \(\"(.*)\"\)(\s*mode\s*([0-9]+))?.*
! Touchstone port assignment:
! Touchstone port 1 = CST DES external port 1 ("")
# GHz S MA R 50
7                    0.995822722     -14.4402692
7.002                0.995811611     -14.4612601
7.004                0.995800478      -14.482281
7.006                0.995789324     -14.5033321
7.008                0.995778149     -14.5244134
7.01                 0.995766951     -14.5455251
7.012                0.995755732     -14.5666673
7.014                0.995744491       -14.58784
7.016                0.995733228     -14.6090434
7.018                0.995721943     -14.6302774
7.02                 0.995710635     -14.6515424
7.022                0.995699305     -14.6728382
7.024                0.995687953     -14.6941651
7.026                0.995676578      -14.715523
7.028                 0.99566518     -14.7369123
7.03                 0.995653759     -14.7583328
7.032                0.995642315     -14.7797847
7.034                0.995630849     -14.8012681
7.036                0.995619359     -14.8227832
7.038                0.995607845     -14.8443299
7.04                 0.995596308     -14.8659085
7.042                0.995584748      -14.887519
7.044                0.995573164     -14.9091614
7.046                0.995561556      -14.930836
7.048                0.995549924     -14.9525428
7.05                 0.995538268     -14.9742819
7.052                0.995526588     -14.9960534
7.054                0.995514883     -15.0178574
7.056                0.995503154     -15.0396941
7.058                  0.9954914     -15.0615634
7.06                 0.995479622     -15.0834656
7.062                0.995467819     -15.1054007
7.064                0.995455991     -15.1273688
7.066                0.995444138     -15.1493701
7.068                0.995432259     -15.1714046
7.07                 0.995420355     -15.1934724
7.072                0.995408426     -15.2155737
7.074                0.995396471     -15.2377085
7.076                 0.99538449      -15.259877
7.078                0.995372484     -15.2820793
7.08                 0.995360451     -15.3043155
7.082                0.995348393     -15.3265856
7.084                0.995336308     -15.3488898
7.086                0.995324196     -15.3712282
7.088                0.995312058      -15.393601
7.09                 0.995299894     -15.4160081
7.092                0.995287702     -15.4384498
7.094                0.995275484     -15.4609261
7.096                0.995263238     -15.4834372
7.098                0.995250965     -15.5059831
7.1                  0.995238665      -15.528564
7.102                0.995226337       -15.55118
7.104                0.995213982     -15.5738312
7.106                0.995201599     -15.5965177
7.108                0.995189188     -15.6192397
7.11                 0.995176748     -15.6419972
7.112                0.995164281     -15.6647903
7.114                0.995151785     -15.6876192
7.116                 0.99513926      -15.710484
7.118                0.995126707     -15.7333847
7.12                 0.995114125     -15.7563217
7.122                0.995101514     -15.7792948
7.124                0.995088874     -15.8023043
7.126                0.995076205     -15.8253502
7.128                0.995063506     -15.8484328
7.13                 0.995050778     -15.8715521
7.132                 0.99503802     -15.8947081
7.134                0.995025232     -15.9179012
7.136                0.995012414     -15.9411313
7.138                0.994999566     -15.9643986
7.14                 0.994986687     -15.9877032
7.142                0.994973778     -16.0110452
7.144                0.994960838     -16.0344248
7.146                0.994947868      -16.057842
7.148                0.994934866     -16.0812971
7.15                 0.994921834     -16.1047901
7.152                 0.99490877     -16.1283211
7.154                0.994895674     -16.1518904
7.156                0.994882547     -16.1754979
7.158                0.994869388     -16.1991438
7.16                 0.994856198     -16.2228283
7.162                0.994842975     -16.2465515
7.164                 0.99482972     -16.2703134
7.166                0.994816432     -16.2941144
7.168                0.994803112     -16.3179543
7.17                 0.994789759     -16.3418335
7.172                0.994776373      -16.365752
7.174                0.994762954     -16.3897099
7.176                0.994749502     -16.4137075
7.178                0.994736016     -16.4377447
7.18                 0.994722496     -16.4618218
7.182                0.994708943     -16.4859389
7.184                0.994695356     -16.5100961
7.186                0.994681735     -16.5342935
7.188                0.994668079     -16.5585313
7.19                 0.994654389     -16.5828097
7.192                0.994640664     -16.6071287
7.194                0.994626904     -16.6314885
7.196                0.994613109     -16.6558892
7.198                0.994599279     -16.6803309
7.2                  0.994585414     -16.7048139
7.202                0.994571513     -16.7293382
7.204                0.994557576      -16.753904
7.206                0.994543603     -16.7785114
7.208                0.994529594     -16.8031605
7.21                 0.994515549     -16.8278516
7.212                0.994501467     -16.8525847
7.214                0.994487349       -16.87736
7.216                0.994473193     -16.9021776
7.218                0.994459001     -16.9270377
7.22                 0.994444771     -16.9519403
7.222                0.994430504     -16.9768858
7.224                0.994416199     -17.0018741
7.226                0.994401856     -17.0269055
7.228                0.994387475     -17.0519801
7.23                 0.994373056      -17.077098
7.232                0.994358598     -17.1022594
7.234                0.994344102     -17.1274645
7.236                0.994329567     -17.1527133
7.238                0.994314993     -17.1780061
7.24                 0.994300379      -17.203343
7.242                0.994285726     -17.2287241
7.244                0.994271034     -17.2541495
7.246                0.994256301     -17.2796196
7.248                0.994241529     -17.3051343
7.25                 0.994226716     -17.3306939
7.252                0.994211862     -17.3562984
7.254                0.994196968     -17.3819482
7.256                0.994182033     -17.4076432
7.258                0.994167057     -17.4333837
7.26                  0.99415204     -17.4591699
7.262                 0.99413698     -17.4850018
7.264                 0.99412188     -17.5108797
7.266                0.994106737     -17.5368036
7.268                0.994091551     -17.5627739
7.27                 0.994076324     -17.5887905
7.272                0.994061054     -17.6148538
7.274                 0.99404574     -17.6409637
7.276                0.994030384     -17.6671206
7.278                0.994014984     -17.6933246
7.28                 0.993999541     -17.7195758
7.282                0.993984054     -17.7458744
7.284                0.993968523     -17.7722206
7.286                0.993952948     -17.7986145
7.288                0.993937328     -17.8250564
7.29                 0.993921663     -17.8515463
7.292                0.993905954     -17.8780844
7.294                0.993890199     -17.9046709
7.296                0.993874399      -17.931306
7.298                0.993858553     -17.9579899
7.3                  0.993842661     -17.9847227
7.302                0.993826723     -18.0115046
7.304                0.993810739     -18.0383358
7.306                0.993794708     -18.0652164
7.308                 0.99377863     -18.0921466
7.31                 0.993762505     -18.1191266
7.312                0.993746332     -18.1461566
7.314                0.993730112     -18.1732368
7.316                0.993713844     -18.2003672
7.318                0.993697528     -18.2275482
7.32                 0.993681163     -18.2547799
7.322                 0.99366475     -18.2820624
7.324                0.993648288      -18.309396
7.326                0.993631776     -18.3367808
7.328                0.993615216      -18.364217
7.33                 0.993598605     -18.3917049
7.332                0.993581945     -18.4192445
7.334                0.993565234     -18.4468361
7.336                0.993548473     -18.4744798
7.338                0.993531661     -18.5021759
7.34                 0.993514798     -18.5299245
7.342                0.993497883     -18.5577259
7.344                0.993480917     -18.5855802
7.346                0.993463899     -18.6134875
7.348                0.993446829     -18.6414482
7.35                 0.993429707     -18.6694624
7.352                0.993412532     -18.6975302
7.354                0.993395304     -18.7256519
7.356                0.993378023     -18.7538277
7.358                0.993360688     -18.7820578
7.36                 0.993343299     -18.8103424
7.362                0.993325856     -18.8386816
7.364                0.993308359     -18.8670757
7.366                0.993290807     -18.8955248
7.368                  0.9932732     -18.9240293
7.37                 0.993255537     -18.9525892
7.372                 0.99323782     -18.9812048
7.374                0.993220046     -19.0098762
7.376                0.993202216     -19.0386038
7.378                0.993184329     -19.0673876
7.38                 0.993166386     -19.0962279
7.382                0.993148385      -19.125125
7.384                0.993130328      -19.154079
7.386                0.993112212     -19.1830901
7.388                0.993094038     -19.2121585
7.39                 0.993075806     -19.2412845
7.392                0.993057515     -19.2704682
7.394                0.993039166       -19.29971
7.396                0.993020757     -19.3290099
7.398                0.993002288     -19.3583683
7.4                  0.992983759     -19.3877852
7.402                 0.99296517     -19.4172611
7.404                0.992946521      -19.446796
7.406                 0.99292781     -19.4763902
7.408                0.992909038     -19.5060438
7.41                 0.992890205     -19.5357573
7.412                 0.99287131     -19.5655307
7.414                0.992852352     -19.5953642
7.416                0.992833331     -19.6252582
7.418                0.992814248     -19.6552128
7.42                 0.992795101     -19.6852283
7.422                0.992775891     -19.7153049
7.424                0.992756617     -19.7454428
7.426                0.992737278     -19.7756423
7.428                0.992717875     -19.8059035
7.43                 0.992698406     -19.8362268
7.432                0.992678872     -19.8666124
7.434                0.992659272     -19.8970604
7.436                0.992639606     -19.9275712
7.438                0.992619874     -19.9581449
7.44                 0.992600074     -19.9887819
7.442                0.992580207     -20.0194823
7.444                0.992560273     -20.0502464
7.446                0.992540271     -20.0810745
7.448                  0.9925202     -20.1119667
7.45                  0.99250006     -20.1429234
7.452                0.992479852     -20.1739448
7.454                0.992459573     -20.2050311
7.456                0.992439225     -20.2361825
7.458                0.992418807     -20.2673994
7.46                 0.992398317      -20.298682
7.462                0.992377757     -20.3300305
7.464                0.992357125     -20.3614452
7.466                0.992336421     -20.3929264
7.468                0.992315645     -20.4244742
7.47                 0.992294797     -20.4560891
7.472                0.992273875     -20.4877711
7.474                0.992252879     -20.5195206
7.476                 0.99223181     -20.5513379
7.478                0.992210666     -20.5832232
7.48                 0.992189447     -20.6151768
7.482                0.992168154     -20.6471989
7.484                0.992146784     -20.6792898
7.486                0.992125339     -20.7114498
7.488                0.992103817     -20.7436792
7.49                 0.992082218     -20.7759782
7.492                0.992060542     -20.8083471
7.494                0.992038788     -20.8407862
7.496                0.992016956     -20.8732957
7.498                0.991995045      -20.905876
7.5                  0.991973055     -20.9385272
7.502                0.991950985     -20.9712498
7.504                0.991928836     -21.0040439
7.506                0.991906606     -21.0369099
7.508                0.991884295      -21.069848
7.51                 0.991861902     -21.1028586
7.512                0.991839428     -21.1359419
7.514                0.991816871     -21.1690981
7.516                0.991794232     -21.2023277
7.518                0.991771509     -21.2356309
7.52                 0.991748703      -21.269008
7.522                0.991725812     -21.3024592
7.524                0.991702837      -21.335985
7.526                0.991679776     -21.3695855
7.528                 0.99165663     -21.4032611
7.53                 0.991633397     -21.4370121
7.532                0.991610078     -21.4708387
7.534                0.991586671     -21.5047414
7.536                0.991563177     -21.5387204
7.538                0.991539595     -21.5727759
7.54                 0.991515924     -21.6069084
7.542                0.991492164     -21.6411181
7.544                0.991468314     -21.6754054
7.546                0.991444373     -21.7097705
7.548                0.991420342     -21.7442138
7.55                  0.99139622     -21.7787356
7.552                0.991372006     -21.8133363
7.554                0.991347699      -21.848016
7.556                0.991323299     -21.8827753
7.558                0.991298806     -21.9176143
7.56                 0.991274219     -21.9525334
7.562                0.991249538      -21.987533
7.564                0.991224761     -22.0226134
7.566                0.991199888     -22.0577748
7.568                 0.99117492     -22.0930177
7.57                 0.991149854     -22.1283424
7.572                0.991124691     -22.1637493
7.574                 0.99109943     -22.1992385
7.576                0.991074071     -22.2348106
7.578                0.991048612     -22.2704659
7.58                 0.991023054     -22.3062046
7.582                0.990997395     -22.3420271
7.584                0.990971636     -22.3779339
7.586                0.990945775     -22.4139252
7.588                0.990919812     -22.4500014
7.59                 0.990893746     -22.4861628
7.592                0.990867577     -22.5224099
7.594                0.990841304     -22.5587429
7.596                0.990814927     -22.5951622
7.598                0.990788444     -22.6316683
7.6                  0.990761855     -22.6682613
7.602                 0.99073516     -22.7049419
7.604                0.990708358     -22.7417102
7.606                0.990681448     -22.7785666
7.608                 0.99065443     -22.8155117
7.61                 0.990627303     -22.8525456
7.612                0.990600066     -22.8896688
7.614                0.990572719     -22.9268817
7.616                0.990545261     -22.9641846
7.618                0.990517691      -23.001578
7.62                 0.990490009     -23.0390622
7.622                0.990462213     -23.0766376
7.624                0.990434304     -23.1143047
7.626                0.990406281     -23.1520637
7.628                0.990378142     -23.1899151
7.63                 0.990349888     -23.2278593
7.632                0.990321517     -23.2658967
7.634                0.990293029     -23.3040276
7.636                0.990264423     -23.3422526
7.638                0.990235698      -23.380572
7.64                 0.990206854     -23.4189862
7.642                 0.99017789     -23.4574956
7.644                0.990148805     -23.4961006
7.646                0.990119598     -23.5348017
7.648                0.990090269     -23.5735992
7.65                 0.990060817     -23.6124937
7.652                0.990031241     -23.6514854
7.654                0.990001541     -23.6905749
7.656                0.989971715     -23.7297626
7.658                0.989941763     -23.7690488
7.66                 0.989911684     -23.8084341
7.662                0.989881477     -23.8479188
7.664                0.989851141     -23.8875034
7.666                0.989820677     -23.9271884
7.668                0.989790082     -23.9669742
7.67                 0.989759356     -24.0068612
7.672                0.989728498     -24.0468498
7.674                0.989697508     -24.0869406
7.676                0.989666384      -24.127134
7.678                0.989635126     -24.1674304
7.68                 0.989603733     -24.2078303
7.682                0.989572205     -24.2483342
7.684                0.989540539     -24.2889425
7.686                0.989508735     -24.3296557
7.688                0.989476793     -24.3704742
7.69                 0.989444712     -24.4113986
7.692                 0.98941249     -24.4524293
7.694                0.989380128     -24.4935667
7.696                0.989347623     -24.5348114
7.698                0.989314975     -24.5761639
7.7                  0.989282183     -24.6176246
7.702                0.989249246      -24.659194
7.704                0.989216164     -24.7008727
7.706                0.989182935     -24.7426611
7.708                0.989149559     -24.7845596
7.71                 0.989116034     -24.8265689
7.712                0.989082359     -24.8686894
7.714                0.989048534     -24.9109216
7.716                0.989014558     -24.9532661
7.718                0.988980429     -24.9957233
7.72                 0.988946147     -25.0382938
7.722                 0.98891171      -25.080978
7.724                0.988877119     -25.1237766
7.726                 0.98884237     -25.1666899
7.728                0.988807465     -25.2097187
7.73                 0.988772401     -25.2528633
7.732                0.988737178     -25.2961244
7.734                0.988701794     -25.3395024
7.736                0.988666249      -25.382998
7.738                0.988630541     -25.4266116
7.74                  0.98859467     -25.4703438
7.742                0.988558634     -25.5141952
7.744                0.988522432     -25.5581663
7.746                0.988486063     -25.6022576
7.748                0.988449527     -25.6464698
7.75                 0.988412821     -25.6908034
7.752                0.988375946     -25.7352589
7.754                0.988338899      -25.779837
7.756                0.988301679     -25.8245382
7.758                0.988264287     -25.8693632
7.76                 0.988226719     -25.9143123
7.762                0.988188976     -25.9593864
7.764                0.988151056     -26.0045859
7.766                0.988112957     -26.0499115
7.768                 0.98807468     -26.0953638
7.77                 0.988036221     -26.1409432
7.772                0.987997581     -26.1866506
7.774                0.987958758     -26.2324864
7.776                0.987919751     -26.2784513
7.778                0.987880559     -26.3245459
7.78                  0.98784118     -26.3707709
7.782                0.987801612     -26.4171268
7.784                0.987761856     -26.4636142
7.786                 0.98772191     -26.5102339
7.788                0.987681771     -26.5569864
7.79                  0.98764144     -26.6038724
7.792                0.987600914     -26.6508926
