! TOUCHSTONE file generated by CST DESIGN STUDIO
! Date and time: Mon Feb 10 16:50:45 2025
! Project name: C:\Work\MatlabApps\UnitCellType2OptimizationMatlab\CST\unitcell.cst
! Tree item: Tasks\Sweep1\SPara1\S-Parameters
! Header version: 2024
! Port assignment regex: !\s*Touchstone port\s*([0-9]+)\s*=\s*(CST MWS port|CST DES external port|CST DES block port)\s*(.+)\s* \(\"(.*)\"\)(\s*mode\s*([0-9]+))?.*
! Touchstone port assignment:
! Touchstone port 1 = CST DES external port 1 ("")
# GHz S MA R 50
7                    0.995386683     -14.0289578
7.002                0.995382346     -14.0492942
7.004                 0.99537797     -14.0696595
7.006                0.995373557     -14.0900536
7.008                0.995369104     -14.1104768
7.01                 0.995364614      -14.130929
7.012                0.995360084     -14.1514104
7.014                0.995355516      -14.171921
7.016                 0.99535091      -14.192461
7.018                0.995346264     -14.2130304
7.02                 0.995341579     -14.2336293
7.022                0.995336855     -14.2542578
7.024                0.995332092      -14.274916
7.026                 0.99532729      -14.295604
7.028                0.995322448     -14.3163218
7.03                 0.995317566     -14.3370695
7.032                0.995312645     -14.3578473
7.034                0.995307684     -14.3786552
7.036                0.995302683     -14.3994933
7.038                0.995297643     -14.4203617
7.04                 0.995292562     -14.4412605
7.042                0.995287441     -14.4621898
7.044                0.995282279     -14.4831496
7.046                0.995277077     -14.5041401
7.048                0.995271835     -14.5251613
7.05                 0.995266552     -14.5462134
7.052                0.995261228     -14.5672963
7.054                0.995255863     -14.5884104
7.056                0.995250458     -14.6095555
7.058                0.995245011     -14.6307318
7.06                 0.995239523     -14.6519394
7.062                0.995233993     -14.6731784
7.064                0.995228422     -14.6944489
7.066                 0.99522281      -14.715751
7.068                0.995217156     -14.7370848
7.07                  0.99521146     -14.7584503
7.072                0.995205722     -14.7798477
7.074                0.995199941      -14.801277
7.076                0.995194119     -14.8227384
7.078                0.995188255     -14.8442319
7.08                 0.995182348     -14.8657577
7.082                0.995176398     -14.8873158
7.084                0.995170406     -14.9089064
7.086                0.995164371     -14.9305295
7.088                0.995158293     -14.9521853
7.09                 0.995152172     -14.9738737
7.092                0.995146007      -14.995595
7.094                  0.9951398     -15.0173493
7.096                0.995133549     -15.0391366
7.098                0.995127254      -15.060957
7.1                  0.995120916     -15.0828106
7.102                0.995114534     -15.1046976
7.104                0.995108108      -15.126618
7.106                0.995101637     -15.1485719
7.108                0.995095123     -15.1705595
7.11                 0.995088564     -15.1925808
7.112                0.995081961      -15.214636
7.114                0.995075313     -15.2367251
7.116                 0.99506862     -15.2588483
7.118                0.995061882     -15.2810056
7.12                   0.9950551     -15.3031972
7.122                0.995048272     -15.3254231
7.124                0.995041399     -15.3476835
7.126                 0.99503448     -15.3699785
7.128                0.995027515     -15.3923082
7.13                 0.995020505     -15.4146726
7.132                0.995013449      -15.437072
7.134                0.995006347     -15.4595063
7.136                0.994999199     -15.4819758
7.138                0.994992005     -15.5044804
7.14                 0.994984764     -15.5270204
7.142                0.994977476     -15.5495959
7.144                0.994970142     -15.5722069
7.146                 0.99496276     -15.5948535
7.148                0.994955332     -15.6175359
7.15                 0.994947856     -15.6402542
7.152                0.994940333     -15.6630085
7.154                0.994932763     -15.6857989
7.156                0.994925145     -15.7086255
7.158                0.994917479     -15.7314884
7.16                 0.994909765     -15.7543878
7.162                0.994902003     -15.7773237
7.164                0.994894192     -15.8002963
7.166                0.994886333     -15.8233056
7.168                0.994878426     -15.8463519
7.17                  0.99487047     -15.8694352
7.172                0.994862465     -15.8925556
7.174                 0.99485441     -15.9157132
7.176                0.994846307     -15.9389083
7.178                0.994838154     -15.9621408
7.18                 0.994829952     -15.9854109
7.182                0.994821699     -16.0087187
7.184                0.994813397     -16.0320643
7.186                0.994805045     -16.0554479
7.188                0.994796643     -16.0788696
7.19                  0.99478819     -16.1023295
7.192                0.994779687     -16.1258277
7.194                0.994771132     -16.1493644
7.196                0.994762527     -16.1729396
7.198                0.994753871     -16.1965535
7.2                  0.994745164     -16.2202062
7.202                0.994736405     -16.2438978
7.204                0.994727595     -16.2676285
7.206                0.994718733     -16.2913983
7.208                0.994709818     -16.3152075
7.21                 0.994700852     -16.3390561
7.212                0.994691834     -16.3629443
7.214                0.994682762     -16.3868721
7.216                0.994673639     -16.4108397
7.218                0.994664462     -16.4348473
7.22                 0.994655232      -16.458895
7.222                0.994645949     -16.4829828
7.224                0.994636613      -16.507111
7.226                0.994627223     -16.5312797
7.228                0.994617779     -16.5554889
7.23                 0.994608282     -16.5797388
7.232                 0.99459873     -16.6040296
7.234                0.994589124     -16.6283614
7.236                0.994579463     -16.6527343
7.238                0.994569747     -16.6771484
7.24                 0.994559977     -16.7016039
7.242                0.994550151     -16.7261009
7.244                 0.99454027     -16.7506396
7.246                0.994530334     -16.7752201
7.248                0.994520342     -16.7998424
7.25                 0.994510294     -16.8245069
7.252                 0.99450019     -16.8492135
7.254                0.994490029     -16.8739625
7.256                0.994479812      -16.898754
7.258                0.994469538      -16.923588
7.26                 0.994459207     -16.9484649
7.262                 0.99444882     -16.9733846
7.264                0.994438374     -16.9983473
7.266                0.994427871     -17.0233532
7.268                0.994417311     -17.0484025
7.27                 0.994406692     -17.0734952
7.272                0.994396016     -17.0986315
7.274                 0.99438528     -17.1238116
7.276                0.994374487     -17.1490355
7.278                0.994363634     -17.1743035
7.28                 0.994352722     -17.1996157
7.282                0.994341751     -17.2249722
7.284                0.994330721     -17.2503732
7.286                 0.99431963     -17.2758188
7.288                 0.99430848     -17.3013092
7.29                  0.99429727     -17.3268445
7.292                0.994285999     -17.3524249
7.294                0.994274668     -17.3780505
7.296                0.994263275     -17.4037215
7.298                0.994251822      -17.429438
7.3                  0.994240307     -17.4552002
7.302                0.994228731     -17.4810082
7.304                0.994217093     -17.5068622
7.306                0.994205393     -17.5327624
7.308                0.994193631     -17.5587088
7.31                 0.994181806     -17.5847018
7.312                0.994169918     -17.6107413
7.314                0.994157968     -17.6368276
7.316                0.994145954     -17.6629608
7.318                0.994133877     -17.6891411
7.32                 0.994121736     -17.7153687
7.322                0.994109531     -17.7416436
7.324                0.994097262     -17.7679661
7.326                0.994084928     -17.7943364
7.328                 0.99407253     -17.8207545
7.33                 0.994060067     -17.8472207
7.332                0.994047539     -17.8737351
7.334                0.994034945     -17.9002979
7.336                0.994022285     -17.9269092
7.338                 0.99400956     -17.9535693
7.34                 0.993996768     -17.9802782
7.342                0.993983909     -18.0070362
7.344                0.993970984     -18.0338434
7.346                0.993957992        -18.0607
7.348                0.993944933     -18.0876061
7.35                 0.993931806     -18.1145619
7.352                0.993918611     -18.1415677
7.354                0.993905348     -18.1686235
7.356                0.993892016     -18.1957296
7.358                0.993878616      -18.222886
7.36                 0.993865147     -18.2500931
7.362                0.993851609     -18.2773509
7.364                0.993838001     -18.3046597
7.366                0.993824324     -18.3320196
7.368                0.993810576     -18.3594308
7.37                 0.993796758     -18.3868935
7.372                 0.99378287     -18.4144078
7.374                 0.99376891     -18.4419739
7.376                 0.99375488     -18.4695921
7.378                0.993740778     -18.4972625
7.38                 0.993726604     -18.5249852
7.382                0.993712357     -18.5527605
7.384                0.993698039     -18.5805886
7.386                0.993683648     -18.6084696
7.388                0.993669184     -18.6364037
7.39                 0.993654646     -18.6643911
7.392                0.993640035      -18.692432
7.394                 0.99362535     -18.7205266
7.396                0.993610591     -18.7486751
7.398                0.993595757     -18.7768776
7.4                  0.993580849     -18.8051344
7.402                0.993565865     -18.8334457
7.404                0.993550806     -18.8618115
7.406                0.993535671     -18.8902323
7.408                 0.99352046      -18.918708
7.41                 0.993505172      -18.947239
7.412                0.993489808     -18.9758254
7.414                0.993474367     -19.0044674
7.416                0.993458848     -19.0331653
7.418                0.993443251     -19.0619191
7.42                 0.993427577     -19.0907292
7.422                0.993411824     -19.1195957
7.424                0.993395992     -19.1485188
7.426                0.993380081     -19.1774988
7.428                0.993364091     -19.2065358
7.43                 0.993348021       -19.23563
7.432                0.993331871     -19.2647817
7.434                0.993315641      -19.293991
7.436                0.993299329     -19.3232582
7.438                0.993282937     -19.3525834
7.44                 0.993266463      -19.381967
7.442                0.993249907      -19.411409
7.444                0.993233269     -19.4409098
7.446                0.993216548     -19.4704694
7.448                0.993199744     -19.5000882
7.45                 0.993182858     -19.5297663
7.452                0.993165887      -19.559504
7.454                0.993148832     -19.5893015
7.456                0.993131693      -19.619159
7.458                0.993114469     -19.6490767
7.46                  0.99309716     -19.6790548
7.462                0.993079766     -19.7090937
7.464                0.993062285     -19.7391934
7.466                0.993044719     -19.7693542
7.468                0.993027065     -19.7995763
7.47                 0.993009325       -19.82986
7.472                0.992991496     -19.8602055
7.474                0.992973581      -19.890613
7.476                0.992955576     -19.9210828
7.478                0.992937484      -19.951615
7.48                 0.992919302       -19.98221
7.482                 0.99290103     -20.0128679
7.484                0.992882669      -20.043589
7.486                0.992864218     -20.0743734
7.488                0.992845676     -20.1052216
7.49                 0.992827042     -20.1361336
7.492                0.992808318     -20.1671098
7.494                0.992789501     -20.1981503
7.496                0.992770592     -20.2292554
7.498                 0.99275159     -20.2604254
7.5                  0.992732495     -20.2916604
7.502                0.992713306     -20.3229608
7.504                0.992694023     -20.3543268
7.506                0.992674646     -20.3857586
7.508                0.992655174     -20.4172565
7.51                 0.992635606     -20.4488208
7.512                0.992615943     -20.4804516
7.514                0.992596183     -20.5121492
7.516                0.992576327      -20.543914
7.518                0.992556373      -20.575746
7.52                 0.992536322     -20.6076457
7.522                0.992516173     -20.6396132
7.524                0.992495925     -20.6716488
7.526                0.992475578     -20.7037528
7.528                0.992455132     -20.7359255
7.53                 0.992434586      -20.768167
7.532                0.992413939     -20.8004777
7.534                0.992393192     -20.8328578
7.536                0.992372343     -20.8653077
7.538                0.992351392     -20.8978274
7.54                 0.992330339     -20.9304174
7.542                0.992309183     -20.9630779
7.544                0.992287924     -20.9958092
7.546                0.992266561     -21.0286116
7.548                0.992245094     -21.0614852
7.55                 0.992223521     -21.0944304
7.552                0.992201844     -21.1274476
7.554                0.992180061     -21.1605368
7.556                0.992158171     -21.1936986
7.558                0.992136175      -21.226933
7.56                 0.992114071     -21.2602404
7.562                0.992091859     -21.2936211
7.564                0.992069539     -21.3270754
7.566                 0.99204711     -21.3606035
7.568                0.992024571     -21.3942058
7.57                 0.992001923     -21.4278826
7.572                0.991979164      -21.461634
7.574                0.991956294     -21.4954605
7.576                0.991933312     -21.5293623
7.578                0.991910218     -21.5633398
7.58                 0.991887011     -21.5973931
7.582                0.991863691     -21.6315227
7.584                0.991840257     -21.6657288
7.586                0.991816709     -21.7000117
7.588                0.991793046     -21.7343717
7.59                 0.991769267     -21.7688092
7.592                0.991745372     -21.8033244
7.594                 0.99172136     -21.8379177
7.596                0.991697232     -21.8725893
7.598                0.991672985     -21.9073396
7.6                   0.99164862     -21.9421689
7.602                0.991624135     -21.9770775
7.604                0.991599531     -22.0120657
7.606                0.991574807     -22.0471339
7.608                0.991549962     -22.0822824
7.61                 0.991524995     -22.1175114
7.612                0.991499907     -22.1528213
7.614                0.991474695     -22.1882125
7.616                0.991449361     -22.2236853
7.618                0.991423902     -22.2592399
7.62                 0.991398319     -22.2948768
7.622                 0.99137261     -22.3305963
7.624                0.991346776     -22.3663986
7.626                0.991320815     -22.4022842
7.628                0.991294727     -22.4382534
7.63                 0.991268511     -22.4743065
7.632                0.991242167     -22.5104438
7.634                0.991215693     -22.5466658
7.636                 0.99118909     -22.5829727
7.638                0.991162356     -22.6193649
7.64                 0.991135491     -22.6558427
7.642                0.991108495     -22.6924066
7.644                0.991081365     -22.7290568
7.646                0.991054103     -22.7657937
7.648                0.991026707     -22.8026177
7.65                 0.990999176     -22.8395291
7.652                0.990971509     -22.8765283
7.654                0.990943707     -22.9136157
7.656                0.990915768     -22.9507916
7.658                0.990887692     -22.9880564
7.66                 0.990859477     -23.0254104
7.662                0.990831124     -23.0628541
7.664                0.990802631     -23.1003878
7.666                0.990773997     -23.1380119
7.668                0.990745223     -23.1757267
7.67                 0.990716306     -23.2135327
7.672                0.990687248     -23.2514301
7.674                0.990658045     -23.2894195
7.676                0.990628699     -23.3275012
7.678                0.990599207     -23.3656756
7.68                  0.99056957     -23.4039431
7.682                0.990539787      -23.442304
7.684                0.990509856     -23.4807587
7.686                0.990479777     -23.5193078
7.688                 0.99044955     -23.5579515
7.69                 0.990419173     -23.5966902
7.692                0.990388645     -23.6355245
7.694                0.990357966     -23.6744546
7.696                0.990327135     -23.7134809
7.698                0.990296151      -23.752604
7.7                  0.990265014     -23.7918242
7.702                0.990233722     -23.8311419
7.704                0.990202274     -23.8705575
7.706                 0.99017067     -23.9100715
7.708                0.990138909     -23.9496843
7.71                 0.990106991     -23.9893963
7.712                0.990074913      -24.029208
7.714                0.990042676     -24.0691197
7.716                0.990010278     -24.1091319
7.718                0.989977718      -24.149245
7.72                 0.989944997     -24.1894595
7.722                0.989912112     -24.2297758
7.724                0.989879062     -24.2701944
7.726                0.989845848     -24.3107157
7.728                0.989812468     -24.3513402
7.73                 0.989778921     -24.3920682
7.732                0.989745206     -24.4329003
7.734                0.989711323     -24.4738369
7.736                0.989677269     -24.5148785
7.738                0.989643045     -24.5560255
7.74                  0.98960865     -24.5972784
7.742                0.989574081     -24.6386376
7.744                 0.98953934     -24.6801037
7.746                0.989504423     -24.7216771
7.748                0.989469332     -24.7633583
7.75                 0.989434063     -24.8051477
7.752                0.989398618     -24.8470458
7.754                0.989362993     -24.8890532
7.756                 0.98932719     -24.9311703
7.758                0.989291205     -24.9733975
7.76                  0.98925504     -25.0157355
7.762                0.989218691     -25.0581846
7.764                0.989182159     -25.1007454
7.766                0.989145443     -25.1434184
7.768                 0.98910854      -25.186204
7.77                 0.989071451     -25.2291029
7.772                0.989034174     -25.2721154
7.774                0.988996708     -25.3152421
7.776                0.988959052     -25.3584836
7.778                0.988921204     -25.4018403
7.78                 0.988883165     -25.4453128
7.782                0.988844932     -25.4889015
7.784                0.988806505     -25.5326071
7.786                0.988767882     -25.5764301
7.788                0.988729062     -25.6203709
7.79                 0.988690045     -25.6644301
7.792                0.988650828     -25.7086083
