! TOUCHSTONE file generated by CST DESIGN STUDIO
! Date and time: Mon Feb 10 16:50:54 2025
! Project name: C:\Work\MatlabApps\UnitCellType2OptimizationMatlab\CST\unitcell.cst
! Tree item: Tasks\Sweep1\SPara1\S-Parameters
! Header version: 2024
! Port assignment regex: !\s*Touchstone port\s*([0-9]+)\s*=\s*(CST MWS port|CST DES external port|CST DES block port)\s*(.+)\s* \(\"(.*)\"\)(\s*mode\s*([0-9]+))?.*
! Touchstone port assignment:
! Touchstone port 1 = CST DES external port 1 ("")
# GHz S MA R 50
7                    0.989773567     -9.51371346
7.002                0.989752322     -9.53133429
7.004                0.989731279     -9.54894144
7.006                0.989710439     -9.56653502
7.008                0.989689801     -9.58411515
7.01                  0.98970646     -9.60122168
7.012                0.989724065     -9.61830664
7.014                0.989742614     -9.63537003
7.016                0.989762109     -9.65241202
7.018                0.989811684     -9.67088239
7.02                 0.989861958     -9.68935233
7.022                0.989912933     -9.70782196
7.024                0.989964608      -9.7262914
7.026                0.990018642     -9.74715035
7.028                0.990072036     -9.76802496
7.03                 0.990124788     -9.78891491
7.032                0.990176898     -9.80982011
7.034                0.990200182     -9.83237668
7.036                0.990222359     -9.85492228
7.038                0.990243435     -9.87745675
7.04                 0.990263417     -9.89998002
7.042                0.990244087     -9.92215763
7.044                0.990224335     -9.94430494
7.046                0.990204168     -9.96642211
7.048                0.990183587     -9.98850919
7.05                 0.990144633     -10.0085854
7.052                0.990105565     -10.0286482
7.054                0.990066386     -10.0486978
7.056                  0.9900271     -10.0687344
7.058                0.990003509     -10.0867345
7.06                 0.989979954     -10.1047268
7.062                0.989956433     -10.1227116
7.064                0.989932945     -10.1406889
7.066                0.989945138        -10.1581
7.068                0.989958056     -10.1754926
7.07                 0.989971696     -10.1928668
7.072                0.989986058     -10.2102227
7.074                0.990030231     -10.2288614
7.076                0.990075229     -10.2474948
7.078                0.990121051      -10.266123
7.08                 0.990167698     -10.2847461
7.082                0.990218159     -10.3056466
7.084                 0.99026833      -10.326561
7.086                0.990318211     -10.3474894
7.088                0.990367799     -10.3684318
7.09                 0.990391162     -10.3910583
7.092                0.990413527     -10.4136812
7.094                  0.9904349     -10.4363005
7.096                0.990455284     -10.4589161
7.098                0.990437552     -10.4813612
7.1                  0.990419319      -10.503781
7.102                0.990400595     -10.5261756
7.104                0.990381383     -10.5485452
7.106                 0.99034206     -10.5690543
7.108                0.990302611     -10.5895506
7.11                  0.99026304     -10.6100344
7.112                0.990223349     -10.6305057
7.114                0.990196709     -10.6489365
7.116                 0.99016999     -10.6673642
7.118                0.990143192      -10.685789
7.12                 0.990116318     -10.7042111
7.122                 0.99012402     -10.7219461
7.124                0.990132221     -10.7396669
7.126                0.990140919     -10.7573735
7.128                0.990150117     -10.7750659
7.13                 0.990189821     -10.7939003
7.132                0.990230385     -10.8127259
7.134                0.990271807     -10.8315427
7.136                 0.99031409     -10.8503508
7.138                0.990362097     -10.8713671
7.14                 0.990410128     -10.8923949
7.142                0.990458181      -10.913434
7.144                0.990506257     -10.9344844
7.146                0.990530373     -10.9572941
7.148                0.990553644     -10.9801061
7.15                 0.990576072     -11.0029201
7.152                0.990597659     -11.0257363
7.154                0.990581743     -11.0485641
7.156                0.990565265     -11.0713715
7.158                0.990548229     -11.0941587
7.16                 0.990530637     -11.1169256
7.162                0.990490651      -11.137971
7.164                0.990450524     -11.1590037
7.166                 0.99041026     -11.1800238
7.168                 0.99036986     -11.2010315
7.17                 0.990339548      -11.219974
7.172                 0.99030909     -11.2389165
7.174                0.990278489     -11.2578593
7.176                0.990247744     -11.2768025
7.178                0.990250615      -11.294904
7.18                 0.990253774     -11.3129957
7.182                0.990257219     -11.3310778
7.184                0.990260948     -11.3491503
7.186                0.990296559     -11.3682153
7.188                0.990332988     -11.3872694
7.19                 0.990370236     -11.4063125
7.192                0.990408304     -11.4253448
7.194                0.990454551     -11.4465366
7.196                0.990501084      -11.467736
7.198                0.990547904     -11.4889432
7.2                  0.990595009     -11.5101584
7.202                0.990620454     -11.5332302
7.204                0.990645244     -11.5563083
7.206                0.990669378     -11.5793926
7.208                0.990692859      -11.602483
7.21                 0.990679123       -11.62579
7.212                0.990664774     -11.6490815
7.214                 0.99064982     -11.6723576
7.216                0.990634263     -11.6956184
7.218                 0.99059367     -11.7173038
7.22                 0.990552909     -11.7389761
7.222                0.990511983     -11.7606355
7.224                0.990470895     -11.7822822
7.226                0.990436521     -11.8018216
7.228                0.990401971     -11.8213631
7.23                 0.990367245     -11.8409068
7.232                0.990332349     -11.8604526
7.234                0.990330017     -11.8789805
7.236                0.990327785     -11.8975035
7.238                0.990325651     -11.9160216
7.24                 0.990323619     -11.9345349
7.242                0.990355294     -11.9538688
7.244                0.990387687      -11.973191
7.246                0.990420799     -11.9925015
7.248                0.990454632     -12.0118001
7.25                 0.990499708     -12.0332199
7.252                0.990545278     -12.0546436
7.254                0.990591341      -12.076071
7.256                0.990637898     -12.0975023
7.258                0.990665261     -12.1209145
7.26                 0.990692186     -12.1443354
7.262                0.990718673      -12.167765
7.264                0.990744722      -12.191203
7.266                0.990733593     -12.2150862
7.268                0.990721838     -12.2389588
7.27                 0.990709459     -12.2628208
7.272                0.990696456     -12.2866721
7.274                0.990655397     -12.3091051
7.276                0.990614132     -12.3315249
7.278                0.990572664     -12.3539317
7.28                 0.990530995     -12.3763254
7.282                0.990492098     -12.3965665
7.284                0.990453017     -12.4168101
7.286                0.990413755     -12.4370563
7.288                0.990374313     -12.4573054
7.29                 0.990366072     -12.4763259
7.292                0.990357775     -12.4953459
7.294                0.990349422     -12.5143655
7.296                0.990341013     -12.5333848
7.298                0.990368441     -12.5530274
7.3                  0.990396443     -12.5726588
7.302                 0.99042502      -12.592279
7.304                0.990454173      -12.611888
7.306                0.990498422     -12.6335651
7.308                0.990543306     -12.6552419
7.31                 0.990588826     -12.6769184
7.312                0.990634981     -12.6985951
7.314                0.990664923     -12.7223971
7.316                0.990694662     -12.7462084
7.318                0.990724198     -12.7700292
7.32                 0.990753532     -12.7938594
7.322                0.990745898     -12.8183957
7.324                0.990737657     -12.8429261
7.326                0.990728812     -12.8674506
7.328                0.990719365     -12.8919692
7.33                 0.990678543     -12.9152646
7.332                0.990637467      -12.938547
7.334                 0.99059614     -12.9618164
7.336                0.990554562     -12.9850728
7.338                0.990511195     -13.0061413
7.34                 0.990467651     -13.0272118
7.342                0.990423931     -13.0482845
7.344                0.990380039     -13.0693593
7.346                0.990365272     -13.0889821
7.348                 0.99035033     -13.1086084
7.35                 0.990335213     -13.1282383
7.352                0.990319922     -13.1478718
7.354                0.990342534     -13.1678905
7.356                0.990365552     -13.1878997
7.358                0.990388972     -13.2078996
7.36                 0.990412792     -13.2278901
7.362                 0.99045602     -13.2498754
7.364                0.990499958     -13.2718568
7.366                0.990544606     -13.2938344
7.368                0.990589965     -13.3158081
7.37                 0.990622699     -13.3400551
7.372                 0.99065547     -13.3643109
7.374                0.990688277     -13.3885754
7.376                0.990721119     -13.4128487
7.378                0.990717434     -13.4381102
7.38                 0.990713207       -13.46337
7.382                 0.99070844      -13.488628
7.384                 0.99070313     -13.5138842
7.386                0.990663029     -13.5381424
7.388                0.990622625     -13.5623882
7.39                 0.990581917     -13.5866215
7.392                0.990540908     -13.6108425
7.394                 0.99049295     -13.6328674
7.396                0.990444824     -13.6548927
7.398                0.990396533     -13.6769188
7.4                  0.990348078     -13.6989457
7.402                0.990325996     -13.7192796
7.404                0.990303657     -13.7396202
7.406                0.990281061     -13.7599677
7.408                0.990258209      -13.780322
7.41                 0.990275138     -13.8007807
7.412                0.990292278     -13.8212328
7.414                0.990309629     -13.8416784
7.416                0.990327193     -13.8621177
7.418                0.990368993     -13.8844417
7.42                 0.990411507     -13.9067588
7.422                0.990454737     -13.9290689
7.424                0.990498683     -13.9513723
7.426                0.990534379     -13.9760865
7.428                0.990570338     -14.0008074
7.43                 0.990606561      -14.025535
7.432                0.990643048     -14.0502695
7.434                0.990644077     -14.0763021
7.436                0.990644671     -14.1023365
7.438                0.990644833     -14.1283726
7.44                 0.990644564     -14.1544104
7.442                0.990606194     -14.1797224
7.444                0.990567474     -14.2050232
7.446                0.990528408     -14.2303126
7.448                0.990488996     -14.2555907
7.45                 0.990436935     -14.2787007
7.452                0.990384715     -14.3018094
7.454                0.990332338     -14.3249168
7.456                0.990279806     -14.3480228
7.458                 0.99025007     -14.3691937
7.46                 0.990220027     -14.3903737
7.462                0.990189679     -14.4115627
7.464                0.990159028      -14.432761
7.466                 0.99016952     -14.4537512
7.468                0.990180036     -14.4747385
7.47                 0.990190572      -14.495723
7.472                0.990201128     -14.5167046
7.474                0.990241124     -14.5394188
7.476                0.990281778     -14.5621241
7.478                0.990323089     -14.5848203
7.48                 0.990365058     -14.6075076
7.482                0.990403979     -14.6327318
7.484                0.990443364     -14.6579598
7.486                0.990483215     -14.6831916
7.488                0.990523531     -14.7084274
7.49                 0.990530122     -14.7352928
7.492                0.990536435     -14.7621625
7.494                0.990542469     -14.7890363
7.496                 0.99054822     -14.8159142
7.498                0.990512692     -14.8423915
7.5                  0.990476789      -14.868859
7.502                0.990440514     -14.8953169
7.504                0.990403867     -14.9217652
7.506                0.990348302     -14.9461243
7.508                0.990292578     -14.9704795
7.51                 0.990236699     -14.9948311
7.512                0.990180664      -15.019179
7.514                0.990142653     -15.0413638
7.516                0.990104317     -15.0635587
7.518                0.990065656     -15.0857638
7.52                 0.990026674     -15.1079793
7.522                0.990029372     -15.1296309
7.524                0.990031907     -15.1512838
7.526                0.990034277     -15.1729381
7.528                0.990036485     -15.1945938
7.53                 0.990073354     -15.2177673
7.532                0.990110759      -15.240931
7.534                  0.9901487     -15.2640847
7.536                0.990187179     -15.2872289
7.538                0.990228623     -15.3129923
7.54                 0.990270692     -15.3387558
7.542                0.990313385     -15.3645194
7.544                0.990356705     -15.3902833
7.546                 0.99036898     -15.4180128
7.548                0.990381165     -15.4457478
7.55                  0.99039326     -15.4734884
7.552                0.990405267     -15.5012345
7.554                 0.99037335     -15.5289486
7.556                0.990341061     -15.5566551
7.558                0.990308401     -15.5843539
7.56                 0.990275369     -15.6120451
7.562                0.990216956     -15.6377769
7.564                0.990158383     -15.6635025
7.566                0.990099648      -15.689222
7.568                0.990040754     -15.7149351
7.57                 0.989994253     -15.7382759
7.572                0.989947432     -15.7616269
7.574                0.989900293     -15.7849881
7.576                0.989852836     -15.8083594
7.578                0.989846729     -15.8307844
7.58                 0.989840295     -15.8532149
7.582                 0.98983353     -15.8756512
7.584                0.989826435     -15.8980931
7.586                0.989859285     -15.9217848
7.588                0.989892499      -15.945467
7.59                 0.989926074     -15.9691397
7.592                0.989960011     -15.9928029
7.594                0.990003805     -16.0191312
7.596                0.990048329     -16.0454557
7.598                0.990093584     -16.0717763
7.6                  0.990139571     -16.0980932
7.602                0.990158271       -16.12672
7.604                0.990177104     -16.1553523
7.606                0.990196069       -16.18399
7.608                 0.99021516     -16.2126333
7.61                 0.990188373     -16.2416626
7.612                0.990161257     -16.2706865
7.614                0.990133814     -16.2997048
7.616                0.990106042     -16.3287178
7.618                0.990046147     -16.3559794
7.62                 0.989986083     -16.3832323
7.622                0.989925854     -16.4104766
7.624                0.989865458     -16.4377124
7.626                0.989810667      -16.462415
7.628                0.989755583     -16.4871265
7.63                 0.989700207     -16.5118468
7.632                0.989644541      -16.536576
7.634                0.989628628      -16.559952
7.636                 0.98961224      -16.583338
7.638                0.989595378      -16.606734
7.64                 0.989578046       -16.63014
7.642                0.989605525     -16.6544601
7.644                0.989633142     -16.6787725
7.646                0.989660896     -16.7030772
7.648                 0.98968879     -16.7273744
7.65                 0.989734117     -16.7543231
7.652                0.989780214     -16.7812638
7.654                 0.98982708     -16.8081967
7.656                0.989874718     -16.8351217
7.658                0.989900028      -16.864687
7.66                 0.989925707     -16.8942565
7.662                0.989951756       -16.92383
7.664                0.989978177     -16.9534077
7.666                 0.98995759      -16.983843
7.668                0.989936767     -17.0142749
7.67                  0.98991571     -17.0447034
7.672                0.989894415     -17.0751284
7.674                0.989834223     -17.1040811
7.676                0.989773865     -17.1330229
7.678                0.989713343     -17.1619539
7.68                 0.989652656     -17.1908737
7.682                0.989589633     -17.2171503
7.684                0.989526361     -17.2434332
7.686                0.989462841     -17.2697223
7.688                0.989399075     -17.2960177
7.69                 0.989372028     -17.3205424
7.692                0.989344392     -17.3450806
7.694                0.989316163     -17.3696327
7.696                0.989287343     -17.3941986
7.698                0.989307499     -17.4192738
7.7                  0.989327523     -17.4443445
7.702                0.989347414     -17.4694106
7.704                0.989367173     -17.4944722
7.706                0.989412568     -17.5220916
7.708                 0.98945869     -17.5496996
7.71                 0.989505539     -17.5772961
7.712                0.989553118     -17.6048814
7.714                0.989584685     -17.6354008
7.716                0.989616866     -17.6659214
7.718                0.989649659     -17.6964433
7.72                 0.989683062     -17.7269665
7.722                0.989669632      -17.758844
7.724                 0.98965612     -17.7907197
7.726                0.989642524     -17.8225934
7.728                0.989628845     -17.8544654
7.73                 0.989569895     -17.8852323
7.732                0.989510798     -17.9159859
7.734                0.989451558     -17.9467264
7.736                0.989392174     -17.9774537
7.738                0.989321771     -18.0055024
7.74                 0.989251186     -18.0335534
7.742                0.989180421     -18.0616066
7.744                0.989109477      -18.089662
7.746                0.989070775      -18.115541
7.748                0.989031393      -18.141437
7.75                 0.988991331     -18.1673499
7.752                0.988950594       -18.19328
7.754                0.988962202     -18.2192581
7.756                0.988973358     -18.2452362
7.758                0.988984064     -18.2712143
7.76                  0.98899432     -18.2971925
7.762                0.989038845     -18.3255649
7.764                0.989083963     -18.3539232
7.766                0.989129669     -18.3822671
7.768                0.989175966     -18.4105967
7.77                 0.989213857     -18.4421266
7.772                0.989252595     -18.4736536
7.774                 0.98929218     -18.5051776
7.776                0.989332616     -18.5366987
7.778                0.989327547     -18.5701082
7.78                 0.989322618     -18.6035167
7.782                0.989317831     -18.6369243
7.784                0.989313183     -18.6703308
7.786                0.989257229     -18.7030866
7.788                0.989201193     -18.7358269
7.79                 0.989145072     -18.7685515
7.792                0.989088865     -18.8012603
