! TOUCHSTONE file generated by CST DESIGN STUDIO
! Date and time: Mon Feb 10 16:50:53 2025
! Project name: C:\Work\MatlabApps\UnitCellType2OptimizationMatlab\CST\unitcell.cst
! Tree item: Tasks\Sweep1\SPara1\S-Parameters
! Header version: 2024
! Port assignment regex: !\s*Touchstone port\s*([0-9]+)\s*=\s*(CST MWS port|CST DES external port|CST DES block port)\s*(.+)\s* \(\"(.*)\"\)(\s*mode\s*([0-9]+))?.*
! Touchstone port assignment:
! Touchstone port 1 = CST DES external port 1 ("")
# GHz S MA R 50
7                    0.991269851     -10.6066595
7.002                0.991278334     -10.6233613
7.004                0.991286929     -10.6400594
7.006                0.991295637     -10.6567538
7.008                0.991304459     -10.6734446
7.01                 0.991337853     -10.6912261
7.012                0.991371867     -10.7089941
7.014                0.991406501     -10.7267487
7.016                0.991441756       -10.74449
7.018                0.991478916      -10.764111
7.02                 0.991516492     -10.7837336
7.022                0.991554484      -10.803358
7.024                0.991592892     -10.8229843
7.026                0.991609079     -10.8440069
7.028                0.991624768     -10.8650397
7.03                  0.99163996     -10.8860825
7.032                0.991654657     -10.9071352
7.034                   0.991638     -10.9280982
7.036                0.991620656     -10.9490521
7.038                 0.99160263     -10.9699969
7.04                 0.991583924     -10.9909325
7.042                 0.99154762     -11.0103627
7.044                0.991511165     -11.0297782
7.046                0.991474562     -11.0491788
7.048                0.991437812     -11.0685648
7.05                 0.991411141     -11.0862016
7.052                0.991384448       -11.10384
7.054                0.991357735     -11.1214801
7.056                0.991331004     -11.1391219
7.058                0.991334389     -11.1561224
7.06                 0.991337793     -11.1731236
7.062                0.991341212     -11.1901256
7.064                0.991344646     -11.2071284
7.066                0.991375713      -11.225082
7.068                0.991407272     -11.2430241
7.07                 0.991439319     -11.2609545
7.072                0.991471857     -11.2788734
7.074                0.991509876     -11.2987082
7.076                0.991548423     -11.3185407
7.078                0.991587499      -11.338371
7.08                 0.991627105     -11.3581993
7.082                0.991646228     -11.3796116
7.084                0.991665084     -11.4010339
7.086                0.991683674     -11.4224662
7.088                0.991701994     -11.4439086
7.09                 0.991687622      -11.465488
7.092                0.991672582     -11.4870635
7.094                0.991656877      -11.508635
7.096                0.991640508     -11.5302025
7.098                0.991602708     -11.5503668
7.1                   0.99156467     -11.5705168
7.102                0.991526399     -11.5906529
7.104                0.991487895     -11.6107752
7.106                 0.99145577     -11.6290351
7.108                0.991423627     -11.6472951
7.11                 0.991391465     -11.6655554
7.112                0.991359285     -11.6838159
7.114                0.991356664     -11.7011904
7.116                0.991353995      -11.718569
7.118                0.991351277     -11.7359519
7.12                 0.991348514      -11.753339
7.122                0.991376481     -11.7714926
7.124                0.991404798     -11.7896373
7.126                0.991433464     -11.8077734
7.128                0.991462481     -11.8259009
7.13                 0.991501329     -11.8459494
7.132                0.991540757     -11.8659926
7.134                0.991580764     -11.8860305
7.136                0.991621353     -11.9060633
7.138                 0.99164402     -11.9278792
7.14                  0.99166664     -11.9497039
7.142                0.991689213     -11.9715374
7.144                0.991711738     -11.9933795
7.146                0.991700612      -12.015631
7.148                0.991688881     -12.0378828
7.15                 0.991676545     -12.0601351
7.152                0.991663608     -12.0823877
7.154                0.991625175     -12.1033817
7.156                0.991586425     -12.1243632
7.158                0.991547357     -12.1453324
7.16                 0.991507975      -12.166289
7.162                0.991470446     -12.1852914
7.164                0.991432889     -12.2042919
7.166                0.991395302     -12.2232908
7.168                0.991357687     -12.2422881
7.17                 0.991348238     -12.2601406
7.172                 0.99133871     -12.2779994
7.174                0.991329099     -12.2958646
7.176                0.991319407     -12.3137363
7.178                0.991343287     -12.3321394
7.18                 0.991367382     -12.3505373
7.182                 0.99139169     -12.3689299
7.184                0.991416212     -12.3873172
7.186                0.991455457     -12.4075925
7.188                0.991495276     -12.4278604
7.19                 0.991535669     -12.4481209
7.192                0.991576638     -12.4683742
7.194                0.991603102     -12.4906036
7.196                0.991629717     -12.5128392
7.198                0.991656483     -12.5350812
7.2                  0.991683396     -12.5573295
7.202                0.991676346     -12.5802831
7.204                0.991668796     -12.6032405
7.206                0.991660746     -12.6262016
7.208                0.991652197     -12.6491664
7.21                 0.991614077     -12.6710721
7.212                0.991575566     -12.6929675
7.214                0.991536667     -12.7148527
7.216                0.991497382     -12.7367277
7.218                0.991454807     -12.7565929
7.22                 0.991412176     -12.7764541
7.222                0.991369491     -12.7963117
7.224                0.991326753     -12.8161655
7.226                0.991309899     -12.8346042
7.228                0.991292949     -12.8530504
7.23                 0.991275904      -12.871504
7.232                0.991258769     -12.8899652
7.234                0.991277613     -12.9086854
7.236                0.991296548     -12.9274042
7.238                0.991315572     -12.9461215
7.24                  0.99133469     -12.9648375
7.242                0.991373797     -12.9853583
7.244                0.991413427     -13.0058708
7.246                0.991453579     -13.0263749
7.248                0.991494255     -13.0468707
7.25                  0.99152474     -13.0695232
7.252                0.991555538     -13.0921791
7.254                0.991586651     -13.1148382
7.256                0.991618079     -13.1375006
7.258                0.991615944     -13.1611932
7.26                 0.991613447     -13.1848917
7.262                0.991610588     -13.2085961
7.264                0.991607366     -13.2323064
7.266                0.991570563     -13.2552102
7.268                0.991533323     -13.2781066
7.27                 0.991495648     -13.3009955
7.272                0.991457538     -13.3238769
7.274                0.991410359     -13.3447327
7.276                0.991363085      -13.365583
7.278                0.991315715     -13.3864278
7.28                 0.991268249      -13.407267
7.282                 0.99124333     -13.4264219
7.284                0.991218319     -13.4455839
7.286                0.991193213     -13.4647534
7.288                0.991168015     -13.4839303
7.29                  0.99118056      -13.503043
7.292                0.991193094     -13.5221577
7.294                0.991205614     -13.5412747
7.296                0.991218121     -13.5603939
7.298                0.991256144     -13.5811841
7.3                  0.991294601     -13.6019661
7.302                0.991333491       -13.62274
7.304                0.991372816     -13.6435058
7.306                0.991407319     -13.6665725
7.308                0.991442258     -13.6896392
7.31                 0.991477634     -13.7127059
7.312                0.991513444     -13.7357728
7.314                0.991517121     -13.7602164
7.316                0.991520601     -13.7846668
7.318                0.991523883      -13.809124
7.32                 0.991526967     -13.8335881
7.322                 0.99149293     -13.8575581
7.324                0.991458438     -13.8815237
7.326                0.991423495     -13.9054849
7.328                0.991388102     -13.9294416
7.33                 0.991337352     -13.9514247
7.332                0.991286451     -13.9734008
7.334                0.991235402     -13.9953701
7.336                0.991184205     -14.0173326
7.338                0.991151109     -14.0373574
7.34                 0.991117925     -14.0573886
7.342                0.991084653     -14.0774262
7.344                0.991051296     -14.0974702
7.346                0.991056401     -14.1170974
7.348                0.991061412       -14.13673
7.35                  0.99106633     -14.1563682
7.352                0.991071156     -14.1760119
7.354                0.991106913     -14.1971261
7.356                0.991142994     -14.2182337
7.358                0.991179395     -14.2393344
7.36                 0.991216117     -14.2604283
7.362                0.991254113     -14.2839271
7.364                0.991292619     -14.3074228
7.366                0.991331635     -14.3309154
7.368                0.991371162     -14.3544048
7.37                 0.991381065     -14.3796213
7.372                0.991390946     -14.4048442
7.374                0.991400805     -14.4300735
7.376                 0.99141064     -14.4553093
7.378                0.991380369       -14.48041
7.38                 0.991349668     -14.5055092
7.382                 0.99131854     -14.5306069
7.384                0.991286981      -14.555703
7.386                0.991233495     -14.5789365
7.388                  0.9911798     -14.6021625
7.39                 0.991125897      -14.625381
7.392                0.991071787     -14.6485921
7.394                0.991030251     -14.6696474
7.396                0.990988631     -14.6907071
7.398                0.990946925     -14.7117714
7.4                  0.990905135     -14.7328403
7.402                 0.99090149     -14.7531061
7.404                0.990897697     -14.7733799
7.406                0.990893755     -14.7936619
7.408                0.990889664     -14.8139521
7.41                 0.990921692     -14.8354443
7.412                 0.99095391      -14.856932
7.414                 0.99098632     -14.8784151
7.416                0.991018923     -14.8998938
7.418                0.991059677      -14.923825
7.42                 0.991100962     -14.9477504
7.422                0.991142781       -14.97167
7.424                 0.99118513      -14.995584
7.426                0.991201615      -15.021564
7.428                0.991218255     -15.0475487
7.43                 0.991235048     -15.0735383
7.432                0.991251995     -15.0995328
7.434                0.991226809     -15.1258028
7.436                0.991201255      -15.152074
7.438                0.991175336     -15.1783462
7.44                 0.991149052     -15.2046195
7.442                0.991094239     -15.2292188
7.444                0.991039161     -15.2538106
7.446                 0.99098382      -15.278395
7.448                0.990928216      -15.302972
7.45                 0.990878633     -15.3252212
7.452                 0.99082896     -15.3474727
7.454                0.990779199     -15.3697265
7.456                0.990729351     -15.3919824
7.458                0.990716121     -15.4130325
7.46                 0.990702707     -15.4340925
7.462                 0.99068911     -15.4551623
7.464                0.990675332     -15.4762422
7.466                0.990702293     -15.4981985
7.468                0.990729317     -15.5201534
7.47                 0.990756401     -15.5421067
7.472                0.990783544     -15.5640585
7.474                 0.99082634     -15.5884473
7.476                0.990869642     -15.6128285
7.478                0.990913451     -15.6372021
7.48                 0.990957766     -15.6615681
7.482                0.990981247     -15.6883256
7.484                0.991005044     -15.7150853
7.486                0.991029157     -15.7418473
7.488                0.991053584     -15.7686118
7.49                 0.991034879     -15.7961063
7.492                0.991015914     -15.8236038
7.494                0.990996689     -15.8511041
7.496                0.990977201     -15.8786072
7.498                 0.99092262     -15.9047097
7.5                  0.990867732     -15.9308054
7.502                 0.99081254     -15.9568945
7.504                0.990757042     -15.9829769
7.506                0.990699951     -16.0066233
7.508                0.990642756     -16.0302692
7.51                 0.990585458     -16.0539147
7.512                0.990528057       -16.07756
7.514                0.990504127     -16.0995976
7.516                    0.99048     -16.1216457
7.518                0.990455675     -16.1437045
7.52                 0.990431154      -16.165774
7.522                0.990451063     -16.1883247
7.524                0.990470902     -16.2108773
7.526                0.990490672     -16.2334319
7.528                0.990510373     -16.2559886
7.53                  0.99055347     -16.2808819
7.532                0.990596998     -16.3057666
7.534                0.990640957     -16.3306429
7.536                0.990685347      -16.355511
7.538                0.990715187     -16.3830471
7.54                 0.990745475     -16.4105822
7.542                0.990776213     -16.4381164
7.544                0.990807401     -16.4656497
7.546                 0.99079579     -16.4943915
7.548                0.990784054      -16.523137
7.55                 0.990772199     -16.5518863
7.552                0.990760222     -16.5806393
7.554                0.990707097     -16.6083395
7.556                0.990653648     -16.6360342
7.558                0.990599875     -16.6637234
7.56                 0.990545777      -16.691407
7.562                0.990481838     -16.7166134
7.564                0.990417773     -16.7418169
7.566                0.990353582     -16.7670175
7.568                0.990289268      -16.792215
7.57                 0.990253961     -16.8154101
7.572                0.990218454     -16.8386156
7.574                0.990182749     -16.8618314
7.576                0.990146845     -16.8850577
7.578                 0.99015808     -16.9083165
7.58                 0.990169133     -16.9315808
7.582                0.990179999     -16.9548508
7.584                0.990190679     -16.9781265
7.586                0.990232784     -17.0035618
7.588                0.990275207     -17.0289891
7.59                 0.990317944     -17.0544083
7.592                0.990360998     -17.0798194
7.594                0.990397099     -17.1081326
7.596                0.990433743     -17.1364414
7.598                0.990470933     -17.1647457
7.6                  0.990508666     -17.1930458
7.602                0.990505428     -17.2230593
7.604                0.990502238     -17.2530762
7.606                0.990499097     -17.2830965
7.608                0.990495998     -17.3131201
7.61                 0.990446417      -17.342521
7.612                0.990396528     -17.3719178
7.614                0.990346332     -17.4013104
7.616                0.990295829      -17.430699
7.618                0.990226511     -17.4576682
7.62                  0.99015704     -17.4846318
7.622                0.990087416     -17.5115901
7.624                0.990017641     -17.5385431
7.626                0.989970747     -17.5631396
7.628                0.989923663      -17.587745
7.63                  0.98987639     -17.6123594
7.632                0.989828929     -17.6369829
7.634                0.989829858     -17.6611394
7.636                0.989830497     -17.6853051
7.638                0.989830848     -17.7094798
7.64                 0.989830912     -17.7336639
7.642                0.989870196      -17.759738
7.644                0.989909642     -17.7858055
7.646                0.989949249     -17.8118665
7.648                0.989989018     -17.8379213
7.65                 0.990030544      -17.867043
7.652                0.990072658     -17.8961568
7.654                0.990115363     -17.9252627
7.656                 0.99015866     -17.9543608
7.658                0.990164446     -17.9856786
7.66                 0.990170465     -18.0169983
7.662                 0.99017672     -18.0483199
7.664                 0.99018321     -18.0796432
7.666                0.990138808     -18.1108602
7.668                0.990094157     -18.1420743
7.67                 0.990049258     -18.1732856
7.672                0.990004111     -18.2044939
7.674                0.989930751     -18.2334355
7.676                0.989857216     -18.2623695
7.678                0.989783506     -18.2912959
7.68                 0.989709621     -18.3202146
7.682                0.989650794     -18.3464682
7.684                0.989591793     -18.3727284
7.686                0.989532619     -18.3989951
7.688                0.989473273     -18.4252684
7.69                  0.98946188     -18.4505381
7.692                0.989450118     -18.4758199
7.694                0.989437981     -18.5011139
7.696                 0.98942547     -18.5264202
7.698                0.989459404     -18.5532491
7.7                  0.989493314     -18.5800743
7.702                0.989527198     -18.6068958
7.704                0.989561055     -18.6337135
7.706                0.989606416     -18.6636713
7.708                 0.98965235     -18.6936181
7.71                  0.98969886      -18.723554
7.712                0.989745945     -18.7534792
7.714                 0.98976081     -18.7861048
7.716                0.989776102     -18.8187294
7.718                0.989791823     -18.8513529
7.72                 0.989807967     -18.8839755
7.722                0.989770297     -18.9170644
7.724                0.989732488     -18.9501513
7.726                0.989694541     -18.9832362
7.728                0.989656455     -19.0163191
7.73                 0.989580847     -19.0474037
7.732                0.989505053     -19.0784786
7.734                0.989429076     -19.1095439
7.736                0.989352916     -19.1405996
7.738                0.989282708     -19.1687567
7.74                 0.989212354     -19.1969167
7.742                0.989141853     -19.2250796
7.744                0.989071208     -19.2532456
7.746                0.989046338      -19.279858
7.748                0.989021027     -19.3064851
7.75                 0.988995277     -19.3331269
7.752                0.988969091     -19.3597834
7.754                0.988995883     -19.3875108
7.756                0.989022429     -19.4152383
7.758                0.989048727     -19.4429661
7.76                 0.989074778     -19.4706942
7.762                0.989122891     -19.5015502
7.764                0.989171496     -19.5323932
7.766                0.989220589     -19.5632231
7.768                0.989270173     -19.5940398
7.77                 0.989294599     -19.6280204
7.772                0.989319639      -19.661996
7.774                0.989345295     -19.6959665
7.776                0.989371569      -19.729932
7.778                0.989342497     -19.7650064
7.78                 0.989313453     -19.8000788
7.782                0.989284438     -19.8351491
7.784                0.989255451     -19.8702174
7.786                0.989179694     -19.9036742
7.788                0.989103776     -19.9371193
7.79                 0.989027696     -19.9705527
7.792                0.988951455     -20.0039741
