! TOUCHSTONE file generated by CST DESIGN STUDIO
! Date and time: Mon Feb 10 16:52:18 2025
! Project name: C:\Work\MatlabApps\UnitCellType2OptimizationMatlab\CST\unitcell.cst
! Tree item: Tasks\Sweep1\SPara1\S-Parameters
! Header version: 2024
! Port assignment regex: !\s*Touchstone port\s*([0-9]+)\s*=\s*(CST MWS port|CST DES external port|CST DES block port)\s*(.+)\s* \(\"(.*)\"\)(\s*mode\s*([0-9]+))?.*
! Touchstone port assignment:
! Touchstone port 1 = CST DES external port 1 ("")
# GHz S MA R 50
7                     0.99449935     -13.3866363
7.002                0.994480691     -13.4056883
7.004                0.994462002     -13.4247418
7.006                0.994443283     -13.4437968
7.008                0.994424535     -13.4628533
7.01                 0.994406548     -13.4819029
7.012                0.994388533     -13.5009539
7.014                 0.99437049     -13.5200064
7.016                0.994352418     -13.5390604
7.018                0.994335365     -13.5581152
7.02                 0.994318285     -13.5771714
7.022                0.994301178      -13.596229
7.024                0.994284043      -13.615288
7.026                0.994268184     -13.6343632
7.028                  0.9942523     -13.6534397
7.03                  0.99423639     -13.6725175
7.032                0.994220455     -13.6915965
7.034                0.994206036     -13.7107063
7.036                0.994191594     -13.7298173
7.038                 0.99417713     -13.7489295
7.04                 0.994162644     -13.7680429
7.042                0.994149862      -13.787205
7.044                 0.99413706     -13.8063683
7.046                0.994124239     -13.8255327
7.048                0.994111398     -13.8446983
7.05                 0.994100359     -13.8639331
7.052                0.994089304     -13.8831689
7.054                0.994078231     -13.9024058
7.056                0.994067142     -13.9216437
7.058                0.994057888      -13.940978
7.06                  0.99404862     -13.9603132
7.062                 0.99403934     -13.9796493
7.064                0.994030048     -13.9989864
7.066                0.994022529     -14.0184358
7.068                   0.994015     -14.0378861
7.07                 0.994007462     -14.0573373
7.072                0.993999915     -14.0767894
7.074                0.993994039     -14.0963755
7.076                0.993988157     -14.1159624
7.078                0.993982267     -14.1355502
7.08                  0.99397637     -14.1551389
7.082                0.993972015      -14.174875
7.084                0.993967656     -14.1946119
7.086                0.993963293     -14.2143495
7.088                0.993958925     -14.2340879
7.09                 0.993955959     -14.2539886
7.092                0.993952992       -14.27389
7.094                0.993950024      -14.293792
7.096                0.993947056     -14.3136946
7.098                0.993945306     -14.3337786
7.1                  0.993943559     -14.3538633
7.102                0.993941814     -14.3739486
7.104                 0.99394007     -14.3940346
7.106                 0.99393932     -14.4143125
7.108                0.993938575     -14.4345911
7.11                 0.993937834     -14.4548702
7.112                0.993937096       -14.47515
7.114                0.993937094     -14.4956349
7.116                0.993937098     -14.5161203
7.118                0.993937109     -14.5366062
7.12                 0.993937126     -14.5570927
7.122                0.993937554     -14.5777932
7.124                0.993937991     -14.5984943
7.126                0.993938437     -14.6191959
7.128                0.993938892     -14.6398981
7.13                 0.993939424     -14.6608168
7.132                0.993939966      -14.681736
7.134                0.993940517     -14.7026557
7.136                0.993941079     -14.7235761
7.138                0.993941403     -14.7447158
7.14                 0.993941738      -14.765856
7.142                0.993942083     -14.7869968
7.144                0.993942439     -14.8081382
7.146                0.993942318     -14.8294915
7.148                0.993942209     -14.8508454
7.15                 0.993942112     -14.8721997
7.152                0.993942026     -14.8935546
7.154                0.993941195     -14.9151185
7.156                0.993940377     -14.9366829
7.158                 0.99393957      -14.958248
7.16                 0.993938777     -14.9798136
7.162                0.993937041     -15.0015826
7.164                0.993935318     -15.0233522
7.166                0.993933607     -15.0451226
7.168                0.993931907     -15.0668936
7.17                 0.993929059     -15.0888636
7.172                0.993926221     -15.1108344
7.174                0.993923395      -15.132806
7.176                0.993920581     -15.1547783
7.178                0.993916429     -15.1769389
7.18                 0.993912288     -15.1991004
7.182                0.993908157     -15.2212627
7.184                0.993904037     -15.2434259
7.186                0.993898389     -15.2657673
7.188                0.993892749     -15.2881097
7.19                 0.993887119     -15.3104531
7.192                0.993881496     -15.3327976
7.194                0.993874232     -15.3553051
7.196                0.993866973     -15.3778138
7.198                 0.99385972     -15.4003237
7.2                  0.993852472     -15.4228348
7.202                0.993843504     -15.4454931
7.204                0.993834538     -15.4681528
7.206                0.993825575     -15.4908137
7.208                0.993816615     -15.5134759
7.21                 0.993805972     -15.5362708
7.212                0.993795328     -15.5590671
7.214                0.993784685     -15.5818649
7.216                0.993774041      -15.604664
7.218                0.993761782      -15.627584
7.22                 0.993749519     -15.6505056
7.222                0.993737252     -15.6734287
7.224                0.993724981     -15.6963535
7.226                0.993711191      -15.719386
7.228                0.993697393     -15.7424203
7.23                 0.993683588     -15.7654562
7.232                0.993669774     -15.7884938
7.234                 0.99365457     -15.8116287
7.236                0.993639355     -15.8347654
7.238                0.993624129     -15.8579039
7.24                 0.993608892     -15.8810441
7.242                0.993592383     -15.9042738
7.244                 0.99357586     -15.9275054
7.246                0.993559323     -15.9507389
7.248                0.993542771     -15.9739743
7.25                 0.993525077     -15.9972921
7.252                0.993507366     -16.0206118
7.254                0.993489636     -16.0439336
7.256                0.993471888     -16.0672573
7.258                0.993453217     -16.0906533
7.26                 0.993434525     -16.1140514
7.262                0.993415811     -16.1374514
7.264                0.993397077     -16.1608534
7.266                 0.99337764     -16.1843202
7.268                0.993358179     -16.2077889
7.27                 0.993338695     -16.2312596
7.272                0.993319187     -16.2547323
7.274                0.993299261      -16.278271
7.276                 0.99327931     -16.3018116
7.278                0.993259333     -16.3253542
7.28                  0.99323933     -16.3488988
7.282                 0.99321918     -16.3725091
7.284                0.993199002     -16.3961214
7.286                0.993178796     -16.4197356
7.288                0.993158564     -16.4433517
7.29                 0.993138388     -16.4670431
7.292                0.993118184     -16.4907364
7.294                0.993097952     -16.5144314
7.296                0.993077693     -16.5381283
7.298                0.993057713     -16.5619015
7.3                  0.993037706     -16.5856764
7.302                0.993017671     -16.6094531
7.304                0.992997608     -16.6332316
7.306                0.992977978     -16.6570979
7.308                 0.99295832      -16.680966
7.31                 0.992938634     -16.7048359
7.312                 0.99291892     -16.7287076
7.314                0.992899778     -16.7526728
7.316                0.992880607     -16.7766398
7.318                0.992861409     -16.8006084
7.32                 0.992842182     -16.8245787
7.322                 0.99282369     -16.8486541
7.324                0.992805171      -16.872731
7.326                0.992786626     -16.8968095
7.328                0.992768053     -16.9208896
7.33                  0.99275037     -16.9450821
7.332                0.992732661     -16.9692761
7.334                0.992714927     -16.9934715
7.336                0.992697167     -17.0176683
7.338                0.992680434     -17.0419927
7.34                 0.992663678     -17.0663183
7.342                0.992646897     -17.0906453
7.344                0.992630093     -17.1149736
7.346                  0.9926144      -17.139446
7.348                0.992598684     -17.1639197
7.35                 0.992582947     -17.1883945
7.352                0.992567187     -17.2128705
7.354                0.992552532     -17.2375071
7.356                0.992537857     -17.2621449
7.358                0.992523162     -17.2867838
7.36                 0.992508447     -17.3114239
7.362                0.992494788       -17.33624
7.364                 0.99248111     -17.3610572
7.366                0.992467415     -17.3858757
7.368                0.992453701     -17.4106953
7.37                  0.99244097     -17.4357026
7.372                0.992428222      -17.460711
7.374                0.992415457     -17.4857205
7.376                0.992402677     -17.5107311
7.378                0.992390779     -17.5359423
7.38                 0.992378867     -17.5611544
7.382                0.992366941     -17.5863676
7.384                   0.992355     -17.6115819
7.386                0.992343827      -17.637007
7.388                0.992332642     -17.6624331
7.39                 0.992321445     -17.6878601
7.392                0.992310236     -17.7132881
7.394                0.992299718     -17.7389362
7.396                0.992289191     -17.7645852
7.398                0.992278653     -17.7902351
7.4                  0.992268105     -17.8158859
7.402                0.992258109     -17.8417702
7.404                0.992248105     -17.8676553
7.406                0.992238093     -17.8935413
7.408                0.992228072     -17.9194283
7.41                 0.992218459     -17.9455563
7.412                 0.99220884     -17.9716853
7.414                0.992199214     -17.9978151
7.416                0.992189583     -18.0239459
7.418                0.992180118     -18.0503288
7.42                 0.992170649     -18.0767128
7.422                0.992161175     -18.1030977
7.424                0.992151696     -18.1294836
7.426                0.992142191       -18.15612
7.428                0.992132683     -18.1827574
7.43                  0.99212317     -18.2093958
7.432                0.992113654     -18.2360354
7.434                0.992103877     -18.2629331
7.436                0.992094098     -18.2898319
7.438                0.992084315     -18.3167318
7.44                  0.99207453     -18.3436328
7.442                0.992064326     -18.3707876
7.444                 0.99205412     -18.3979435
7.446                0.992043912     -18.4251005
7.448                0.992033701     -18.4522587
7.45                 0.992022931      -18.479671
7.452                0.992012159     -18.5070845
7.454                0.992001386     -18.5344992
7.456                0.991990611     -18.5619151
7.458                0.991979151     -18.5895815
7.46                 0.991967689     -18.6172491
7.462                0.991956225      -18.644918
7.464                 0.99194476     -18.6725883
7.466                 0.99193247     -18.7005115
7.468                0.991920177     -18.7284362
7.47                 0.991907883     -18.7563622
7.472                0.991895587     -18.7842897
7.474                0.991882331     -18.8124667
7.476                0.991869072     -18.8406453
7.478                 0.99185581     -18.8688255
7.48                 0.991842546     -18.8970073
7.482                0.991828198     -18.9254317
7.484                0.991813846      -18.953858
7.486                 0.99179949     -18.9822861
7.488                0.991785131      -19.010716
7.49                 0.991769549     -19.0393856
7.492                0.991753962     -19.0680572
7.494                0.991738368     -19.0967307
7.496                0.991722769     -19.1254062
7.498                0.991705913     -19.1543062
7.5                  0.991689048     -19.1832081
7.502                0.991672176     -19.2121122
7.504                0.991655296     -19.2410183
7.506                0.991637161     -19.2701466
7.508                0.991619016     -19.2992772
7.51                  0.99160086     -19.3284099
7.512                0.991582694     -19.3575448
7.514                0.991563344     -19.3868932
7.516                0.991543981     -19.4162439
7.518                0.991524604     -19.4455968
7.52                 0.991505214      -19.474952
7.522                0.991484697     -19.5045172
7.524                0.991464164     -19.5340847
7.526                0.991443613     -19.5636546
7.528                0.991423047     -19.5932268
7.53                 0.991401403     -19.6230052
7.532                0.991379739     -19.6527861
7.534                0.991358057     -19.6825695
7.536                0.991336355     -19.7123553
7.538                0.991313615     -19.7423452
7.54                 0.991290853     -19.7723377
7.542                0.991268069     -19.8023328
7.544                0.991245263     -19.8323305
7.546                0.991221475     -19.8625312
7.548                0.991197661     -19.8927346
7.55                 0.991173822     -19.9229407
7.552                0.991149958     -19.9531494
7.554                0.991125206     -19.9835535
7.556                0.991100426     -20.0139601
7.558                0.991075617     -20.0443694
7.56                 0.991050781     -20.0747814
7.562                0.991025182     -20.1053858
7.564                0.990999551     -20.1359927
7.566                 0.99097389     -20.1666023
7.568                0.990948198     -20.1972144
7.57                 0.990921917     -20.2280181
7.572                0.990895602     -20.2588242
7.574                0.990869254     -20.2896328
7.576                0.990842871      -20.320444
7.578                0.990816056     -20.3514548
7.58                 0.990789204     -20.3824679
7.582                0.990762316     -20.4134835
7.584                0.990735391     -20.4445014
7.586                0.990708209     -20.4757191
7.588                0.990680989     -20.5069391
7.59                 0.990653732     -20.5381614
7.592                0.990626436      -20.569386
7.594                0.990598995     -20.6008198
7.596                0.990571514     -20.6322558
7.598                0.990543995     -20.6636942
7.6                  0.990516437     -20.6951348
7.602                0.990488794     -20.7267899
7.604                0.990461112     -20.7584472
7.606                0.990433389     -20.7901068
7.608                0.990405626     -20.8217686
7.61                 0.990377876     -20.8536495
7.612                0.990350086     -20.8855324
7.614                0.990322255     -20.9174175
7.616                0.990294382     -20.9493047
7.618                0.990266604     -20.9814202
7.62                 0.990238784     -21.0135376
7.622                0.990210922     -21.0456568
7.624                0.990183017     -21.0777781
7.626                0.990155354     -21.1101341
7.628                0.990127648     -21.1424919
7.63                 0.990099899     -21.1748514
7.632                0.990072107     -21.2072126
7.634                 0.99004463     -21.2398167
7.636                0.990017109     -21.2724224
7.638                0.989989546     -21.3050297
7.64                 0.989961939     -21.3376386
7.642                0.989934769     -21.3705065
7.644                0.989907557     -21.4033759
7.646                0.989880301     -21.4362468
7.648                0.989853004     -21.4691191
7.65                 0.989826176     -21.5022608
7.652                0.989799308     -21.5354039
7.654                0.989772398     -21.5685486
7.656                0.989745447     -21.6016947
7.658                0.989718899     -21.6351253
7.66                 0.989692311     -21.6685575
7.662                0.989665682     -21.7019912
7.664                0.989639013     -21.7354264
7.666                0.989612731     -21.7691559
7.668                0.989586409     -21.8028868
7.67                 0.989560048     -21.8366192
7.672                0.989533647      -21.870353
7.674                0.989507591     -21.9043919
7.676                0.989481496     -21.9384321
7.678                0.989455363     -21.9724737
7.68                 0.989429191     -22.0065166
7.682                 0.98940332     -22.0408685
7.684                0.989377412     -22.0752217
7.686                0.989351465     -22.1095761
7.688                0.989325481     -22.1439317
7.69                 0.989299811     -22.1786129
7.692                0.989274106     -22.2132953
7.694                0.989248363     -22.2479789
7.696                0.989222584     -22.2826637
7.698                0.989197075     -22.3176847
7.7                  0.989171531     -22.3527069
7.702                0.989145953     -22.3877304
7.704                0.989120338      -22.422755
7.706                0.989094919     -22.4581252
7.708                0.989069467     -22.4934968
7.71                 0.989043983     -22.5288697
7.712                0.989018465     -22.5642439
7.714                0.988993023     -22.5999768
7.716                0.988967551     -22.6357112
7.718                0.988942048     -22.6714471
7.72                 0.988916514     -22.7071846
7.722                0.988890908     -22.7432845
7.724                0.988865273      -22.779386
7.726                0.988839609     -22.8154891
7.728                0.988813916     -22.8515939
7.73                 0.988788004     -22.8880759
7.732                0.988762064     -22.9245596
7.734                0.988736096     -22.9610451
7.736                  0.9887101     -22.9975322
7.738                0.988683778     -23.0343931
7.74                 0.988657428     -23.0712557
7.742                0.988631051     -23.1081201
7.744                0.988604646     -23.1449862
7.746                0.988577842     -23.1822364
7.748                 0.98855101     -23.2194884
7.75                  0.98852415     -23.2567423
7.752                0.988497263      -23.293998
7.754                0.988469929     -23.3316392
7.756                0.988442567     -23.3692824
7.758                0.988415179     -23.4069275
7.76                 0.988387763     -23.4445746
7.762                0.988359793      -23.482618
7.764                0.988331798     -23.5206637
7.766                0.988303776     -23.5587116
7.768                0.988275727     -23.5967617
7.77                 0.988247006     -23.6352122
7.772                0.988218259     -23.6736653
7.774                0.988189486     -23.7121208
7.776                0.988160688     -23.7505788
7.778                0.988131071     -23.7894465
7.78                 0.988101428     -23.8283169
7.782                0.988071759     -23.8671901
7.784                0.988042065      -23.906066
7.786                0.988011415      -23.945349
7.788                0.987980737     -23.9846349
7.79                 0.987950032     -24.0239237
7.792                0.987919301     -24.0632153
