! TOUCHSTONE file generated by CST DESIGN STUDIO
! Date and time: Mon Feb 10 16:52:21 2025
! Project name: C:\Work\MatlabApps\UnitCellType2OptimizationMatlab\CST\unitcell.cst
! Tree item: Tasks\Sweep1\SPara1\S-Parameters
! Header version: 2024
! Port assignment regex: !\s*Touchstone port\s*([0-9]+)\s*=\s*(CST MWS port|CST DES external port|CST DES block port)\s*(.+)\s* \(\"(.*)\"\)(\s*mode\s*([0-9]+))?.*
! Touchstone port assignment:
! Touchstone port 1 = CST DES external port 1 ("")
# GHz S MA R 50
7                    0.993333013     -12.1409926
7.002                0.993315114     -12.1585357
7.004                0.993297183     -12.1760798
7.006                 0.99327922     -12.1936248
7.008                0.993261227     -12.2111708
7.01                 0.993245847     -12.2286822
7.012                0.993230439     -12.2461949
7.014                0.993215002      -12.263709
7.016                0.993199537     -12.2812244
7.018                0.993186918     -12.2987311
7.02                 0.993174271     -12.3162389
7.022                0.993161596      -12.333748
7.024                0.993148892     -12.3512582
7.026                 0.99313919     -12.3687926
7.028                0.993129475     -12.3863278
7.03                 0.993119747     -12.4038637
7.032                0.993110005     -12.4214005
7.034                0.993103358     -12.4389921
7.036                0.993096708     -12.4565847
7.038                0.993090053     -12.4741783
7.04                 0.993083395     -12.4917729
7.042                0.993079871     -12.5094541
7.044                0.993076338     -12.5271365
7.046                0.993072797       -12.54482
7.048                0.993069248     -12.5625047
7.05                  0.99306874     -12.5803103
7.052                 0.99306823     -12.5981166
7.054                0.993067717     -12.6159237
7.056                  0.9930672     -12.6337316
7.058                  0.9930695     -12.6516993
7.06                 0.993071813     -12.6696676
7.062                 0.99307414     -12.6876364
7.064                0.993076481     -12.7056059
7.066                0.993081281     -12.7237602
7.068                0.993086097     -12.7419154
7.07                 0.993090929     -12.7600714
7.072                0.993095776     -12.7782283
7.074                0.993102686     -12.7965968
7.076                0.993109605     -12.8149661
7.078                0.993116533     -12.8333361
7.08                 0.993123469     -12.8517069
7.082                0.993132034     -12.8703054
7.084                0.993140615     -12.8889041
7.086                0.993149213     -12.9075031
7.088                0.993157828     -12.9261023
7.09                 0.993167596     -12.9449428
7.092                0.993177391     -12.9637835
7.094                0.993187215     -12.9826244
7.096                0.993197066     -13.0014655
7.098                0.993207606     -13.0205609
7.1                  0.993218169     -13.0396569
7.102                0.993228756     -13.0587535
7.104                0.993239367     -13.0778505
7.106                0.993250202     -13.0972056
7.108                0.993261057      -13.116561
7.11                  0.99327193     -13.1359168
7.112                0.993282823     -13.1552729
7.114                0.993293451     -13.1748919
7.116                0.993304106     -13.1945109
7.118                0.993314788       -13.21413
7.12                 0.993325495     -13.2337492
7.122                0.993335392     -13.2536296
7.124                0.993345315     -13.2735102
7.126                0.993355265     -13.2933909
7.128                0.993365242     -13.3132719
7.13                 0.993373905     -13.3334036
7.132                0.993382585     -13.3535354
7.134                0.993391281     -13.3736675
7.136                0.993399993     -13.3937997
7.138                0.993406939     -13.4141707
7.14                 0.993413902     -13.4345415
7.142                0.993420881     -13.4549122
7.144                0.993427878     -13.4752826
7.146                0.993432766     -13.4958686
7.148                0.993437679     -13.5164544
7.15                 0.993442618     -13.5370399
7.152                0.993447583     -13.5576251
7.154                0.993450124     -13.5784045
7.156                0.993452686     -13.5991841
7.158                0.993455271     -13.6199638
7.16                 0.993457877     -13.6407437
7.162                0.993457913     -13.6616943
7.164                 0.99345796     -13.6826451
7.166                0.993458019     -13.7035963
7.168                 0.99345809     -13.7245478
7.17                 0.993455466     -13.7456498
7.172                0.993452854     -13.7667519
7.174                0.993450254     -13.7878542
7.176                0.993447666     -13.8089567
7.178                0.993442309     -13.8301847
7.18                 0.993436965     -13.8514132
7.182                0.993431634      -13.872642
7.184                0.993426315     -13.8938711
7.186                0.993418191      -13.915202
7.188                0.993410068     -13.9365337
7.19                 0.993401946      -13.957866
7.192                0.993393825     -13.9791992
7.194                0.993382976     -14.0006071
7.196                0.993372119     -14.0220157
7.198                0.993361254     -14.0434251
7.2                  0.993350382     -14.0648352
7.202                0.993336906     -14.0862939
7.204                0.993323425     -14.1077532
7.206                0.993309936     -14.1292132
7.208                0.993296441      -14.150674
7.21                 0.993280619     -14.1721596
7.212                0.993264786     -14.1936463
7.214                0.993248941     -14.2151341
7.216                0.993233084      -14.236623
7.218                 0.99321525     -14.2581178
7.22                 0.993197392     -14.2796138
7.222                0.993179509     -14.3011112
7.224                0.993161602     -14.3226099
7.226                0.993142122     -14.3440991
7.228                0.993122613     -14.3655894
7.23                 0.993103077     -14.3870807
7.232                0.993083513     -14.4085731
7.234                 0.99306278     -14.4300467
7.236                0.993042022     -14.4515213
7.238                0.993021239     -14.4729971
7.24                 0.993000431     -14.4944739
7.242                0.992978835     -14.5159272
7.244                0.992957206     -14.5373819
7.246                0.992935545     -14.5588381
7.248                0.992913852     -14.5802959
7.25                  0.99289177     -14.6017279
7.252                0.992869646     -14.6231615
7.254                0.992847478     -14.6445967
7.256                0.992825267     -14.6660336
7.258                0.992803106     -14.6874429
7.26                 0.992780903     -14.7088536
7.262                0.992758657     -14.7302658
7.264                 0.99273637     -14.7516795
7.266                0.992714539     -14.7730672
7.268                0.992692669     -14.7944564
7.27                 0.992670762     -14.8158471
7.272                0.992648818     -14.8372392
7.274                 0.99262777     -14.8586174
7.276                0.992606683      -14.879997
7.278                0.992585558      -14.901378
7.28                 0.992564394     -14.9227604
7.282                0.992544542     -14.9441422
7.284                0.992524656     -14.9655251
7.286                0.992504738     -14.9869089
7.288                0.992484787     -15.0082938
7.29                 0.992466415     -15.0297026
7.292                0.992448024     -15.0511121
7.294                0.992429613     -15.0725223
7.296                0.992411181     -15.0939333
7.298                0.992394584     -15.1153854
7.3                  0.992377969     -15.1368384
7.302                0.992361337     -15.1582924
7.304                0.992344687     -15.1797475
7.306                0.992330019     -15.2012701
7.308                0.992315326     -15.2227939
7.31                 0.992300609      -15.244319
7.312                0.992285868     -15.2658453
7.314                0.992273179     -15.2874597
7.316                 0.99226047     -15.3090751
7.318                0.992247739     -15.3306916
7.32                 0.992234988     -15.3523091
7.322                0.992224321     -15.3740395
7.324                0.992213646     -15.3957708
7.326                0.992202963      -15.417503
7.328                0.992192272     -15.4392361
7.33                 0.992183657     -15.4611012
7.332                0.992175043     -15.4829671
7.334                0.992166429     -15.5048339
7.336                0.992157816     -15.5267016
7.338                0.992151224     -15.5487265
7.34                  0.99214464      -15.570752
7.342                0.992138065      -15.592778
7.344                0.992131499     -15.6148047
7.346                0.992126833     -15.6370143
7.348                0.992122187     -15.6592243
7.35                 0.992117561     -15.6814345
7.352                0.992112955      -15.703645
7.354                0.992110011     -15.7260624
7.356                0.992107089     -15.7484803
7.358                0.992104189     -15.7708986
7.36                  0.99210131     -15.7933175
7.362                0.992099825     -15.8159629
7.364                 0.99209835      -15.838609
7.366                0.992096886      -15.861256
7.368                0.992095432     -15.8839037
7.37                 0.992095063     -15.9067919
7.372                  0.9920947     -15.9296808
7.374                0.992094344     -15.9525703
7.376                0.992093994     -15.9754605
7.378                 0.99209435     -15.9986032
7.38                 0.992094721     -16.0217464
7.382                0.992095107     -16.0448901
7.384                0.992095508     -16.0680342
7.386                0.992096224      -16.091437
7.388                0.992096963     -16.1148402
7.39                 0.992097725      -16.138244
7.392                 0.99209851     -16.1616482
7.394                0.992099297     -16.1853137
7.396                 0.99210011     -16.2089796
7.398                0.992100948      -16.232646
7.4                  0.992101813     -16.2563126
7.402                0.992102322     -16.2802455
7.404                0.992102862     -16.3041785
7.406                0.992103432     -16.3281116
7.408                0.992104032     -16.3520449
7.41                 0.992103964     -16.3762427
7.412                0.992103925     -16.4004407
7.414                0.992103915     -16.4246389
7.416                0.992103933     -16.4488374
7.418                0.992102915     -16.4732992
7.42                 0.992101911     -16.4977615
7.422                0.992100922     -16.5222244
7.424                0.992099948     -16.5466879
7.426                0.992097664      -16.571401
7.428                0.992095383     -16.5961146
7.43                 0.992093105     -16.6208288
7.432                 0.99209083     -16.6455435
7.434                0.992086932     -16.6705011
7.436                0.992083039     -16.6954592
7.438                0.992079152     -16.7204177
7.44                 0.992075269     -16.7453765
7.442                0.992069545     -16.7705589
7.444                0.992063832     -16.7957418
7.446                0.992058129     -16.8209252
7.448                0.992052435      -16.846109
7.45                 0.992044756     -16.8715008
7.452                0.992037087      -16.896893
7.454                0.992029427     -16.9222858
7.456                0.992021777     -16.9476791
7.458                0.992012078     -16.9732619
7.46                 0.992002388      -16.998845
7.462                0.991992709     -17.0244285
7.464                 0.99198304     -17.0500123
7.466                0.991971284     -17.0757741
7.468                0.991959537     -17.1015364
7.47                 0.991947799     -17.1272991
7.472                0.991936069     -17.1530621
7.474                0.991922274     -17.1789871
7.476                0.991908475     -17.2049129
7.478                0.991894671     -17.2308395
7.48                 0.991880862      -17.256767
7.482                0.991865068     -17.2828387
7.484                0.991849252     -17.3089116
7.486                0.991833414     -17.3349856
7.488                0.991817554     -17.3610607
7.49                 0.991799774     -17.3872672
7.492                0.991781966     -17.4134747
7.494                0.991764129     -17.4396834
7.496                0.991746264     -17.4658933
7.498                0.991726651     -17.4922119
7.5                  0.991707011     -17.5185317
7.502                0.991687344     -17.5448526
7.504                 0.99166765     -17.5711747
7.506                0.991646425     -17.5975966
7.508                0.991625174     -17.6240196
7.51                 0.991603896     -17.6504437
7.512                0.991582591      -17.676869
7.514                0.991560064     -17.7033822
7.516                0.991537512     -17.7298961
7.518                0.991514936     -17.7564109
7.52                 0.991492334     -17.7829264
7.522                0.991468816     -17.8095259
7.524                0.991445277     -17.8361259
7.526                0.991421715     -17.8627266
7.528                0.991398132     -17.8893278
7.53                  0.99137394     -17.9160114
7.532                0.991349719      -17.942696
7.534                0.991325469     -17.9693814
7.536                 0.99130119     -17.9960677
7.538                0.991276613     -18.0228382
7.54                  0.99125199       -18.04961
7.542                0.991227322     -18.0763831
7.544                0.991202608     -18.1031575
7.546                0.991177883     -18.1300214
7.548                0.991153104     -18.1568867
7.55                 0.991128272     -18.1837534
7.552                0.991103386     -18.2106214
7.554                0.991078759     -18.2375801
7.556                0.991054083       -18.26454
7.558                0.991029361     -18.2915011
7.56                  0.99100459     -18.3184634
7.562                0.990980323     -18.3455235
7.564                0.990956018     -18.3725845
7.566                0.990931676     -18.3996464
7.568                0.990907298     -18.4267092
7.57                 0.990883672     -18.4538803
7.572                0.990860022     -18.4810518
7.574                0.990836348     -18.5082235
7.576                 0.99081265     -18.5353956
7.578                0.990789911     -18.5626965
7.58                 0.990767162     -18.5899973
7.582                0.990744401     -18.6172979
7.584                0.990721629     -18.6445984
7.586                0.990700031     -18.6720416
7.588                0.990678423     -18.6994848
7.59                 0.990656806      -18.726928
7.592                 0.99063518     -18.7543711
7.594                0.990614868     -18.7819789
7.596                0.990594535      -18.809587
7.598                 0.99057418     -18.8371957
7.6                  0.990553803     -18.8648047
7.602                 0.99053479     -18.8925967
7.604                0.990515746     -18.9203893
7.606                0.990496672     -18.9481825
7.608                0.990477567     -18.9759764
7.61                 0.990459832     -19.0039705
7.612                0.990442074      -19.031965
7.614                0.990424293     -19.0599599
7.616                0.990406489     -19.0879553
7.618                0.990389966      -19.116171
7.62                 0.990373438     -19.1443868
7.622                0.990356904     -19.1726028
7.624                0.990340365     -19.2008188
7.626                0.990325032     -19.2292717
7.628                0.990309712     -19.2577241
7.63                 0.990294406     -19.2861762
7.632                0.990279113     -19.3146279
7.634                0.990264871     -19.3433329
7.636                0.990250658      -19.372037
7.638                0.990236473     -19.4007402
7.64                 0.990222316     -19.4294427
7.642                0.990209117     -19.4584201
7.644                0.990195947     -19.4873968
7.646                0.990182808     -19.5163727
7.648                0.990169698     -19.5453479
7.65                 0.990157394     -19.5746117
7.652                0.990145103     -19.6038753
7.654                0.990132825     -19.6331386
7.656                 0.99012056     -19.6624016
7.658                0.990108858     -19.6919696
7.66                 0.990097151     -19.7215377
7.662                0.990085439     -19.7511058
7.664                0.990073721     -19.7806741
7.666                0.990062334     -19.8105562
7.668                0.990050941     -19.8404384
7.67                 0.990039542     -19.8703205
7.672                0.990028137     -19.9002026
7.674                0.990016748     -19.9304063
7.676                0.990005367     -19.9606098
7.678                0.989993994      -19.990813
7.68                 0.989982629     -20.0210159
7.682                0.989970955      -20.051539
7.684                0.989959305     -20.0820615
7.686                 0.98994768     -20.1125833
7.688                0.989936079     -20.1431045
7.69                 0.989923933     -20.1739538
7.692                0.989911823      -20.204802
7.694                0.989899749     -20.2356492
7.696                0.989887711     -20.2664954
7.698                0.989874891       -20.29767
7.7                  0.989862107     -20.3288435
7.702                0.989849358     -20.3600161
7.704                0.989836643     -20.3911875
7.706                0.989822968     -20.4226846
7.708                0.989809308     -20.4541812
7.71                 0.989795663     -20.4856772
7.712                0.989782032     -20.5171726
7.714                0.989767281     -20.5489925
7.716                0.989752519     -20.5808123
7.718                0.989737744     -20.6126321
7.72                 0.989722957     -20.6444518
7.722                0.989706883      -20.676586
7.724                0.989690786     -20.7087203
7.726                0.989674664     -20.7408546
7.728                0.989658518      -20.772989
7.73                 0.989640878      -20.805437
7.732                 0.98962322      -20.837885
7.734                0.989605546     -20.8703328
7.736                0.989587854     -20.9027806
7.738                0.989568528     -20.9355239
7.74                 0.989549199     -20.9682668
7.742                0.989529868     -21.0010093
7.744                0.989510533     -21.0337513
7.746                0.989489472     -21.0667836
7.748                 0.98946842     -21.0998149
7.75                 0.989447377     -21.1328453
7.752                0.989426343     -21.1658748
7.754                0.989403602     -21.1991818
7.756                0.989380872     -21.2324877
7.758                0.989358153     -21.2657924
7.76                 0.989335444      -21.299096
7.762                0.989311083     -21.3326726
7.764                0.989286715     -21.3662485
7.766                 0.98926234     -21.3998237
7.768                0.989237957     -21.4333982
7.77                 0.989212058     -21.4672365
7.772                 0.98918612     -21.5010749
7.774                0.989160144     -21.5349134
7.776                 0.98913413     -21.5687519
7.778                0.989106722     -21.6028512
7.78                 0.989079253     -21.6369511
7.782                0.989051724     -21.6710514
7.784                0.989024134     -21.7051522
7.786                0.988995244      -21.739503
7.788                0.988966292     -21.7738541
7.79                 0.988937279     -21.8082056
7.792                0.988908205     -21.8425576
