! TOUCHSTONE file generated by CST DESIGN STUDIO
! Date and time: Mon Feb 10 16:52:19 2025
! Project name: C:\Work\MatlabApps\UnitCellType2OptimizationMatlab\CST\unitcell.cst
! Tree item: Tasks\Sweep1\SPara1\S-Parameters
! Header version: 2024
! Port assignment regex: !\s*Touchstone port\s*([0-9]+)\s*=\s*(CST MWS port|CST DES external port|CST DES block port)\s*(.+)\s* \(\"(.*)\"\)(\s*mode\s*([0-9]+))?.*
! Touchstone port assignment:
! Touchstone port 1 = CST DES external port 1 ("")
# GHz S MA R 50
7                    0.993967242     -12.8054539
7.002                 0.99394861     -12.8236899
7.004                0.993929947      -12.841927
7.006                0.993911255     -12.8601653
7.008                0.993892533     -12.8784048
7.01                 0.993875449     -12.8966226
7.012                0.993858338     -12.9148416
7.014                  0.9938412      -12.933062
7.016                0.993824035     -12.9512836
7.018                0.993808759     -12.9694999
7.02                 0.993793457     -12.9877173
7.022                0.993778129      -13.005936
7.024                0.993762775     -13.0241559
7.026                0.993749525     -13.0423941
7.028                0.993736257     -13.0606332
7.03                  0.99372297     -13.0788734
7.032                0.993709665     -13.0971145
7.034                0.993698641     -13.1153963
7.036                0.993687604     -13.1336791
7.038                0.993676556     -13.1519629
7.04                 0.993665495     -13.1702477
7.042                0.993656834     -13.1885979
7.044                0.993648163     -13.2069492
7.046                0.993639481     -13.2253016
7.048                0.993630787     -13.2436551
7.05                 0.993624503     -13.2621011
7.052                0.993618212      -13.280548
7.054                0.993611914     -13.2989958
7.056                0.993605609     -13.3174445
7.058                0.993601629     -13.3360187
7.06                  0.99359765     -13.3545936
7.062                0.993593673     -13.3731693
7.064                0.993589697     -13.3917457
7.066                0.993587849     -13.4104683
7.068                0.993586005     -13.4291917
7.07                 0.993584166     -13.4479159
7.072                0.993582332      -13.466641
7.074                0.993582381     -13.4855366
7.076                0.993582434      -13.504433
7.078                0.993582491     -13.5233302
7.08                 0.993582552     -13.5422282
7.082                0.993584222     -13.5613116
7.084                  0.9935859     -13.5803957
7.086                0.993587586     -13.5994802
7.088                0.993589279     -13.6185654
7.09                 0.993592284     -13.6378505
7.092                0.993595303     -13.6571361
7.094                0.993598336     -13.6764221
7.096                0.993601382     -13.6957086
7.098                0.993605421     -13.7152117
7.1                  0.993609475     -13.7347154
7.102                0.993613542     -13.7542197
7.104                0.993617624     -13.7737246
7.106                0.993622353     -13.7934536
7.108                0.993627096     -13.8131831
7.11                 0.993631853     -13.8329132
7.112                0.993636623     -13.8526438
7.114                 0.99364167     -13.8726078
7.116                0.993646734     -13.8925721
7.118                0.993651815     -13.9125369
7.12                 0.993656912      -13.932502
7.122                0.993661853     -13.9527046
7.124                0.993666813     -13.9729076
7.126                 0.99367179     -13.9931111
7.128                0.993676786     -14.0133149
7.13                 0.993681204     -14.0337526
7.132                0.993685637     -14.0541908
7.134                0.993690085     -14.0746294
7.136                0.993694548     -14.0950684
7.138                0.993698047     -14.1157371
7.14                 0.993701561     -14.1364061
7.142                 0.99370509     -14.1570753
7.144                0.993708633     -14.1777449
7.146                0.993710922     -14.1986291
7.148                0.993713229     -14.2195135
7.15                 0.993715554     -14.2403982
7.152                0.993717896     -14.2612831
7.154                 0.99371869     -14.2823709
7.156                0.993719501     -14.3034591
7.158                0.993720328     -14.3245478
7.16                 0.993721172     -14.3456368
7.162                0.993720287     -14.3669145
7.164                0.993719415     -14.3881928
7.166                0.993718556     -14.4094717
7.168                0.993717709      -14.430751
7.17                 0.993714961     -14.4522069
7.172                0.993712224     -14.4736634
7.174                0.993709499     -14.4951204
7.176                0.993706786     -14.5165779
7.178                0.993702035     -14.5381942
7.18                 0.993697296     -14.5598113
7.182                0.993692567     -14.5814289
7.184                0.993687849     -14.6030472
7.186                0.993680974     -14.6248075
7.188                0.993674103     -14.6465687
7.19                 0.993667238     -14.6683308
7.192                0.993660378     -14.6900938
7.194                0.993651334     -14.7119777
7.196                0.993642288     -14.7338626
7.198                0.993633243     -14.7557484
7.2                  0.993624197     -14.7776353
7.202                0.993612985      -14.799622
7.204                0.993601771     -14.8216097
7.206                0.993590554     -14.8435984
7.208                0.993579335     -14.8655881
7.21                 0.993566103     -14.8876585
7.212                0.993552864     -14.9097301
7.214                0.993539619     -14.9318029
7.216                0.993526367     -14.9538769
7.218                0.993511303     -14.9760161
7.22                 0.993496226     -14.9981567
7.222                0.993481135     -15.0202987
7.224                0.993466031      -15.042442
7.226                0.993449357     -15.0646361
7.228                0.993432667     -15.0868315
7.23                 0.993415959     -15.1090282
7.232                0.993399233     -15.1312264
7.234                0.993381203     -15.1534649
7.236                0.993363154     -15.1757048
7.238                0.993345086     -15.1979461
7.24                 0.993326999     -15.2201888
7.242                0.993307856     -15.2424654
7.244                0.993288689     -15.2647435
7.246                0.993269498     -15.2870233
7.248                0.993250285     -15.3093046
7.25                 0.993230274     -15.3316149
7.252                0.993210235     -15.3539269
7.254                0.993190166     -15.3762406
7.256                0.993170068     -15.3985559
7.258                0.993149499      -15.420894
7.26                   0.9931289     -15.4432336
7.262                0.993108271     -15.4655749
7.264                0.993087611     -15.4879177
7.266                0.993066796       -15.51028
7.268                0.993045951     -15.5326438
7.27                 0.993025075     -15.5550092
7.272                 0.99300417     -15.5773761
7.274                0.992983474     -15.5997688
7.276                0.992962747      -15.622163
7.278                0.992941989     -15.6445587
7.28                   0.9929212      -15.666956
7.282                0.992900965     -15.6893852
7.284                  0.9928807     -15.7118157
7.286                0.992860406     -15.7342476
7.288                0.992840082     -15.7566808
7.29                 0.992820555     -15.7791626
7.292                0.992801003     -15.8016456
7.294                0.992781427     -15.8241296
7.296                0.992761825     -15.8466149
7.298                0.992743265     -15.8691576
7.3                  0.992724682     -15.8917014
7.302                0.992706077     -15.9142465
7.304                0.992687449     -15.9367928
7.306                0.992670012     -15.9594155
7.308                0.992652552     -15.9820395
7.31                 0.992635068     -16.0046647
7.312                 0.99261756     -16.0272913
7.314                0.992601351     -16.0500072
7.316                 0.99258512     -16.0727243
7.318                0.992568868     -16.0954426
7.32                 0.992552594     -16.1181621
7.322                0.992537723      -16.140989
7.324                0.992522836      -16.163817
7.326                0.992507934      -16.186646
7.328                0.992493016      -16.209476
7.33                 0.992479582     -16.2324268
7.332                0.992466137     -16.2553785
7.334                0.992452681     -16.2783312
7.336                0.992439215     -16.3012848
7.338                 0.99242728     -16.3243794
7.34                 0.992415338     -16.3474747
7.342                 0.99240339     -16.3705708
7.344                0.992391435     -16.3936677
7.346                0.992381001     -16.4169268
7.348                0.992370566     -16.4401864
7.35                 0.992360129     -16.4634467
7.352                0.992349691     -16.4867076
7.354                0.992340657     -16.5101509
7.356                0.992331623     -16.5335949
7.358                0.992322591     -16.5570395
7.36                  0.99231356     -16.5804848
7.362                0.992305773     -16.6041304
7.364                0.992297985     -16.6277768
7.366                0.992290196      -16.651424
7.368                0.992282406      -16.675072
7.37                 0.992275667     -16.6989332
7.372                0.992268926     -16.7227952
7.374                0.992262183      -16.746658
7.376                0.992255439     -16.7705215
7.378                 0.99224951     -16.7946109
7.38                 0.992243583      -16.818701
7.382                0.992237659     -16.8427916
7.384                0.992231737     -16.8668829
7.386                0.992226382     -16.8912087
7.388                0.992221033      -16.915535
7.39                  0.99221569     -16.9398619
7.392                0.992210354     -16.9641894
7.394                0.992205391     -16.9887575
7.396                0.992200437     -17.0133262
7.398                0.992195491     -17.0378954
7.4                  0.992190553     -17.0624651
7.402                0.992185741     -17.0872848
7.404                 0.99218094     -17.1121049
7.406                0.992176149     -17.1369254
7.408                0.992171368     -17.1617463
7.41                 0.992166484     -17.1868205
7.412                 0.99216161      -17.211895
7.414                0.992156747       -17.23697
7.416                0.992151895     -17.2620455
7.418                0.992146629     -17.2873793
7.42                 0.992141369     -17.3127138
7.422                0.992136116     -17.3380488
7.424                0.992130869     -17.3633846
7.426                0.992124966      -17.388971
7.428                0.992119065     -17.4145582
7.43                 0.992113167     -17.4401461
7.432                0.992107272     -17.4657347
7.434                0.992100442     -17.4915746
7.436                0.992093616     -17.5174151
7.438                0.992086792     -17.5432563
7.44                 0.992079971     -17.5690982
7.442                0.992072028     -17.5951796
7.444                0.992064089     -17.6212616
7.446                0.992056155     -17.6473444
7.448                0.992048225     -17.6734278
7.45                 0.992039028     -17.6997432
7.452                0.992029835     -17.7260594
7.454                0.992020646     -17.7523762
7.456                 0.99201146     -17.7786938
7.458                 0.99200091     -17.8052323
7.46                 0.991990364     -17.8317714
7.462                 0.99197982     -17.8583113
7.464                 0.99196928     -17.8848518
7.466                0.991957284     -17.9116087
7.468                0.991945291     -17.9383664
7.47                 0.991933299     -17.9651248
7.472                0.991921309     -17.9918841
7.474                0.991907801     -18.0188497
7.476                0.991894289     -18.0458164
7.478                0.991880774     -18.0727842
7.48                 0.991867255      -18.099753
7.482                0.991852188     -18.1269159
7.484                0.991837109       -18.15408
7.486                 0.99182202     -18.1812455
7.488                0.991806919     -18.2084123
7.49                 0.991790228      -18.235765
7.492                0.991773521      -18.263119
7.494                  0.9917568     -18.2904745
7.496                0.991740063     -18.3178313
7.498                0.991721803     -18.3453549
7.5                  0.991703526     -18.3728799
7.502                0.991685233     -18.4004063
7.504                0.991666924     -18.4279341
7.506                0.991647202      -18.455623
7.508                0.991627462     -18.4833133
7.51                 0.991607703      -18.511005
7.512                0.991587926     -18.5386981
7.514                0.991566928     -18.5665417
7.516                 0.99154591     -18.5943866
7.518                0.991524871     -18.6222328
7.52                 0.991503813     -18.6500803
7.522                0.991481718     -18.6780743
7.524                0.991459602     -18.7060694
7.526                0.991437464     -18.7340658
7.528                0.991415305     -18.7620635
7.53                 0.991392288     -18.7902047
7.532                0.991369247     -18.8183473
7.534                 0.99134618     -18.8464913
7.536                0.991323088     -18.8746367
7.538                0.991299309     -18.9029253
7.54                 0.991275498     -18.9312155
7.542                0.991251655     -18.9595074
7.544                0.991227781     -18.9878009
7.546                0.991203386     -19.0162395
7.548                0.991178956     -19.0446799
7.55                 0.991154489     -19.0731219
7.552                0.991129987     -19.1015656
7.554                0.991105149     -19.1301509
7.556                0.991080276     -19.1587378
7.558                0.991055367     -19.1873263
7.56                 0.991030423     -19.2159164
7.562                0.991005336     -19.2446501
7.564                0.990980216     -19.2733851
7.566                0.990955063     -19.3021215
7.568                0.990929877     -19.3308593
7.57                 0.990904769     -19.3597454
7.572                0.990879632     -19.3886325
7.574                0.990854464     -19.4175207
7.576                0.990829267     -19.4464099
7.578                0.990804339     -19.4754616
7.58                 0.990779384     -19.5045141
7.582                0.990754404     -19.5335673
7.584                0.990729398     -19.5626213
7.586                 0.99070486     -19.5918448
7.588                0.990680298      -19.621069
7.59                 0.990655711     -19.6502939
7.592                0.990631099     -19.6795196
7.594                 0.99060708     -19.7089304
7.596                0.990583034     -19.7383422
7.598                0.990558959     -19.7677549
7.6                  0.990534857     -19.7971686
7.602                0.990511398     -19.8267793
7.604                0.990487909     -19.8563909
7.606                 0.99046439     -19.8860036
7.608                 0.99044084     -19.9156174
7.61                 0.990417988     -19.9454392
7.612                0.990395108     -19.9752618
7.614                0.990372201     -20.0050853
7.616                0.990349266     -20.0349097
7.618                0.990327032     -20.0649569
7.62                 0.990304777     -20.0950047
7.622                0.990282501     -20.1250531
7.624                0.990260204     -20.1551021
7.626                0.990238652     -20.1853856
7.628                0.990217086     -20.2156694
7.63                 0.990195506     -20.2459535
7.632                0.990173911     -20.2762378
7.634                0.990153031     -20.3067691
7.636                0.990132141     -20.3373004
7.638                0.990111242     -20.3678316
7.64                 0.990090334     -20.3983628
7.642                0.990070158     -20.4291602
7.644                0.990049974     -20.4599575
7.646                0.990029783     -20.4907548
7.648                0.990009583      -20.521552
7.65                 0.989990051     -20.5526276
7.652                0.989970508     -20.5837034
7.654                0.989950952     -20.6147794
7.656                0.989931385     -20.6458555
7.658                0.989912318      -20.677226
7.66                 0.989893235     -20.7085969
7.662                0.989874134     -20.7399682
7.664                0.989855017     -20.7713399
7.666                0.989836269     -20.8030154
7.668                0.989817504     -20.8346912
7.67                 0.989798723     -20.8663674
7.672                0.989779925      -20.898044
7.674                0.989761319     -20.9300337
7.676                0.989742701     -20.9620236
7.678                0.989724071     -20.9940137
7.68                  0.98970543     -21.0260039
7.682                0.989686802     -21.0583088
7.684                0.989668168     -21.0906136
7.686                0.989649527     -21.1229183
7.688                0.989630879     -21.1552229
7.69                 0.989612139     -21.1878545
7.692                0.989593396     -21.2204858
7.694                 0.98957465     -21.2531168
7.696                0.989555902     -21.2857475
7.698                 0.98953692     -21.3187108
7.7                  0.989517936     -21.3516737
7.702                0.989498948     -21.3846363
7.704                0.989479958     -21.4175986
7.706                0.989460598     -21.4508968
7.708                0.989441229      -21.484195
7.71                 0.989421852     -21.5174931
7.712                0.989402467     -21.5507913
7.714                0.989382556     -21.5844311
7.716                0.989362628     -21.6180713
7.718                0.989342684     -21.6517119
7.72                 0.989322723     -21.6853528
7.722                0.989302066     -21.7193321
7.724                0.989281389      -21.753312
7.726                0.989260691     -21.7872923
7.728                0.989239973     -21.8212731
7.73                 0.989218378     -21.8555991
7.732                0.989196764     -21.8899256
7.734                0.989175132     -21.9242525
7.736                0.989153481     -21.9585798
7.738                0.989130834     -21.9932414
7.74                 0.989108173     -22.0279032
7.742                0.989085497     -22.0625653
7.744                0.989062806     -22.0972276
7.746                0.989039042     -22.1322265
7.748                0.989015266     -22.1672255
7.75                 0.988991478     -22.2022244
7.752                0.988967677     -22.2372234
7.754                0.988942795      -22.272553
7.756                0.988917899     -22.3078826
7.758                0.988892991     -22.3432121
7.76                 0.988868071     -22.3785417
7.762                0.988842038     -22.4142047
7.764                0.988815986      -22.449868
7.766                0.988789916     -22.4855316
7.768                0.988763827     -22.5211955
7.77                 0.988736621     -22.5571899
7.772                0.988709386     -22.5931852
7.774                0.988682123     -22.6291812
7.776                0.988654831     -22.6651781
7.778                0.988626397     -22.7015083
7.78                 0.988597926     -22.7378396
7.782                0.988569419      -22.774172
7.784                0.988540876     -22.8105055
7.786                0.988511164     -22.8471653
7.788                0.988481415     -22.8838261
7.79                 0.988451627     -22.9204881
7.792                0.988421801     -22.9571512
