! TOUCHSTONE file generated by CST DESIGN STUDIO
! Date and time: Mon Feb 10 16:52:16 2025
! Project name: C:\Work\MatlabApps\UnitCellType2OptimizationMatlab\CST\unitcell.cst
! Tree item: Tasks\Sweep1\SPara1\S-Parameters
! Header version: 2024
! Port assignment regex: !\s*Touchstone port\s*([0-9]+)\s*=\s*(CST MWS port|CST DES external port|CST DES block port)\s*(.+)\s* \(\"(.*)\"\)(\s*mode\s*([0-9]+))?.*
! Touchstone port assignment:
! Touchstone port 1 = CST DES external port 1 ("")
# GHz S MA R 50
7                    0.994945119     -13.8923564
7.002                0.994926884     -13.9122782
7.004                0.994908621     -13.9322019
7.006                0.994890329     -13.9521276
7.008                0.994872009     -13.9720554
7.01                 0.994853668     -13.9919921
7.012                0.994835297     -14.0119307
7.014                0.994816895     -14.0318713
7.016                0.994798463     -14.0518138
7.018                0.994780271     -14.0717651
7.02                 0.994762047     -14.0917183
7.022                0.994743791     -14.1116734
7.024                0.994725504     -14.1316303
7.026                0.994707741     -14.1516042
7.028                0.994689946     -14.1715798
7.03                 0.994672118     -14.1915573
7.032                0.994654258     -14.2115365
7.034                0.994637206       -14.23154
7.036                0.994620122     -14.2515451
7.038                0.994603006     -14.2715519
7.04                 0.994585857     -14.2915605
7.042                0.994569763     -14.3116047
7.044                0.994553639     -14.3316506
7.046                0.994537483      -14.351698
7.048                0.994521296      -14.371747
7.05                  0.99450634     -14.3918459
7.052                0.994491355     -14.4119463
7.054                 0.99447634     -14.4320482
7.056                0.994461296     -14.4521515
7.058                0.994447612     -14.4723265
7.06                 0.994433901     -14.4925029
7.062                0.994420162     -14.5126806
7.064                0.994406396     -14.5328597
7.066                0.994394047     -14.5531218
7.068                0.994381672     -14.5733851
7.07                 0.994369273     -14.5936497
7.072                0.994356849     -14.6139154
7.074                0.994345868     -14.6342831
7.076                0.994334865     -14.6546518
7.078                0.994323841     -14.6750217
7.08                 0.994312795     -14.6953927
7.082                0.994303194     -14.7158774
7.084                0.994293575     -14.7363632
7.086                0.994283936       -14.75685
7.088                 0.99427428     -14.7773378
7.09                 0.994266064     -14.7979541
7.092                0.994257834     -14.8185713
7.094                0.994249588     -14.8391895
7.096                0.994241326     -14.8598087
7.098                0.994234449      -14.880577
7.1                   0.99422756     -14.9013462
7.102                 0.99422066     -14.9221163
7.104                0.994213748     -14.9428873
7.106                0.994208111     -14.9638203
7.108                0.994202466     -14.9847542
7.11                 0.994196813      -15.005689
7.112                0.994191152     -15.0266245
7.114                0.994186612     -15.0477385
7.116                0.994182069     -15.0688533
7.118                0.994177521     -15.0899688
7.12                 0.994172968     -15.1110852
7.122                0.994169316     -15.1323932
7.124                0.994165663     -15.1537019
7.126                0.994162009     -15.1750114
7.128                0.994158353     -15.1963217
7.13                 0.994155353     -15.2178313
7.132                0.994152355     -15.2393417
7.134                 0.99414936     -15.2608528
7.136                0.994146366     -15.2823647
7.138                0.994143787     -15.3040853
7.14                 0.994141213     -15.3258067
7.142                0.994138644      -15.347529
7.144                 0.99413608     -15.3692519
7.146                0.994133739     -15.3911831
7.148                0.994131405     -15.4131152
7.15                 0.994129078      -15.435048
7.152                0.994126758     -15.4569817
7.154                0.994124422     -15.4791284
7.156                0.994122094      -15.501276
7.158                0.994119775     -15.5234244
7.16                 0.994117465     -15.5455738
7.162                0.994114939     -15.5679383
7.164                0.994112423     -15.5903038
7.166                0.994109917     -15.6126702
7.168                0.994107422     -15.6350376
7.17                 0.994104479     -15.6576232
7.172                0.994101547     -15.6802099
7.174                0.994098626     -15.7027976
7.176                0.994095717     -15.7253864
7.178                0.994092128     -15.7481894
7.18                  0.99408855     -15.7709936
7.182                0.994084984     -15.7937989
7.184                0.994081429     -15.8166054
7.186                0.994076946     -15.8396225
7.188                0.994072475     -15.8626409
7.19                 0.994068015     -15.8856606
7.192                0.994063567     -15.9086816
7.194                0.994058004     -15.9319038
7.196                0.994052451     -15.9551275
7.198                0.994046909     -15.9783527
7.2                  0.994041378     -16.0015794
7.202                0.994034565     -16.0249969
7.204                0.994027761      -16.048416
7.206                0.994020966     -16.0718368
7.208                 0.99401418     -16.0952593
7.21                 0.994006045     -16.1188624
7.212                0.993997917     -16.1424674
7.214                0.993989796     -16.1660742
7.216                0.993981682     -16.1896829
7.218                0.993972168      -16.213464
7.22                 0.993962658     -16.2372471
7.222                0.993953153     -16.2610322
7.224                0.993943653     -16.2848193
7.226                0.993932716     -16.3087678
7.228                 0.99392178     -16.3327184
7.23                 0.993910847     -16.3566713
7.232                0.993899915     -16.3806263
7.234                0.993887545     -16.4047325
7.236                0.993875173     -16.4288409
7.238                  0.9938628     -16.4529518
7.24                 0.993850425     -16.4770651
7.242                 0.99383661     -16.5013207
7.244                0.993822789     -16.5255789
7.246                0.993808963     -16.5498395
7.248                0.993795132     -16.5741027
7.25                 0.993779871     -16.5984994
7.252                0.993764601     -16.6228988
7.254                0.993749323     -16.6473007
7.256                0.993734035     -16.6717053
7.258                0.993717434     -16.6962303
7.26                  0.99370082      -16.720758
7.262                0.993684193     -16.7452885
7.264                0.993667552     -16.7698217
7.266                0.993649723     -16.7944638
7.268                0.993631877     -16.8191088
7.27                 0.993614013     -16.8437567
7.272                0.993596132     -16.8684073
7.274                0.993577266     -16.8931636
7.276                0.993558379     -16.9179228
7.278                 0.99353947     -16.9426848
7.28                  0.99352054     -16.9674497
7.282                 0.99350082     -16.9923145
7.284                0.993481074     -17.0171821
7.286                0.993461303     -17.0420527
7.288                0.993441507     -17.0669261
7.29                 0.993421077     -17.0919025
7.292                0.993400618     -17.1168819
7.294                 0.99338013     -17.1418641
7.296                0.993359613     -17.1668493
7.298                0.993338658     -17.1919309
7.3                  0.993317671     -17.2170154
7.302                0.993296651     -17.2421027
7.304                0.993275598     -17.2671929
7.306                0.993254262     -17.2923843
7.308                0.993232891     -17.3175785
7.31                 0.993211484     -17.3427754
7.312                0.993190042      -17.367975
7.314                0.993168481     -17.3932747
7.316                0.993146883     -17.4185771
7.318                0.993125247     -17.4438822
7.32                 0.993103572     -17.4691899
7.322                0.993081989     -17.4946029
7.324                0.993060365     -17.5200185
7.326                0.993038702     -17.5454367
7.328                0.993016999     -17.5708574
7.33                 0.992995599      -17.596385
7.332                0.992974159     -17.6219149
7.334                0.992952678     -17.6474474
7.336                0.992931155     -17.6729823
7.338                0.992910153     -17.6986339
7.34                 0.992889108     -17.7242878
7.342                0.992868023     -17.7499441
7.344                0.992846896     -17.7756027
7.346                0.992826453       -17.80139
7.348                0.992805969     -17.8271796
7.35                 0.992785444     -17.8529714
7.352                0.992764877     -17.8787655
7.354                0.992745089     -17.9047008
7.356                 0.99272526     -17.9306382
7.358                0.992705391     -17.9565777
7.36                 0.992685482     -17.9825194
7.362                0.992666411     -18.0086152
7.364                0.992647303     -18.0347129
7.366                0.992628155     -18.0608126
7.368                0.992608968     -18.0869142
7.37                 0.992590669     -18.1131801
7.372                0.992572332     -18.1394478
7.374                0.992553959     -18.1657173
7.376                 0.99253555     -18.1919888
7.378                0.992518058     -18.2184371
7.38                 0.992500531     -18.2448872
7.382                 0.99248297      -18.271339
7.384                0.992465374     -18.2977928
7.386                0.992448704     -18.3244349
7.388                0.992432002     -18.3510789
7.39                 0.992415268     -18.3777246
7.392                0.992398502      -18.404372
7.394                0.992382695     -18.4312195
7.396                 0.99236686     -18.4580688
7.398                0.992350996     -18.4849198
7.4                  0.992335102     -18.5117725
7.402                0.992320133     -18.5388422
7.404                0.992305138     -18.5659137
7.406                0.992290118     -18.5929869
7.408                0.992275072     -18.6200618
7.41                 0.992260891     -18.6473656
7.412                0.992246687     -18.6746711
7.414                0.992232462     -18.7019783
7.416                0.992218215     -18.7292873
7.418                 0.99220467     -18.7568416
7.42                 0.992191108     -18.7843976
7.422                0.992177527     -18.8119554
7.424                0.992163927     -18.8395148
7.426                0.992150899     -18.8673234
7.428                0.992137856     -18.8951338
7.43                 0.992124798     -18.9229458
7.432                0.992111726     -18.9507596
7.434                 0.99209904     -18.9788374
7.436                0.992086343      -19.006917
7.438                0.992073633     -19.0349984
7.44                 0.992060912     -19.0630816
7.442                 0.99204845     -19.0914314
7.444                0.992035979      -19.119783
7.446                0.992023499     -19.1481367
7.448                0.992011009     -19.1764922
7.45                 0.991998643     -19.2051223
7.452                 0.99198627     -19.2337544
7.454                0.991973891     -19.2623886
7.456                0.991961505     -19.2910249
7.458                0.991949093     -19.3199392
7.46                 0.991936676     -19.3488557
7.462                0.991924256     -19.3777745
7.464                0.991911831     -19.4066956
7.466                0.991899197     -19.4359044
7.468                 0.99188656     -19.4651158
7.47                 0.991873921     -19.4943295
7.472                 0.99186128     -19.5235457
7.474                0.991848232     -19.5530525
7.476                0.991835182      -19.582562
7.478                0.991822132      -19.612074
7.48                  0.99180908     -19.6415886
7.482                0.991795424     -19.6713928
7.484                0.991781767     -19.7011997
7.486                 0.99176811     -19.7310094
7.488                0.991754453     -19.7608218
7.49                  0.99173997     -19.7909264
7.492                0.991725487      -19.821034
7.494                0.991711003     -19.8511445
7.496                0.991696519      -19.881258
7.498                0.991681075     -19.9116523
7.5                   0.99166563     -19.9420499
7.502                0.991650184     -19.9724507
7.504                0.991634736     -20.0028547
7.506                0.991618223     -20.0335412
7.508                0.991601706     -20.0642313
7.51                 0.991585186     -20.0949247
7.512                0.991568664     -20.1256217
7.514                0.991551026     -20.1565947
7.516                0.991533383     -20.1875714
7.518                0.991515735     -20.2185518
7.52                 0.991498082      -20.249536
7.522                0.991479238     -20.2807938
7.524                0.991460386     -20.3120555
7.526                0.991441527     -20.3433212
7.528                0.991422661     -20.3745909
7.53                 0.991402525     -20.4061299
7.532                0.991382377     -20.4376731
7.534                0.991362219     -20.4692205
7.536                 0.99134205      -20.500772
7.538                 0.99132053     -20.5325892
7.54                 0.991298994     -20.5644106
7.542                0.991277444     -20.5962363
7.544                0.991255879     -20.6280662
7.546                0.991232915     -20.6601584
7.548                0.991209932     -20.6922549
7.55                 0.991186929     -20.7243558
7.552                0.991163906     -20.7564611
7.554                0.991139488     -20.7888169
7.556                0.991115045     -20.8211772
7.558                0.991090577      -20.853542
7.56                 0.991066083     -20.8859113
7.562                0.991040242     -20.9185238
7.564                 0.99101437     -20.9511409
7.566                0.990988467     -20.9837626
7.568                0.990962533      -21.016389
7.57                 0.990935364     -21.0492524
7.572                0.990908158     -21.0821206
7.574                0.990880916     -21.1149935
7.576                0.990853637     -21.1478712
7.578                0.990825227     -21.1809884
7.58                 0.990796774     -21.2141104
7.582                0.990768279     -21.2472372
7.584                0.990739742     -21.2803688
7.586                0.990710214     -21.3137334
7.588                0.990680638     -21.3471028
7.59                 0.990651014     -21.3804769
7.592                0.990621342     -21.4138557
7.594                0.990590783     -21.4474707
7.596                0.990560169     -21.4810902
7.598                0.990529503     -21.5147143
7.6                  0.990498782     -21.5483429
7.602                0.990467254     -21.5822064
7.604                0.990435667     -21.6160742
7.606                0.990404022     -21.6499464
7.608                0.990372317     -21.6838231
7.61                 0.990339947     -21.7179328
7.612                0.990307513     -21.7520467
7.614                0.990275016      -21.786165
7.616                0.990242455     -21.8202876
7.618                0.990209372     -21.8546466
7.62                 0.990176221     -21.8890098
7.622                0.990143002     -21.9233773
7.624                0.990109716      -21.957749
7.626                0.990076133     -21.9923582
7.628                 0.99004248     -22.0269716
7.63                 0.990008756     -22.0615892
7.632                 0.98997496     -22.0962111
7.634                0.989941029      -22.131074
7.636                0.989907025     -22.1659409
7.638                0.989872948     -22.2008121
7.64                 0.989838797     -22.2356874
7.642                0.989804729     -22.2708166
7.644                0.989770587     -22.3059497
7.646                0.989736369     -22.3410869
7.648                0.989702078     -22.3762281
7.65                  0.98966801     -22.4116309
7.652                0.989633867     -22.4470376
7.654                0.989599649     -22.4824479
7.656                0.989565356     -22.5178621
7.658                0.989531339     -22.5535524
7.66                 0.989497247     -22.5892462
7.662                 0.98946308     -22.6249435
7.664                0.989428839     -22.6606444
7.666                0.989394982     -22.6966311
7.668                0.989361052     -22.7326212
7.67                 0.989327048     -22.7686147
7.672                 0.98929297     -22.8046118
7.674                0.989259366     -22.8409063
7.676                 0.98922569     -22.8772042
7.678                0.989191941     -22.9135057
7.68                  0.98915812     -22.9498106
7.682                0.989124852     -22.9864191
7.684                0.989091513     -23.0230311
7.686                0.989058105     -23.0596467
7.688                0.989024626     -23.0962659
7.69                 0.988991825      -23.133209
7.692                0.988958957     -23.1701558
7.694                0.988926022     -23.2071063
7.696                0.988893019     -23.2440604
7.698                0.988860744     -23.2813541
7.7                  0.988828406     -23.3186516
7.702                0.988796005     -23.3559527
7.704                 0.98876354     -23.3932576
7.706                0.988731804     -23.4309174
7.708                0.988700009     -23.4685808
7.71                 0.988668155     -23.5062479
7.712                0.988636242     -23.5439187
7.714                0.988605004     -23.5819648
7.716                0.988573712     -23.6200145
7.718                0.988542364     -23.6580678
7.72                 0.988510963     -23.6961247
7.722                0.988480135      -23.734568
7.724                0.988449257     -23.7730151
7.726                0.988418329     -23.8114657
7.728                0.988387351     -23.8499201
7.73                 0.988356841     -23.8887839
7.732                0.988326284     -23.9276516
7.734                0.988295682     -23.9665233
7.736                0.988265033     -24.0053989
7.738                 0.98823475      -24.044688
7.74                 0.988204424     -24.0839814
7.742                0.988174056      -24.123279
7.744                0.988143646      -24.162581
7.746                0.988113517     -24.2023151
7.748                0.988083351     -24.2420539
7.75                 0.988053146     -24.2817974
7.752                0.988022904     -24.3215456
7.754                 0.98799285     -24.3617352
7.756                0.987962763     -24.4019299
7.758                0.987932641     -24.4421295
7.76                 0.987902486     -24.4823342
7.762                0.987872346     -24.5229997
7.764                0.987842174     -24.5636705
7.766                0.987811972     -24.6043466
7.768                0.987781739     -24.6450278
7.77                 0.987751313     -24.6861816
7.772                0.987720857     -24.7273407
7.774                0.987690373     -24.7685051
7.776                 0.98765986     -24.8096749
7.778                0.987628912     -24.8513336
7.78                 0.987597936     -24.8929978
7.782                0.987566934     -24.9346676
7.784                0.987535903     -24.9763429
7.786                0.987504198     -25.0185096
7.788                0.987472466     -25.0606822
7.79                 0.987440706     -25.1028607
7.792                0.987408919     -25.1450452
