! TOUCHSTONE file generated by CST DESIGN STUDIO
! Date and time: Mon Feb 10 16:52:24 2025
! Project name: C:\Work\MatlabApps\UnitCellType2OptimizationMatlab\CST\unitcell.cst
! Tree item: Tasks\Sweep1\SPara1\S-Parameters
! Header version: 2024
! Port assignment regex: !\s*Touchstone port\s*([0-9]+)\s*=\s*(CST MWS port|CST DES external port|CST DES block port)\s*(.+)\s* \(\"(.*)\"\)(\s*mode\s*([0-9]+))?.*
! Touchstone port assignment:
! Touchstone port 1 = CST DES external port 1 ("")
# GHz S MA R 50
7                    0.991660924     -10.5108662
7.002                0.991648174      -10.527793
7.004                0.991635378     -10.5447191
7.006                0.991622535     -10.5616446
7.008                0.991609646     -10.5785693
7.01                 0.991601628     -10.5954443
7.012                0.991593559     -10.6123202
7.014                0.991585437     -10.6291969
7.016                0.991577264     -10.6460745
7.018                0.991574119     -10.6629498
7.02                 0.991570911     -10.6798254
7.022                0.991567638     -10.6967011
7.024                0.991564301     -10.7135771
7.026                0.991565948     -10.7305051
7.028                0.991567577     -10.7474322
7.03                 0.991569185     -10.7643584
7.032                0.991570774     -10.7812838
7.034                0.991577179     -10.7983097
7.036                0.991583582     -10.8153356
7.038                0.991589981     -10.8323616
7.04                 0.991596379     -10.8493877
7.042                0.991607424     -10.8665594
7.044                0.991618433     -10.8837317
7.046                0.991629405     -10.9009045
7.048                 0.99164034     -10.9180778
7.05                 0.991655589     -10.9354457
7.052                0.991670812     -10.9528128
7.054                0.991686008     -10.9701789
7.056                0.991701178     -10.9875441
7.058                0.991720059     -11.0051554
7.06                 0.991738966     -11.0227654
7.062                0.991757897      -11.040374
7.064                0.991776853     -11.0579813
7.066                0.991798767     -11.0758666
7.068                0.991820701     -11.0937516
7.07                 0.991842653     -11.1116362
7.072                0.991864625     -11.1295206
7.074                0.991888826      -11.147712
7.076                0.991913014     -11.1659025
7.078                0.991937189     -11.1840922
7.08                  0.99196135     -11.2022809
7.082                0.991986946     -11.2207938
7.084                0.992012556     -11.2393041
7.086                0.992038182     -11.2578118
7.088                0.992063822      -11.276317
7.09                 0.992089996     -11.2951554
7.092                0.992116221     -11.3139914
7.094                0.992142497      -11.332825
7.096                0.992168824     -11.3516564
7.098                0.992194905     -11.3708228
7.1                  0.992221016     -11.3899879
7.102                0.992247156     -11.4091516
7.104                0.992273325     -11.4283141
7.106                0.992298564     -11.4478041
7.108                0.992323815     -11.4672922
7.11                  0.99234908     -11.4867784
7.112                0.992374357     -11.5062627
7.114                0.992397978     -11.5260679
7.116                0.992421639     -11.5458705
7.118                 0.99244534     -11.5656705
7.12                 0.992469082     -11.5854678
7.122                0.992490387     -11.6055701
7.124                0.992511732     -11.6256704
7.126                0.992533118     -11.6457687
7.128                0.992554543      -11.665865
7.13                 0.992572904     -11.6862391
7.132                0.992591269      -11.706611
7.134                0.992609638     -11.7269807
7.136                0.992628011     -11.7473483
7.138                0.992642769     -11.7679649
7.14                 0.992657539      -11.788578
7.142                0.992672321     -11.8091876
7.144                0.992687115     -11.8297936
7.146                0.992697851     -11.8506077
7.148                0.992708636     -11.8714182
7.15                  0.99271947     -11.8922253
7.152                0.992730352      -11.913029
7.154                0.992736843     -11.9339971
7.156                0.992743371     -11.9549632
7.158                0.992749934     -11.9759273
7.16                 0.992756534     -11.9968894
7.162                0.992758731     -12.0179718
7.164                0.992760933     -12.0390524
7.166                0.992763138     -12.0601314
7.168                0.992765347     -12.0812086
7.17                 0.992763185     -12.1023694
7.172                0.992761037     -12.1235281
7.174                0.992758902     -12.1446845
7.176                0.992756781     -12.1658387
7.178                0.992750369     -12.1870372
7.18                 0.992743981     -12.2082341
7.182                0.992737615     -12.2294296
7.184                0.992731272     -12.2506235
7.186                0.992720823     -12.2718235
7.188                0.992710362      -12.293023
7.19                  0.99269989     -12.3142218
7.192                0.992689406       -12.33542
7.194                0.992675167     -12.3565867
7.196                0.992660897     -12.3777523
7.198                0.992646597      -12.398917
7.2                  0.992632266     -12.4200807
7.202                0.992614545     -12.4411774
7.204                0.992596812     -12.4622731
7.206                0.992579066     -12.4833679
7.208                0.992561307     -12.5044617
7.21                 0.992540706     -12.5254567
7.212                0.992520084     -12.5464518
7.214                 0.99249944     -12.5674472
7.216                0.992478775     -12.5884427
7.218                0.992455963     -12.6093147
7.22                 0.992433094     -12.6301873
7.222                 0.99241017     -12.6510603
7.224                0.992387191     -12.6719339
7.226                0.992362825     -12.6926694
7.228                0.992338406     -12.7134046
7.23                 0.992313934     -12.7341395
7.232                 0.99228941     -12.7548741
7.234                0.992264178     -12.7754657
7.236                0.992238915     -12.7960573
7.238                 0.99221362     -12.8166488
7.24                 0.992188294     -12.8372402
7.242                0.992162916     -12.8576893
7.244                0.992137483     -12.8781395
7.246                0.992111996      -12.898591
7.248                0.992086455     -12.9190437
7.25                 0.992061574     -12.9393594
7.252                0.992036606     -12.9596766
7.254                0.992011551     -12.9799953
7.256                0.991986409     -13.0003154
7.258                0.991962591     -13.0205084
7.26                 0.991938695     -13.0407024
7.262                0.991914721     -13.0608976
7.264                0.991890669     -13.0810938
7.266                0.991868502     -13.1011763
7.268                0.991846271     -13.1212603
7.27                 0.991823978     -13.1413458
7.272                0.991801622     -13.1614327
7.274                0.991781724     -13.1814307
7.276                0.991761759     -13.2014302
7.278                0.991741726     -13.2214311
7.28                 0.991721625     -13.2414335
7.282                0.991704511     -13.2613772
7.284                0.991687348     -13.2813212
7.286                0.991670136     -13.3012656
7.288                0.991652875     -13.3212102
7.29                 0.991638866     -13.3411384
7.292                0.991624847     -13.3610664
7.294                0.991610819     -13.3809944
7.296                0.991596781     -13.4009223
7.298                0.991586227     -13.4208681
7.3                  0.991575659      -13.440815
7.302                0.991565078     -13.4607628
7.304                0.991554485     -13.4807117
7.306                0.991547509     -13.5007204
7.308                0.991540484     -13.5207306
7.31                 0.991533411     -13.5407424
7.312                0.991526291     -13.5607558
7.314                0.991522773      -13.580865
7.316                 0.99151921     -13.6009753
7.318                0.991515603     -13.6210866
7.32                 0.991511951     -13.6411989
7.322                0.991511738     -13.6614453
7.324                0.991511515     -13.6816927
7.326                0.991511281      -13.701941
7.328                0.991511037     -13.7221903
7.33                 0.991513992     -13.7426033
7.332                0.991516957     -13.7630175
7.334                0.991519931     -13.7834327
7.336                0.991522914      -13.803849
7.338                0.991528789     -13.8244637
7.34                 0.991534694     -13.8450786
7.342                0.991540629     -13.8656939
7.344                0.991546594     -13.8863095
7.346                0.991555065     -13.9071574
7.348                0.991563599     -13.9280049
7.35                 0.991572197      -13.948852
7.352                0.991580859     -13.9696988
7.354                0.991591515     -13.9908076
7.356                0.991602232     -14.0119166
7.358                0.991613008     -14.0330259
7.36                 0.991623844     -14.0541356
7.362                0.991636206     -14.0755284
7.364                0.991648581     -14.0969222
7.366                0.991660969     -14.1183167
7.368                 0.99167337      -14.139712
7.37                 0.991686782     -14.1614054
7.372                0.991700189      -14.183099
7.374                0.991713592     -14.2047928
7.376                 0.99172699     -14.2264867
7.378                0.991740725     -14.2484882
7.38                 0.991754485     -14.2704895
7.382                0.991768269     -14.2924906
7.384                0.991782077     -14.3144914
7.386                0.991795525     -14.3367988
7.388                0.991809021     -14.3591064
7.39                 0.991822565      -14.381414
7.392                0.991836159     -14.4037218
7.394                 0.99184883     -14.4263298
7.396                 0.99186156     -14.4489377
7.398                0.991874349     -14.4715455
7.4                  0.991887198     -14.4941533
7.402                0.991898549     -14.5170557
7.404                0.991909976     -14.5399575
7.406                0.991921479     -14.5628585
7.408                0.991933059     -14.5857589
7.41                 0.991942674     -14.6089414
7.412                 0.99195236     -14.6321235
7.414                0.991962118     -14.6553051
7.416                0.991971947     -14.6784863
7.418                0.991979376     -14.7019349
7.42                 0.991986828     -14.7253837
7.422                0.991994302     -14.7488326
7.424                0.992001798     -14.7722817
7.426                0.992006625      -14.795972
7.428                0.992011439     -14.8196621
7.43                 0.992016237      -14.843352
7.432                0.992021022     -14.8670418
7.434                0.992022789     -14.8909516
7.436                0.992024554     -14.9148609
7.438                0.992026318     -14.9387697
7.44                 0.992028079      -14.962678
7.442                0.992026552     -14.9867713
7.444                0.992025045     -15.0108646
7.446                0.992023556     -15.0349578
7.448                0.992022087      -15.059051
7.45                 0.992017196     -15.0832971
7.452                 0.99201233     -15.1075434
7.454                0.992007487     -15.1317897
7.456                0.992002667     -15.1560362
7.458                0.991994444     -15.1804033
7.46                 0.991986253     -15.2047699
7.462                0.991978096     -15.2291361
7.464                0.991969972     -15.2535018
7.466                0.991958529      -15.277964
7.468                0.991947121     -15.3024259
7.47                 0.991935749     -15.3268874
7.472                0.991924412     -15.3513486
7.474                0.991909981     -15.3758787
7.476                0.991895545     -15.4004094
7.478                0.991881102     -15.4249408
7.48                 0.991866654     -15.4494728
7.482                0.991849475     -15.4740467
7.484                0.991832237     -15.4986217
7.486                 0.99181494     -15.5231978
7.488                0.991797585      -15.547775
7.49                 0.991777818     -15.5723733
7.492                 0.99175798     -15.5969726
7.494                0.991738072     -15.6215728
7.496                0.991718094     -15.6461741
7.498                 0.99169608     -15.6707684
7.5                  0.991674012      -15.695364
7.502                0.991651888     -15.7199608
7.504                0.991629709     -15.7445588
7.506                 0.99160591      -15.769136
7.508                0.991582066     -15.7937144
7.51                 0.991558178      -15.818294
7.512                0.991534244     -15.8428747
7.514                0.991509211     -15.8674223
7.516                 0.99148415       -15.89197
7.518                0.991459062     -15.9165181
7.52                 0.991433946     -15.9410664
7.522                0.991408249     -15.9655797
7.524                0.991382544     -15.9900929
7.526                0.991356832     -16.0146059
7.528                 0.99133111     -16.0391187
7.53                 0.991305364     -16.0635992
7.532                0.991279587     -16.0880804
7.534                0.991253778     -16.1125625
7.536                0.991227937     -16.1370453
7.538                0.991202688     -16.1615027
7.54                 0.991177351     -16.1859618
7.542                0.991151925     -16.2104228
7.544                0.991126411     -16.2348855
7.546                0.991102038     -16.2593362
7.548                0.991077552     -16.2837888
7.55                 0.991052952     -16.3082432
7.552                0.991028237     -16.3326995
7.554                0.991005082     -16.3571554
7.556                0.990981835      -16.381613
7.558                0.990958495     -16.4060723
7.56                 0.990935062     -16.4305333
7.562                0.990913487      -16.455012
7.564                0.990891856      -16.479492
7.566                0.990870169     -16.5039733
7.568                0.990848426     -16.5284558
7.57                 0.990828783     -16.5529788
7.572                0.990809128     -16.5775019
7.574                0.990789461     -16.6020251
7.576                0.990769783     -16.6265484
7.578                0.990752377      -16.651146
7.58                 0.990735004     -16.6757428
7.582                0.990717662     -16.7003389
7.584                0.990700352     -16.7249341
7.586                0.990685514     -16.7496311
7.588                0.990670704     -16.7743279
7.59                 0.990655923     -16.7990246
7.592                0.990641171     -16.8237211
7.594                0.990629082     -16.8485526
7.596                0.990616965      -16.873385
7.598                0.990604821     -16.8982184
7.6                  0.990592648     -16.9230529
7.602                0.990583223     -16.9480529
7.604                 0.99057373     -16.9730542
7.606                0.990564169     -16.9980568
7.608                0.990554539     -17.0230607
7.61                 0.990547565      -17.048259
7.612                0.990540542     -17.0734583
7.614                0.990533473     -17.0986585
7.616                0.990526356     -17.1238598
7.618                0.990521572      -17.149285
7.62                 0.990516796     -17.1747109
7.622                0.990512027     -17.2001374
7.624                0.990507266     -17.2255646
7.626                0.990504462       -17.25124
7.628                0.990501725     -17.2769152
7.63                 0.990499054     -17.3025903
7.632                0.990496451     -17.3282652
7.634                 0.99049535     -17.3542113
7.636                0.990494365     -17.3801564
7.638                0.990493495     -17.4061003
7.64                 0.990492741     -17.4320433
7.642                0.990493155      -17.458283
7.644                0.990493684     -17.4845219
7.646                0.990494327       -17.51076
7.648                0.990495083     -17.5369974
7.65                 0.990496728     -17.5635462
7.652                0.990498419     -17.5900954
7.654                0.990500157     -17.6166447
7.656                0.990501943     -17.6431943
7.658                0.990504307     -17.6700716
7.66                 0.990506651     -17.6969495
7.662                0.990508975     -17.7238279
7.664                0.990511278     -17.7507069
7.666                0.990513773     -17.7779207
7.668                0.990516245     -17.8051347
7.67                 0.990518694     -17.8323489
7.672                 0.99052112     -17.8595635
7.674                0.990523147     -17.8871159
7.676                  0.9905252     -17.9146683
7.678                 0.99052728     -17.9422208
7.68                 0.990529386     -17.9697733
7.682                0.990530445     -17.9976551
7.684                0.990531588     -18.0255365
7.686                0.990532817     -18.0534176
7.688                0.990534131     -18.0812982
7.69                 0.990533878     -18.1095065
7.692                0.990533754     -18.1377136
7.694                 0.99053376     -18.1659196
7.696                0.990533895     -18.1941244
7.698                 0.99053204     -18.2226468
7.7                  0.990530313     -18.2511679
7.702                0.990528714     -18.2796879
7.704                0.990527243     -18.3082067
7.706                 0.99052358     -18.3370284
7.708                0.990519975     -18.3658498
7.71                 0.990516429     -18.3946708
7.712                 0.99051294     -18.4234916
7.714                0.990507196     -18.4526008
7.716                0.990501419     -18.4817103
7.718                 0.99049561     -18.5108201
7.72                 0.990489767     -18.5399302
7.722                0.990481591     -18.5693069
7.724                0.990473347     -18.5986839
7.726                0.990465035     -18.6280612
7.728                0.990456656     -18.6574387
7.73                 0.990445701     -18.6870681
7.732                 0.99043471     -18.7166976
7.734                0.990423681     -18.7463273
7.736                0.990412614     -18.7759571
7.738                0.990398764     -18.8058074
7.74                 0.990384932     -18.8356575
7.742                0.990371121     -18.8655072
7.744                0.990357329     -18.8953567
7.746                0.990340588     -18.9254077
7.748                0.990323918     -18.9554574
7.75                 0.990307319     -18.9855059
7.752                0.990290791     -19.0155532
7.754                0.990271366     -19.0457776
7.756                0.990252027     -19.0760004
7.758                0.990232772     -19.1062214
7.76                 0.990213603     -19.1364408
7.762                0.990191782     -19.1668203
7.764                0.990169989      -19.197199
7.766                0.990148222     -19.2275768
7.768                0.990126483     -19.2579539
7.77                 0.990102584     -19.2884716
7.772                0.990078607     -19.3189897
7.774                0.990054552     -19.3495083
7.776                 0.99003042     -19.3800274
7.778                0.990004621     -19.4106753
7.78                 0.989978673     -19.4413242
7.782                0.989952577     -19.4719742
7.784                0.989926333     -19.5026253
7.786                0.989898766     -19.5333891
7.788                0.989871058     -19.5641539
7.79                 0.989843207     -19.5949196
7.792                0.989815215     -19.6256863
