! TOUCHSTONE file generated by CST DESIGN STUDIO
! Date and time: Mon Feb 10 16:52:28 2025
! Project name: C:\Work\MatlabApps\UnitCellType2OptimizationMatlab\CST\unitcell.cst
! Tree item: Tasks\Sweep1\SPara1\S-Parameters
! Header version: 2024
! Port assignment regex: !\s*Touchstone port\s*([0-9]+)\s*=\s*(CST MWS port|CST DES external port|CST DES block port)\s*(.+)\s* \(\"(.*)\"\)(\s*mode\s*([0-9]+))?.*
! Touchstone port assignment:
! Touchstone port 1 = CST DES external port 1 ("")
# GHz S MA R 50
7                    0.989186661     -8.34474571
7.002                0.989188732     -8.36322811
7.004                0.989190676     -8.38169907
7.006                0.989192492     -8.40015867
7.008                0.989194181     -8.41860698
7.01                 0.989203425     -8.43701589
7.012                0.989212508     -8.45541758
7.014                 0.98922143     -8.47381209
7.016                0.989230194     -8.49219946
7.018                0.989246503     -8.51061925
7.02                 0.989262605     -8.52902994
7.022                0.989278503     -8.54743157
7.024                0.989294197     -8.56582421
7.026                 0.98931702      -8.5843289
7.028                0.989339747     -8.60282188
7.03                 0.989362379     -8.62130326
7.032                0.989384915     -8.63977313
7.034                0.989413953     -8.65842101
7.036                0.989442925     -8.67705975
7.038                0.989471831      -8.6956894
7.04                 0.989500674     -8.71431005
7.042                0.989535565      -8.7331642
7.044                0.989570288        -8.75201
7.046                0.989604843      -8.7708475
7.048                0.989639232     -8.78967678
7.05                 0.989679036     -8.80880247
7.052                0.989718694     -8.82791605
7.054                0.989758209     -8.84701762
7.056                 0.98979758      -8.8661073
7.058                0.989841214     -8.88555607
7.06                 0.989884835     -8.90499204
7.062                0.989928442     -8.92441529
7.064                0.989972035      -8.9438259
7.066                0.990018604      -8.9636285
7.068                0.990065139       -8.983421
7.07                 0.990111639     -9.00320343
7.072                0.990158107     -9.02297586
7.074                0.990206473     -9.04316637
7.076                0.990254721     -9.06334501
7.078                0.990302853     -9.08351186
7.08                  0.99035087       -9.103667
7.082                0.990399581     -9.12425481
7.084                0.990448255     -9.14482678
7.086                0.990496892     -9.16538302
7.088                0.990545492     -9.18592372
7.09                 0.990593348     -9.20689582
7.092                0.990641262     -9.22785331
7.094                0.990689234     -9.24879633
7.096                0.990737265     -9.26972498
7.098                0.990783444     -9.29106697
7.1                  0.990829627     -9.31239712
7.102                0.990875814     -9.33371546
7.104                0.990922005     -9.35502209
7.106                0.990965513     -9.37671718
7.108                0.991008988     -9.39839903
7.11                 0.991052431      -9.4200677
7.112                0.991095843     -9.44172329
7.114                0.991135628     -9.46374545
7.116                0.991175457     -9.48575311
7.118                0.991215332     -9.50774638
7.12                 0.991255251     -9.52972537
7.122                0.991290546     -9.55203569
7.124                0.991325889     -9.57433348
7.126                 0.99136128     -9.59661883
7.128                0.991396718     -9.61889183
7.13                 0.991426878     -9.64144793
7.132                0.991456999     -9.66399125
7.134                0.991487081     -9.68652186
7.136                0.991517126     -9.70903983
7.138                0.991541334     -9.73179397
7.14                 0.991565533     -9.75453228
7.142                0.991589724     -9.77725486
7.144                0.991613906     -9.79996181
7.146                0.991631723     -9.82284427
7.148                0.991649629     -9.84571173
7.15                 0.991667624      -9.8685643
7.152                0.991685709      -9.8914021
7.154                0.991697135     -9.91434569
7.156                 0.99170862     -9.93727817
7.158                0.991720164     -9.96019959
7.16                 0.991731766     -9.98311003
7.162                0.991736978     -10.0060591
7.164                0.991742172     -10.0289977
7.166                0.991747349      -10.051926
7.168                0.991752509     -10.0748439
7.17                 0.991751572     -10.0977487
7.172                0.991750651     -10.1206421
7.174                0.991749745     -10.1435241
7.176                0.991748855     -10.1663948
7.178                0.991742154     -10.1891998
7.18                 0.991735498     -10.2119954
7.182                0.991728886     -10.2347816
7.184                0.991722317     -10.2575586
7.186                0.991710435     -10.2802181
7.188                0.991698518     -10.3028703
7.19                 0.991686565     -10.3255153
7.192                0.991674578     -10.3481531
7.194                0.991658011      -10.370628
7.196                0.991641372     -10.3930946
7.198                 0.99162466     -10.4155531
7.2                  0.991607876     -10.4380033
7.202                0.991587156     -10.4602498
7.204                0.991566417     -10.4824883
7.206                0.991545657     -10.5047189
7.208                0.991524878     -10.5269415
7.21                 0.991501008     -10.5489229
7.212                0.991477102     -10.5708992
7.214                0.991453161     -10.5928705
7.216                0.991429185     -10.6148367
7.218                0.991403229     -10.6365339
7.22                  0.99137716     -10.6582267
7.222                 0.99135098      -10.679915
7.224                0.991324688     -10.7015989
7.226                0.991297581     -10.7230055
7.228                0.991270379     -10.7444057
7.23                 0.991243082     -10.7657997
7.232                0.991215689     -10.7871875
7.234                 0.99118841     -10.8083027
7.236                0.991161091     -10.8294125
7.238                0.991133734      -10.850517
7.24                 0.991106338     -10.8716162
7.242                0.991079976     -10.8924517
7.244                 0.99105352     -10.9132849
7.246                0.991026971     -10.9341158
7.248                0.991000327     -10.9549445
7.25                 0.990975781     -10.9755261
7.252                0.990951062     -10.9961058
7.254                 0.99092617     -11.0166837
7.256                0.990901105     -11.0372599
7.258                0.990879018     -11.0576147
7.26                 0.990856781      -11.077967
7.262                0.990834393     -11.0983169
7.264                0.990811856     -11.1186644
7.266                0.990792943     -11.1388186
7.268                0.990773913     -11.1589716
7.27                 0.990754765     -11.1791234
7.272                  0.9907355      -11.199274
7.274                0.990720517     -11.2192714
7.276                0.990705399     -11.2392676
7.278                0.990690147     -11.2592626
7.28                  0.99067476     -11.2792565
7.282                0.990664241     -11.2991478
7.284                0.990653627     -11.3190354
7.286                0.990642919     -11.3389194
7.288                0.990632116     -11.3587998
7.29                 0.990626336     -11.3786403
7.292                0.990620548     -11.3984766
7.294                0.990614752     -11.4183087
7.296                0.990608947     -11.4381366
7.298                0.990608292     -11.4579768
7.3                  0.990607606     -11.4778153
7.302                0.990606891     -11.4976522
7.304                0.990606147     -11.5174876
7.306                0.990610668     -11.5373917
7.308                0.990615063     -11.5572953
7.31                 0.990619334     -11.5771982
7.312                0.990623481     -11.5971005
7.314                0.990632774     -11.6171229
7.316                0.990641943     -11.6371435
7.318                0.990650987     -11.6571622
7.32                 0.990659907      -11.677179
7.322                0.990673531     -11.6973667
7.324                0.990687104     -11.7175526
7.326                0.990700625     -11.7377367
7.328                0.990714095      -11.757919
7.33                 0.990731707     -11.7783101
7.332                0.990749306     -11.7986997
7.334                0.990766892      -11.819088
7.336                0.990784465      -11.839475
7.338                0.990805555     -11.8601123
7.34                 0.990826676     -11.8807465
7.342                0.990847828     -11.9013777
7.344                0.990869011     -11.9220059
7.346                0.990892986     -11.9429246
7.348                0.990917066     -11.9638389
7.35                 0.990941252      -11.984749
7.352                0.990965543     -12.0056547
7.354                0.990991809     -12.0268836
7.356                0.991018165     -12.0481096
7.358                0.991044612     -12.0693327
7.36                 0.991071148     -12.0905529
7.362                0.991099035     -12.1121156
7.364                  0.9911269     -12.1336761
7.366                0.991154743     -12.1552344
7.368                0.991182564     -12.1767906
7.37                 0.991211073     -12.1987027
7.372                0.991239521      -12.220611
7.374                0.991267908     -12.2425155
7.376                0.991296233     -12.2644161
7.378                0.991324275     -12.2866772
7.38                 0.991352324     -12.3089338
7.382                0.991380382     -12.3311861
7.384                0.991408447      -12.353434
7.386                0.991435195     -12.3760307
7.388                0.991462008      -12.398624
7.39                 0.991488885     -12.4212141
7.392                0.991515827      -12.443801
7.394                0.991540643     -12.4667182
7.396                 0.99156555     -12.4896318
7.398                0.991590549     -12.5125419
7.4                  0.991615639     -12.5354484
7.402                0.991637821     -12.5586676
7.404                0.991660139     -12.5818822
7.406                0.991682593      -12.605092
7.408                0.991705183     -12.6282971
7.41                 0.991724271     -12.6517903
7.412                0.991743488     -12.6752794
7.414                0.991762832     -12.6987646
7.416                0.991782304     -12.7222458
7.418                0.991797863     -12.7459853
7.42                  0.99181344     -12.7697219
7.422                0.991829036     -12.7934555
7.424                0.991844651     -12.8171861
7.426                0.991856204     -12.8411366
7.428                0.991867697     -12.8650831
7.43                  0.99187913     -12.8890257
7.432                0.991890505     -12.9129644
7.434                0.991897493     -12.9370884
7.436                0.991904456     -12.9612079
7.438                0.991911394      -12.985323
7.44                 0.991918307     -13.0094336
7.442                0.991920519     -13.0336788
7.444                0.991922758     -13.0579209
7.446                0.991925024     -13.0821599
7.448                0.991927319     -13.1063959
7.45                 0.991924809     -13.1307182
7.452                0.991922343      -13.155038
7.454                 0.99191992     -13.1793552
7.456                 0.99191754       -13.20367
7.458                0.991910474     -13.2280264
7.46                 0.991903481     -13.2523792
7.462                 0.99189656     -13.2767286
7.464                0.991889711     -13.3010744
7.466                0.991878401     -13.3254274
7.468                0.991867174     -13.3497772
7.47                 0.991856029     -13.3741238
7.472                0.991844968     -13.3984674
7.474                0.991829927     -13.4227808
7.476                0.991814879      -13.447093
7.478                0.991799826      -13.471404
7.48                 0.991784767     -13.4957138
7.482                0.991766463     -13.5199597
7.484                 0.99174804     -13.5442051
7.486                0.991729497     -13.5684498
7.488                0.991710834      -13.592694
7.49                 0.991689552     -13.6168486
7.492                0.991668132     -13.6410025
7.494                0.991646575     -13.6651556
7.496                0.991624879     -13.6893079
7.498                0.991601134     -13.7133398
7.5                  0.991577291     -13.7373717
7.502                0.991553351     -13.7614037
7.504                0.991529312     -13.7854356
7.506                0.991503804     -13.8093309
7.508                0.991478226     -13.8332262
7.51                 0.991452579     -13.8571217
7.512                0.991426862     -13.8810173
7.514                0.991400366     -13.9047662
7.516                0.991373846     -13.9285135
7.518                0.991347302     -13.9522593
7.52                 0.991320734     -13.9760037
7.522                0.991294062     -13.9996047
7.524                0.991267413     -14.0232036
7.526                0.991240787     -14.0468005
7.528                0.991214183     -14.0703953
7.53                 0.991188257     -14.0938556
7.532                0.991162301     -14.1173158
7.534                0.991136314     -14.1407761
7.536                0.991110298     -14.1642363
7.538                0.991085912     -14.1875753
7.54                 0.991061367      -14.210916
7.542                0.991036662     -14.2342586
7.544                0.991011798     -14.2576029
7.546                0.990989407     -14.2808494
7.548                0.990966798     -14.3040978
7.55                  0.99094397      -14.327348
7.552                0.990920926     -14.3506002
7.554                0.990900883     -14.3737776
7.556                0.990880667     -14.3969569
7.558                0.990860278     -14.4201381
7.56                 0.990839716     -14.4433211
7.562                0.990822425      -14.466459
7.564                0.990805039     -14.4895984
7.566                0.990787557     -14.5127393
7.568                 0.99076998     -14.5358816
7.57                 0.990755807      -14.559014
7.572                0.990741633      -14.582146
7.574                0.990727458     -14.6052774
7.576                0.990713282     -14.6284082
7.578                0.990702553     -14.6515769
7.58                 0.990691913     -14.6747437
7.582                0.990681362     -14.6979085
7.584                0.990670899     -14.7210714
7.586                0.990664011     -14.7443121
7.588                0.990657194     -14.7675523
7.59                 0.990650449      -14.790792
7.592                0.990643777     -14.8140311
7.594                0.990640942     -14.8373908
7.596                0.990638044      -14.860752
7.598                0.990635083     -14.8841148
7.6                  0.990632059     -14.9074791
7.602                0.990633046     -14.9310052
7.604                0.990633873     -14.9545331
7.606                 0.99063454     -14.9780628
7.608                0.990635048     -15.0015941
7.61                 0.990639374     -15.0253261
7.612                0.990643579     -15.0490593
7.614                0.990647664     -15.0727939
7.616                0.990651627     -15.0965297
7.618                0.990658796     -15.1205028
7.62                 0.990665958     -15.1444769
7.622                0.990673112      -15.168452
7.624                0.990680258     -15.1924282
7.626                0.990689853     -15.2166713
7.628                0.990699566     -15.2409141
7.63                 0.990709396     -15.2651567
7.632                0.990719344     -15.2893991
7.634                0.990730916     -15.3139358
7.636                0.990742708     -15.3384708
7.638                0.990754721     -15.3630041
7.64                 0.990766953     -15.3875357
7.642                0.990780221     -15.4123887
7.644                0.990793701     -15.4372405
7.646                0.990807394     -15.4620912
7.648                0.990821298     -15.4869409
7.65                 0.990835895     -15.5121251
7.652                0.990850555     -15.5373099
7.654                0.990865278      -15.562495
7.656                0.990880063     -15.5876805
7.658                0.990895287     -15.6132155
7.66                 0.990910428     -15.6387509
7.662                0.990925486     -15.6642868
7.664                0.990940459     -15.6898232
7.666                0.990955403     -15.7157128
7.668                0.990970259     -15.7416023
7.67                 0.990985028     -15.7674916
7.672                 0.99099971     -15.7933807
7.674                0.991013499     -15.8196201
7.676                0.991027309     -15.8458594
7.678                0.991041139     -15.8720986
7.68                 0.991054989     -15.8983377
7.682                0.991066942     -15.9249099
7.684                0.991079044     -15.9514816
7.686                0.991091295     -15.9780529
7.688                0.991103696     -16.0046237
7.69                 0.991113369      -16.031516
7.692                0.991123292     -16.0584067
7.694                0.991133463     -16.0852959
7.696                0.991143883     -16.1121835
7.698                0.991150976     -16.1393723
7.7                  0.991158318     -16.1665594
7.702                 0.99116591      -16.193745
7.704                 0.99117375      -16.220929
7.706                0.991178126     -16.2483883
7.708                0.991182603     -16.2758472
7.71                 0.991187183     -16.3033059
7.712                0.991191865     -16.3307643
7.714                0.991193252     -16.3584718
7.716                0.991194552     -16.3861795
7.718                0.991195765     -16.4138875
7.72                 0.991196892     -16.4415958
7.722                0.991194841     -16.4695216
7.724                0.991192635     -16.4974474
7.726                0.991190273     -16.5253732
7.728                0.991187757      -16.553299
7.73                 0.991181818     -16.5814157
7.732                0.991175795     -16.6095326
7.734                0.991169687     -16.6376496
7.736                0.991163496     -16.6657667
7.738                0.991153565     -16.6940318
7.74                 0.991143677     -16.7222969
7.742                0.991133833     -16.7505619
7.744                0.991124031     -16.7788268
7.746                  0.9911102     -16.8072094
7.748                0.991096529     -16.8355906
7.75                 0.991083018     -16.8639705
7.752                0.991069667      -16.892349
7.754                0.991052333      -16.920812
7.756                0.991035196     -16.9492731
7.758                0.991018256     -16.9777321
7.76                 0.991001512     -17.0061892
7.762                0.990981244     -17.0347044
7.764                0.990961055     -17.0632191
7.766                0.990940944     -17.0917332
7.768                0.990920913     -17.1202468
7.77                 0.990898291     -17.1487918
7.772                0.990875529     -17.1773382
7.774                0.990852629     -17.2058859
7.776                 0.99082959     -17.2344349
7.778                0.990804911     -17.2629977
7.78                 0.990779948     -17.2915627
7.782                0.990754701     -17.3201299
7.784                0.990729169     -17.3486992
7.786                0.990702609     -17.3772639
7.788                0.990675783     -17.4058309
7.79                 0.990648693        -17.4344
7.792                0.990621337     -17.4629715
