! TOUCHSTONE file generated by CST DESIGN STUDIO
! Date and time: Mon Feb 10 16:52:29 2025
! Project name: C:\Work\MatlabApps\UnitCellType2OptimizationMatlab\CST\unitcell.cst
! Tree item: Tasks\Sweep1\SPara1\S-Parameters
! Header version: 2024
! Port assignment regex: !\s*Touchstone port\s*([0-9]+)\s*=\s*(CST MWS port|CST DES external port|CST DES block port)\s*(.+)\s* \(\"(.*)\"\)(\s*mode\s*([0-9]+))?.*
! Touchstone port assignment:
! Touchstone port 1 = CST DES external port 1 ("")
# GHz S MA R 50
7                     0.98748693     -6.98380882
7.002                0.987503363     -7.00464836
7.004                0.987519555     -7.02546078
7.006                0.987535509     -7.04624629
7.008                0.987551227      -7.0670051
7.01                 0.987575982     -7.08774473
7.012                 0.98760044     -7.10846382
7.014                0.987624602      -7.1291625
7.016                0.987648473     -7.14984093
7.018                0.987681232     -7.17058459
7.02                 0.987713621     -7.19130478
7.022                0.987745645     -7.21200165
7.024                0.987777305     -7.23267537
7.026                0.987817148     -7.25350806
7.028                0.987856791     -7.27431345
7.03                 0.987896233     -7.29509179
7.032                0.987935477     -7.31584331
7.034                0.987981932     -7.33682723
7.036                 0.98802823     -7.35778789
7.038                0.988074372     -7.37872547
7.04                  0.98812036     -7.39964016
7.042                0.988172927      -7.4208449
7.044                0.988225177     -7.44202751
7.046                0.988277115     -7.46318815
7.048                0.988328743     -7.48432702
7.05                 0.988386143     -7.50582456
7.052                0.988443266     -7.52729436
7.054                0.988500114     -7.54873668
7.056                0.988556689     -7.57015176
7.058                 0.98861752     -7.59199249
7.06                 0.988678276     -7.61380478
7.062                0.988738958     -7.63558883
7.064                0.988799566     -7.65734486
7.066                 0.98886281     -7.67955589
7.068                0.988925949     -7.70174273
7.07                 0.988988984     -7.72390552
7.072                0.989051917     -7.74604447
7.074                0.989116245     -7.76865941
7.076                0.989180347     -7.79124762
7.078                0.989244225     -7.81380929
7.08                 0.989307881     -7.83634462
7.082                0.989371516     -7.85936724
7.084                 0.98943505     -7.88235752
7.086                0.989498486     -7.90531574
7.088                0.989561825     -7.92824225
7.09                 0.989623384     -7.95164644
7.092                0.989684993     -7.97502066
7.094                0.989746651     -7.99836517
7.096                0.989808358     -8.02168024
7.098                0.989867022     -8.04544019
7.1                  0.989925656     -8.06917462
7.102                0.989984261     -8.09288365
7.104                0.990042838     -8.11656749
7.106                0.990097524      -8.1406593
7.108                 0.99015213      -8.1647238
7.11                 0.990206659      -8.1887612
7.112                 0.99026111      -8.2127717
7.114                0.990310643     -8.23715887
7.116                0.990360217      -8.2615174
7.118                0.990409832      -8.2858475
7.12                 0.990459488     -8.31014942
7.122                0.990503139      -8.3347809
7.124                0.990546839     -8.35938709
7.126                0.990590586     -8.38396817
7.128                0.990634381     -8.40852433
7.13                 0.990671571      -8.4333495
7.132                0.990708683     -8.45814926
7.134                0.990745718     -8.48292377
7.136                0.990782676      -8.5076732
7.138                0.990812525     -8.53263563
7.14                 0.990842345     -8.55756853
7.142                0.990872137      -8.5824721
7.144                0.990901902     -8.60734658
7.146                0.990923997     -8.63236339
7.148                0.990946212      -8.6573524
7.15                 0.990968545     -8.68231384
7.152                0.990990996     -8.70724792
7.154                0.991005539     -8.73224009
7.156                0.991020157     -8.75721049
7.158                 0.99103485     -8.78215924
7.16                 0.991049616     -8.80708649
7.162                0.991056958     -8.83199258
7.164                0.991064263     -8.85687803
7.166                0.991071533     -8.88174299
7.168                0.991078768     -8.90658758
7.17                 0.991079063     -8.93135301
7.172                0.991079372     -8.95609666
7.174                0.991079696     -8.98081869
7.176                0.991080035     -9.00551924
7.178                0.991073848     -9.03008264
7.18                 0.991067719     -9.05462751
7.182                0.991061649     -9.07915396
7.184                0.991055636      -9.1036621
7.186                0.991043795     -9.12797563
7.188                0.991031898     -9.15227378
7.19                 0.991019944     -9.17655663
7.192                0.991007934     -9.20082426
7.194                0.990991077     -9.22485018
7.196                0.990974111     -9.24885937
7.198                0.990957038     -9.27285192
7.2                  0.990939857     -9.29682793
7.202                0.990918623     -9.32052098
7.204                0.990897361     -9.34419786
7.206                0.990876071     -9.36785871
7.208                0.990854753     -9.39150365
7.21                 0.990830379     -9.41482687
7.212                0.990805956      -9.4381383
7.214                0.990781484     -9.46143803
7.216                0.990756963     -9.48472613
7.218                0.990730736     -9.50766497
7.22                 0.990704348     -9.53059291
7.222                0.990677802     -9.55351005
7.224                0.990651098     -9.57641647
7.226                0.990624072     -9.59897127
7.228                0.990596913     -9.62151267
7.23                 0.990569623     -9.64404078
7.232                0.990542201     -9.66655569
7.234                0.990515486     -9.68873125
7.236                0.990488722     -9.71089499
7.238                0.990461908     -9.73304698
7.24                 0.990435046     -9.75518726
7.242                0.990409932     -9.77700285
7.244                0.990384689      -9.7988111
7.246                0.990359315     -9.82061205
7.248                0.990333813     -9.84240575
7.25                 0.990311311     -9.86389847
7.252                0.990288563      -9.8853845
7.254                0.990265572      -9.9068639
7.256                0.990242337     -9.92833672
7.258                0.990223079      -9.9495443
7.26                 0.990203609     -9.97074441
7.262                0.990183927     -9.99193711
7.264                0.990164034     -10.0131224
7.266                0.990148771     -10.0340793
7.268                0.990133339     -10.0550306
7.27                  0.99011774     -10.0759763
7.272                0.990101975     -10.0969163
7.274                0.990091508     -10.1176766
7.276                0.990080847     -10.1384314
7.278                0.990069991     -10.1591806
7.28                 0.990058941     -10.1799244
7.282                0.990053772     -10.2005508
7.284                0.990048464     -10.2211681
7.286                0.990043018     -10.2417765
7.288                0.990037433      -10.262376
7.29                 0.990037773      -10.282932
7.292                0.990038094     -10.3034784
7.294                0.990038398     -10.3240153
7.296                0.990038683     -10.3445427
7.298                0.990044924     -10.3650871
7.3                  0.990051112     -10.3856257
7.302                0.990057246     -10.4061585
7.304                0.990063326     -10.4266854
7.306                0.990075469     -10.4472927
7.308                0.990087418     -10.4678954
7.31                 0.990099173     -10.4884934
7.312                0.990110735      -10.509087
7.314                0.990128181     -10.5298193
7.316                0.990145431     -10.5505453
7.318                0.990162486     -10.5712649
7.32                 0.990179346     -10.5919781
7.322                0.990201471     -10.6128865
7.324                0.990223502     -10.6337888
7.326                0.990245439     -10.6546848
7.328                0.990267281     -10.6755748
7.33                 0.990293627     -10.6967004
7.332                 0.99031993     -10.7178204
7.334                 0.99034619      -10.738935
7.336                0.990372409      -10.760044
7.338                0.990402319     -10.7814327
7.34                 0.990432248     -10.8028136
7.342                0.990462198     -10.8241865
7.344                0.990492166     -10.8455517
7.346                0.990524902     -10.8672388
7.348                0.990557763     -10.8889164
7.35                 0.990590747     -10.9105845
7.352                0.990623855     -10.9322432
7.354                0.990658748     -10.9542564
7.356                0.990693743     -10.9762621
7.358                0.990728839     -10.9982603
7.36                 0.990764036     -11.0202511
7.362                0.990800342      -11.042613
7.364                0.990836591     -11.0649683
7.366                0.990872783      -11.087317
7.368                0.990908918     -11.1096592
7.37                 0.990945461     -11.1323842
7.372                0.990981892     -11.1551002
7.374                0.991018212     -11.1778073
7.376                0.991054422     -11.2005055
7.378                0.991089922     -11.2235875
7.38                  0.99112541     -11.2466599
7.382                0.991160886     -11.2697228
7.384                 0.99119635     -11.2927763
7.386                0.991229894     -11.3161949
7.388                0.991263508     -11.3396057
7.39                 0.991297192     -11.3630088
7.392                0.991330945     -11.3864042
7.394                0.991361848     -11.4101392
7.396                 0.99139286     -11.4338661
7.398                0.991423981     -11.4575851
7.4                  0.991455212     -11.4812961
7.402                0.991482716     -11.5053224
7.404                0.991510394     -11.5293392
7.406                0.991538247     -11.5533467
7.408                0.991566272     -11.5773447
7.41                 0.991589931     -11.6016269
7.412                0.991613755     -11.6259008
7.414                0.991637742     -11.6501664
7.416                0.991661892     -11.6744237
7.418                0.991681318     -11.6989276
7.42                 0.991700758     -11.7234246
7.422                0.991720211     -11.7479146
7.424                0.991739677     -11.7723978
7.426                0.991754383      -11.797083
7.428                0.991768996       -11.82176
7.43                 0.991783516     -11.8464287
7.432                0.991797943     -11.8710893
7.434                0.991807325     -11.8959113
7.436                0.991816665     -11.9207245
7.438                0.991825963     -11.9455289
7.44                 0.991835219     -11.9703246
7.442                0.991839096     -11.9952233
7.444                0.991843006     -12.0201153
7.446                0.991846948     -12.0450006
7.448                0.991850923     -12.0698793
7.45                  0.99184944     -12.0948051
7.452                0.991848013     -12.1197251
7.454                0.991846642     -12.1446393
7.456                0.991845327     -12.1695478
7.458                0.991838731     -12.1944534
7.46                 0.991832234      -12.219352
7.462                0.991825836     -12.2442435
7.464                0.991819537     -12.2691281
7.466                0.991808258     -12.2939713
7.468                0.991797094     -12.3188081
7.47                 0.991786046     -12.3436386
7.472                0.991775113     -12.3684626
7.474                 0.99175983     -12.3932043
7.476                 0.99174454     -12.4179421
7.478                0.991729245     -12.4426762
7.48                 0.991713944     -12.4674064
7.482                 0.99169525     -12.4920183
7.484                0.991676394      -12.516627
7.486                0.991657378     -12.5412328
7.488                0.991638201     -12.5658354
7.49                 0.991616429     -12.5902931
7.492                0.991594473     -12.6147474
7.494                0.991572333     -12.6391985
7.496                 0.99155001     -12.6636463
7.498                0.991525752     -12.6879178
7.5                  0.991501366     -12.7121873
7.502                0.991476854     -12.7364547
7.504                0.991452216     -12.7607201
7.506                0.991426288     -12.7847927
7.508                0.991400273     -12.8088636
7.51                 0.991374174     -12.8329328
7.512                0.991347989     -12.8570002
7.514                0.991321268     -12.8808673
7.516                0.991294525     -12.9047306
7.518                0.991267762     -12.9285901
7.52                 0.991240977     -12.9524457
7.522                0.991214383     -12.9761084
7.524                0.991187834     -12.9997667
7.526                0.991161329     -13.0234205
7.528                0.991134867     -13.0470699
7.53                 0.991109478      -13.070539
7.532                0.991084059     -13.0940064
7.534                 0.99105861     -13.1174722
7.536                0.991033132     -13.1409364
7.538                0.991009859     -13.1642371
7.54                 0.990986377     -13.1875385
7.542                0.990962687     -13.2108406
7.544                0.990938789     -13.2341433
7.546                0.990918094     -13.2573116
7.548                 0.99089711     -13.2804806
7.55                 0.990875836     -13.3036504
7.552                0.990854273      -13.326821
7.554                0.990836482     -13.3498863
7.556                 0.99081846     -13.3729525
7.558                0.990800209     -13.3960196
7.56                 0.990781729     -13.4190877
7.562                0.990767241     -13.4420859
7.564                0.990752626     -13.4650846
7.566                0.990737886     -13.4880838
7.568                 0.99072302     -13.5110836
7.57                 0.990712185     -13.5340551
7.572                0.990701351     -13.5570245
7.574                0.990690518      -13.579992
7.576                0.990679687     -13.6029575
7.578                0.990672823     -13.6259494
7.58                 0.990666082     -13.6489376
7.582                0.990659461      -13.671922
7.584                0.990652962     -13.6949028
7.586                0.990650499     -13.7179557
7.588                 0.99064813     -13.7410068
7.59                 0.990645855     -13.7640561
7.592                0.990643675     -13.7871036
7.594                0.990645842     -13.8102699
7.596                0.990647915      -13.833437
7.598                0.990649894     -13.8566048
7.6                   0.99065178     -13.8797734
7.602                0.990658252     -13.9031068
7.604                0.990664496      -13.926441
7.606                0.990670513      -13.949776
7.608                0.990676303     -13.9731118
7.61                 0.990686438     -13.9966554
7.612                0.990696394     -14.0201992
7.614                0.990706174     -14.0437434
7.616                0.990715777     -14.0672878
7.618                0.990728945     -14.0910791
7.62                 0.990742087     -14.1148705
7.622                0.990755203     -14.1386621
7.624                0.990768293     -14.1624539
7.626                 0.99078397     -14.1865238
7.628                0.990799791     -14.2105923
7.63                 0.990815753     -14.2346595
7.632                0.990831858     -14.2587254
7.634                0.990849517      -14.283098
7.636                0.990867456     -14.3074676
7.638                0.990885675      -14.331834
7.64                 0.990904173     -14.3561973
7.642                0.990923506     -14.3808943
7.644                0.990943107     -14.4055889
7.646                0.990962976     -14.4302812
7.648                0.990983111     -14.4549712
7.65                 0.991003736     -14.4800065
7.652                0.991024426     -14.5050412
7.654                 0.99104518     -14.5300754
7.656                0.991065999     -14.5551091
7.658                 0.99108713     -14.5805017
7.66                 0.991108129     -14.6058936
7.662                0.991128995     -14.6312848
7.664                 0.99114973     -14.6566751
7.666                0.991170296     -14.6824264
7.668                0.991190725      -14.708176
7.67                 0.991211019     -14.7339241
7.672                0.991231178     -14.7596705
7.674                0.991250172     -14.7857713
7.676                0.991269176     -14.8118708
7.678                 0.99128819      -14.837969
7.68                 0.991307214     -14.8640659
7.682                0.991323879     -14.8904952
7.684                0.991340729     -14.9169229
7.686                0.991357763     -14.9433493
7.688                0.991374981     -14.9697741
7.69                 0.991388848     -14.9965145
7.692                0.991403035     -15.0232522
7.694                0.991417542     -15.0499872
7.696                0.991432368     -15.0767195
7.698                0.991443158      -15.103742
7.7                  0.991454271     -15.1307618
7.702                0.991465706      -15.157779
7.704                0.991477462     -15.1847935
7.706                0.991485109      -15.212067
7.708                0.991492882     -15.2393394
7.71                 0.991500781     -15.2666106
7.712                0.991508807     -15.2938806
7.714                 0.99151306     -15.3213784
7.716                0.991517189     -15.3488755
7.718                0.991521193      -15.376372
7.72                 0.991525074     -15.4038678
7.722                0.991525436     -15.4315556
7.724                0.991525585     -15.4592423
7.726                0.991525521      -15.486928
7.728                0.991525245     -15.5146126
7.73                 0.991521214     -15.5424576
7.732                0.991517066      -15.570302
7.734                0.991512802     -15.5981457
7.736                0.991508423     -15.6259887
7.738                0.991499905      -15.653944
7.74                 0.991491443     -15.6818986
7.742                0.991483038     -15.7098526
7.744                0.991474688      -15.737806
7.746                0.991461827     -15.7658365
7.748                0.991449181      -15.793865
7.75                  0.99143675     -15.8218915
7.752                0.991424534     -15.8499159
7.754                0.991407834     -15.8779809
7.756                0.991391401     -15.9060433
7.758                0.991375235      -15.934103
7.76                 0.991359335     -15.9621598
7.762                0.991339525     -15.9902276
7.764                0.991319826     -16.0182944
7.766                0.991300237     -16.0463601
7.768                0.991280759     -16.0744249
7.77                 0.991258555     -16.1024714
7.772                0.991236174     -16.1305191
7.774                0.991213615      -16.158568
7.776                 0.99119088     -16.1866181
7.778                0.991166625     -16.2146305
7.78                 0.991142002     -16.2426451
7.782                0.991117011     -16.2706619
7.784                0.991091653     -16.2986808
7.786                0.991065521     -16.3266433
7.788                0.991039048     -16.3546083
7.79                 0.991012235     -16.3825756
7.792                0.990985081     -16.4105454
