! TOUCHSTONE file generated by CST DESIGN STUDIO
! Date and time: Mon Feb 10 16:52:23 2025
! Project name: C:\Work\MatlabApps\UnitCellType2OptimizationMatlab\CST\unitcell.cst
! Tree item: Tasks\Sweep1\SPara1\S-Parameters
! Header version: 2024
! Port assignment regex: !\s*Touchstone port\s*([0-9]+)\s*=\s*(CST MWS port|CST DES external port|CST DES block port)\s*(.+)\s* \(\"(.*)\"\)(\s*mode\s*([0-9]+))?.*
! Touchstone port assignment:
! Touchstone port 1 = CST DES external port 1 ("")
# GHz S MA R 50
7                    0.992574397     -11.3814697
7.002                0.992558288     -11.3985343
7.004                0.992542144     -11.4155994
7.006                0.992525965     -11.4326651
7.008                 0.99250975     -11.4497314
7.01                 0.992497225     -11.4667532
7.012                0.992484665     -11.4837764
7.014                 0.99247207     -11.5008009
7.016                 0.99245944     -11.5178269
7.018                0.992450704     -11.5348447
7.02                 0.992441928     -11.5518636
7.022                0.992433114     -11.5688835
7.024                 0.99242426     -11.5859044
7.026                 0.99241937     -11.6029603
7.028                0.992414469     -11.6200166
7.03                 0.992409556     -11.6370732
7.032                 0.99240463     -11.6541303
7.034                 0.99240365     -11.6712617
7.036                 0.99240267     -11.6883941
7.038                0.992401692     -11.7055273
7.04                 0.992400714     -11.7226613
7.042                0.992403625     -11.7399084
7.044                0.992406522     -11.7571568
7.046                0.992409403     -11.7744063
7.048                 0.99241227      -11.791657
7.05                 0.992418819     -11.8090622
7.052                0.992425362     -11.8264679
7.054                0.992431896      -11.843874
7.056                0.992438423     -11.8612805
7.058                0.992448236     -11.8788868
7.06                 0.992458072     -11.8964932
7.062                0.992467931     -11.9140998
7.064                0.992477813     -11.9317064
7.066                 0.99249044     -11.9495418
7.068                 0.99250309     -11.9673778
7.07                 0.992515761     -11.9852146
7.072                0.992528453     -12.0030521
7.074                0.992543333     -12.0211466
7.076                0.992558217     -12.0392416
7.078                0.992573106      -12.057337
7.08                    0.992588     -12.0754329
7.082                0.992604472     -12.0938027
7.084                0.992620965      -12.112172
7.086                0.992637477     -12.1305407
7.088                0.992654009     -12.1489089
7.09                 0.992671445     -12.1675628
7.092                0.992688922     -12.1862163
7.094                 0.99270644     -12.2048693
7.096                0.992723997     -12.2235218
7.098                 0.99274184     -12.2424684
7.1                  0.992759713     -12.2614151
7.102                0.992777614     -12.2803619
7.104                0.992795545     -12.2993088
7.106                0.992813181     -12.3185486
7.108                0.992830837     -12.3377882
7.11                 0.992848513     -12.3570275
7.112                0.992866208     -12.3762665
7.114                0.992883001      -12.395798
7.116                0.992899828     -12.4153287
7.118                 0.99291669     -12.4348587
7.12                 0.992933586     -12.4543879
7.122                0.992948916     -12.4742014
7.124                0.992964281     -12.4940144
7.126                 0.99297968      -12.513827
7.128                0.992995113     -12.5336392
7.13                 0.993008407     -12.5537172
7.132                0.993021714     -12.5737947
7.134                0.993035034     -12.5938717
7.136                0.993048368     -12.6139483
7.138                0.993059053     -12.6342705
7.14                 0.993069755     -12.6545915
7.142                0.993080472     -12.6749112
7.144                0.993091206     -12.6952296
7.146                0.993098898     -12.7157619
7.148                0.993106625     -12.7362929
7.15                 0.993114389     -12.7568225
7.152                0.993122188     -12.7773508
7.154                0.993126615      -12.798061
7.156                0.993131071     -12.8187706
7.158                0.993135556     -12.8394798
7.16                 0.993140068     -12.8601885
7.162                0.993141117     -12.8810455
7.164                0.993142175     -12.9019022
7.166                0.993143242     -12.9227587
7.168                0.993144318     -12.9436148
7.17                 0.993141873     -12.9645909
7.172                 0.99313944     -12.9855663
7.174                0.993137021     -13.0065412
7.176                0.993134614     -13.0275155
7.178                0.993128683     -13.0485774
7.18                  0.99312277     -13.0696392
7.182                0.993116872     -13.0907008
7.184                0.993110992     -13.1117622
7.186                0.993101651     -13.1328803
7.188                0.993092307     -13.1539988
7.19                 0.993082958     -13.1751177
7.192                0.993073605     -13.1962369
7.194                0.993060995     -13.2173803
7.196                0.993048367     -13.2385239
7.198                0.993035722     -13.2596678
7.2                  0.993023059     -13.2808118
7.202                 0.99300738     -13.3019489
7.204                0.992991691     -13.3230862
7.206                0.992975992     -13.3442236
7.208                0.992960283     -13.3653613
7.21                 0.992941966      -13.386464
7.212                0.992923633     -13.4075676
7.214                0.992905283     -13.4286721
7.216                0.992886916     -13.4497774
7.218                0.992866455     -13.4708258
7.22                 0.992845957     -13.4918753
7.222                 0.99282542     -13.5129259
7.224                0.992804844     -13.5339777
7.226                0.992782751     -13.5549569
7.228                0.992760619     -13.5759369
7.23                 0.992738448     -13.5969174
7.232                0.992716237     -13.6178986
7.234                0.992693051     -13.6387998
7.236                0.992669837     -13.6597016
7.238                0.992646594     -13.6806042
7.24                 0.992623322     -13.7015075
7.242                0.992599593     -13.7223283
7.244                0.992575821     -13.7431505
7.246                0.992552008     -13.7639743
7.248                0.992528152     -13.7847995
7.25                  0.99250439     -13.8055435
7.252                0.992480566     -13.8262891
7.254                0.992456681     -13.8470364
7.256                0.992432734     -13.8677853
7.258                0.992409432     -13.8884565
7.26                 0.992386073     -13.9091291
7.262                0.992362656     -13.9298031
7.264                0.992339183     -13.9504784
7.266                0.992316844     -13.9710833
7.268                0.992294456     -13.9916897
7.27                  0.99227202     -14.0122976
7.272                0.992249536      -14.032907
7.274                0.992228699     -14.0534641
7.276                0.992207811     -14.0740226
7.278                0.992186873     -14.0945826
7.28                 0.992165885     -14.1151441
7.282                0.992147019     -14.1356746
7.284                0.992128115     -14.1562058
7.286                0.992109172     -14.1767378
7.288                 0.99209019     -14.1972706
7.29                 0.992073609     -14.2178054
7.292                0.992057013     -14.2383406
7.294                0.992040402     -14.2588763
7.296                0.992023777     -14.2794123
7.298                0.992009803     -14.2999761
7.3                  0.991995815     -14.3205409
7.302                0.991981814     -14.3411067
7.304                0.991967798     -14.3616736
7.306                0.991956576     -14.3823023
7.308                0.991945322     -14.4029325
7.31                 0.991934036     -14.4235641
7.312                0.991922719     -14.4441971
7.314                0.991914226     -14.4649203
7.316                0.991905705     -14.4856445
7.318                0.991897156     -14.5063698
7.32                  0.99188858     -14.5270963
7.322                 0.99188277     -14.5479444
7.324                0.991876955     -14.5687935
7.326                0.991871135     -14.5896436
7.328                0.991865308     -14.6104946
7.33                 0.991862134      -14.631492
7.332                0.991858968     -14.6524903
7.334                 0.99185581     -14.6734897
7.336                 0.99185266     -14.6944901
7.338                0.991851988     -14.7156669
7.34                 0.991851338     -14.7368443
7.342                0.991850709     -14.7580221
7.344                0.991850102     -14.7792006
7.346                0.991851728     -14.8005854
7.348                0.991853396     -14.8219703
7.35                 0.991855106     -14.8433553
7.352                0.991856858     -14.8647404
7.354                0.991860474     -14.8863589
7.356                0.991864132     -14.9079779
7.358                 0.99186783     -14.9295974
7.36                 0.991871571     -14.9512175
7.362                0.991876802     -14.9730918
7.364                 0.99188205      -14.994967
7.366                0.991887313     -15.0168431
7.368                0.991892593     -15.0387201
7.37                 0.991898946     -15.0608661
7.372                0.991905305     -15.0830127
7.374                0.991911669     -15.1051598
7.376                 0.99191804     -15.1273075
7.378                 0.99192496     -15.1497352
7.38                 0.991931902     -15.1721631
7.382                0.991938867     -15.1945914
7.384                0.991945855       -15.21702
7.386                0.991952851     -15.2397314
7.388                0.991959884     -15.2624434
7.39                 0.991966953     -15.2851557
7.392                 0.99197406     -15.3078685
7.394                0.991980739     -15.3308627
7.396                0.991987461     -15.3538572
7.398                0.991994225      -15.376852
7.4                  0.992001032     -15.3998471
7.402                0.992006944     -15.4231235
7.404                0.992012908     -15.4463997
7.406                0.992018924     -15.4696759
7.408                0.992024992     -15.4929519
7.41                 0.992029773     -15.5165023
7.412                0.992034602     -15.5400528
7.414                 0.99203948     -15.5636033
7.416                0.992044407     -15.5871538
7.418                0.992047634     -15.6109709
7.42                 0.992050881     -15.6347885
7.422                0.992054149     -15.6586066
7.424                0.992057437     -15.6824252
7.426                0.992058742     -15.7064904
7.428                0.992060044      -15.730556
7.43                 0.992061344     -15.7546219
7.432                0.992062642     -15.7786883
7.434                0.992061621     -15.8029872
7.436                0.992060602     -15.8272863
7.438                0.992059587     -15.8515855
7.44                 0.992058576     -15.8758848
7.442                0.992054999     -15.9003896
7.444                0.992051438     -15.9248948
7.446                0.992047891     -15.9494003
7.448                0.992044359     -15.9739061
7.45                  0.99203812     -15.9985936
7.452                0.992031898     -16.0232815
7.454                0.992025692     -16.0479698
7.456                0.992019503     -16.0726585
7.458                0.992010581     -16.0975033
7.46                 0.992001679     -16.1223482
7.462                0.991992796     -16.1471932
7.464                0.991983934     -16.1720382
7.466                0.991972362     -16.1970213
7.468                0.991960809     -16.2220045
7.47                 0.991949275     -16.2469878
7.472                0.991937761     -16.2719713
7.474                0.991923655     -16.2970708
7.476                0.991909542     -16.3221711
7.478                0.991895425     -16.3472722
7.48                 0.991881302      -16.372374
7.482                0.991864796     -16.3975694
7.484                0.991848253     -16.4227659
7.486                0.991831671     -16.4479636
7.488                0.991815052     -16.4731624
7.49                 0.991796237     -16.4984374
7.492                0.991777374     -16.5237136
7.494                0.991758466     -16.5489909
7.496                 0.99173951     -16.5742693
7.498                0.991718633     -16.5995984
7.5                  0.991697716     -16.6249287
7.502                 0.99167676     -16.6502601
7.504                0.991655764     -16.6755928
7.506                0.991633166     -16.7009645
7.508                0.991610532     -16.7263374
7.51                 0.991587863     -16.7517113
7.512                 0.99156516     -16.7770864
7.514                0.991541272      -16.802488
7.516                0.991517357     -16.8278901
7.518                0.991493415     -16.8532928
7.52                 0.991469446      -16.878696
7.522                0.991444711     -16.9041224
7.524                0.991419959     -16.9295491
7.526                 0.99139519     -16.9549759
7.528                0.991370404      -16.980403
7.53                 0.991345286     -17.0058537
7.532                0.991320137     -17.0313051
7.534                0.991294957     -17.0567573
7.536                0.991269746     -17.0822103
7.538                0.991244663      -17.107691
7.54                 0.991219516     -17.1331732
7.542                0.991194305     -17.1586569
7.544                 0.99116903     -17.1841419
7.546                0.991144298      -17.209664
7.548                0.991119486     -17.2351875
7.55                 0.991094596     -17.2607125
7.552                0.991069626     -17.2862391
7.554                0.991045547     -17.3118088
7.556                0.991021402     -17.3373799
7.558                 0.99099719     -17.3629523
7.56                 0.990972912     -17.3885259
7.562                0.990949805     -17.4141554
7.564                0.990926654     -17.4397858
7.566                0.990903459     -17.4654171
7.568                0.990880219     -17.4910493
7.57                 0.990858408     -17.5167538
7.572                0.990836578     -17.5424584
7.574                0.990814731     -17.5681631
7.576                0.990792866     -17.5938679
7.578                0.990772631     -17.6196721
7.58                 0.990752405     -17.6454757
7.582                0.990732187     -17.6712787
7.584                0.990711977     -17.6970811
7.586                0.990693611     -17.7230037
7.588                0.990675254      -17.748926
7.59                 0.990656905     -17.7748481
7.592                0.990638566     -17.8007699
7.594                0.990622234     -17.8268396
7.596                 0.99060588     -17.8529098
7.598                0.990589505     -17.8789805
7.6                  0.990573108     -17.9050519
7.602                0.990558779     -17.9312956
7.604                0.990544407     -17.9575402
7.606                0.990529992     -17.9837856
7.608                0.990515534     -18.0100318
7.61                 0.990503101     -18.0364737
7.612                0.990490638     -18.0629162
7.614                0.990478147     -18.0893592
7.616                0.990465625     -18.1158028
7.618                0.990454931     -18.1424672
7.62                 0.990444242     -18.1691318
7.622                0.990433557     -18.1957967
7.624                0.990422876     -18.2224617
7.626                0.990413807     -18.2493683
7.628                0.990404778     -18.2762744
7.63                  0.99039579     -18.3031801
7.632                0.990386843     -18.3300853
7.634                0.990379212      -18.357252
7.636                 0.99037165     -18.3844176
7.638                0.990364159     -18.4115821
7.64                 0.990356737     -18.4387455
7.642                 0.99035042     -18.4661943
7.644                0.990344173     -18.4936421
7.646                0.990337997     -18.5210891
7.648                0.990331891     -18.5485351
7.65                 0.990326665      -18.576281
7.652                0.990321472     -18.6040268
7.654                0.990316311     -18.6317724
7.656                0.990311183     -18.6595179
7.658                0.990306646     -18.6875796
7.66                 0.990302101     -18.7156415
7.662                 0.99029755     -18.7437037
7.664                0.990292992     -18.7717661
7.666                0.990288706     -18.8001529
7.668                0.990284412     -18.8285397
7.67                  0.99028011     -18.8569266
7.672                0.990275799     -18.8853136
7.674                0.990271307     -18.9140305
7.676                0.990266836     -18.9427472
7.678                0.990262385     -18.9714637
7.68                 0.990257955       -19.00018
7.682                0.990252861     -19.0292215
7.684                0.990247822     -19.0582623
7.686                0.990242838     -19.0873025
7.688                0.990237908     -19.1163421
7.69                 0.990231941     -19.1457101
7.692                0.990226054     -19.1750768
7.694                0.990220247     -19.2044424
7.696                 0.99021452     -19.2338068
7.698                0.990207425     -19.2634946
7.7                  0.990200407     -19.2931812
7.702                0.990193468     -19.3228666
7.704                0.990186607     -19.3525507
7.706                0.990178178     -19.3825496
7.708                0.990169785     -19.4125479
7.71                 0.990161428     -19.4425457
7.712                0.990153108     -19.4725429
7.714                0.990143091     -19.5028468
7.716                0.990133056     -19.5331508
7.718                0.990123002     -19.5634548
7.72                 0.990112931     -19.5937588
7.722                0.990101026     -19.6243534
7.724                 0.99008908     -19.6549481
7.726                0.990077094     -19.6855429
7.728                0.990065069     -19.7161378
7.73                 0.990050981     -19.7470152
7.732                 0.99003687     -19.7778926
7.734                0.990022735     -19.8087698
7.736                0.990008577      -19.839647
7.738                0.989992186     -19.8707818
7.74                 0.989975803     -19.9019161
7.742                 0.98995943     -19.9330498
7.744                0.989943064     -19.9641831
7.746                0.989924345     -19.9955616
7.748                0.989905662     -20.0269388
7.75                 0.989887016     -20.0583148
7.752                0.989868407     -20.0896895
7.754                0.989847485     -20.1212905
7.756                0.989826606       -20.15289
7.758                 0.98980577     -20.1844879
7.76                 0.989784978     -20.2160841
7.762                0.989762019     -20.2478956
7.764                0.989739067     -20.2797061
7.766                0.989716124     -20.3115156
7.768                0.989693189     -20.3433242
7.77                 0.989668388     -20.3753332
7.772                0.989643533     -20.4073423
7.774                0.989618623     -20.4393514
7.776                0.989593657     -20.4713606
7.778                0.989567124     -20.5035624
7.78                 0.989540492     -20.5357647
7.782                0.989513762     -20.5679677
7.784                0.989486934     -20.6001712
7.786                0.989458753     -20.6325535
7.788                0.989430477     -20.6649362
7.79                 0.989402105     -20.6973193
7.792                0.989373637     -20.7297029
