! TOUCHSTONE file generated by CST DESIGN STUDIO
! Date and time: Mon Feb 10 16:52:31 2025
! Project name: C:\Work\MatlabApps\UnitCellType2OptimizationMatlab\CST\unitcell.cst
! Tree item: Tasks\Sweep1\SPara1\S-Parameters
! Header version: 2024
! Port assignment regex: !\s*Touchstone port\s*([0-9]+)\s*=\s*(CST MWS port|CST DES external port|CST DES block port)\s*(.+)\s* \(\"(.*)\"\)(\s*mode\s*([0-9]+))?.*
! Touchstone port assignment:
! Touchstone port 1 = CST DES external port 1 ("")
# GHz S MA R 50
7                    0.985334751     -5.37452684
7.002                0.985373559     -5.39952025
7.004                0.985411907     -5.42445526
7.006                0.985449799     -5.44933237
7.008                0.985487241     -5.47415214
7.01                 0.985535255     -5.49898646
7.012                0.985582719     -5.52377257
7.014                 0.98562964     -5.54851083
7.016                0.985676024     -5.57320165
7.018                0.985732636     -5.59800364
7.02                 0.985788591     -5.62275309
7.022                0.985843897     -5.64745044
7.024                0.985898562     -5.67209611
7.026                0.985962359     -5.69696153
7.028                0.986025756     -5.72176904
7.03                 0.986088757     -5.74651921
7.032                0.986151368      -5.7712126
7.034                0.986221682      -5.7962046
7.036                0.986291665     -5.82114511
7.038                 0.98636132     -5.84603456
7.04                  0.98643065     -5.87087345
7.042                0.986506846     -5.89606705
7.044                0.986582478     -5.92121101
7.046                0.986657552     -5.94630576
7.048                0.986732073     -5.97135174
7.05                 0.986812473     -5.99682502
7.052                0.986892373     -6.02224069
7.054                0.986971779     -6.04759932
7.056                0.987050697     -6.07290149
7.058                0.987133531     -6.09870063
7.06                 0.987216175     -6.12444178
7.062                0.987298629     -6.15012543
7.064                0.987380897     -6.17575212
7.066                0.987465077     -6.20189726
7.068                0.987549029     -6.22799124
7.07                 0.987632754     -6.25403445
7.072                0.987716256     -6.28002733
7.074                0.987800291     -6.30655101
7.076                0.987883926     -6.33302022
7.078                0.987967168     -6.35943543
7.08                 0.988050019     -6.38579711
7.082                0.988131775     -6.41269566
7.084                 0.98821333     -6.43953228
7.086                0.988294686     -6.46630759
7.088                0.988375845     -6.49302224
7.09                 0.988453796     -6.52025292
7.092                0.988531771     -6.54742607
7.094                0.988609771     -6.57454223
7.096                0.988687795     -6.60160196
7.098                0.988761211     -6.62912586
7.1                  0.988834542     -6.65659941
7.102                0.988907789     -6.68402295
7.104                0.988980953     -6.71139692
7.106                 0.98904871      -6.7391833
7.108                0.989116317     -6.76691746
7.11                 0.989183776     -6.79459982
7.112                0.989251088     -6.82223083
7.114                0.989311913     -6.85023236
7.116                0.989372769     -6.87818062
7.118                0.989433657     -6.90607607
7.12                 0.989494575     -6.93391916
7.122                0.989547856     -6.96207214
7.124                0.989601181     -6.99017749
7.126                0.989654552     -7.01823558
7.128                0.989707967      -7.0462468
7.13                 0.989753265     -7.07449382
7.132                0.989798431     -7.10269361
7.134                0.989843464     -7.13084653
7.136                0.989888367     -7.15895294
7.138                0.989924762     -7.18723064
7.14                 0.989961099     -7.21545588
7.142                 0.98999738     -7.24362908
7.144                0.990033605     -7.27175069
7.146                0.990060745     -7.29996333
7.148                0.990088043     -7.32812681
7.15                 0.990115497     -7.35624154
7.152                0.990143107     -7.38430796
7.154                0.990161479     -7.41236581
7.156                0.990179945     -7.44038369
7.158                0.990198505     -7.46836187
7.16                 0.990217156     -7.49630063
7.162                0.990227341      -7.5241394
7.164                0.990237462     -7.55194022
7.166                 0.99024752     -7.57970337
7.168                0.990257516     -7.60742911
7.17                 0.990259771     -7.63499239
7.172                0.990262036     -7.66251657
7.174                0.990264313     -7.69000194
7.176                0.990266601     -7.71744883
7.178                0.990261709     -7.74467149
7.18                  0.99025689     -7.77186011
7.182                0.990252145     -7.79901494
7.184                0.990247472      -7.8261362
7.186                0.990236557     -7.85297124
7.188                0.990225552     -7.87977694
7.19                 0.990214458     -7.90655351
7.192                0.990203276     -7.93330112
7.194                0.990187123     -7.95971591
7.196                 0.99017081     -7.98609967
7.198                0.990154337     -8.01245264
7.2                  0.990137705       -8.038775
7.202                0.990117055     -8.06472529
7.204                0.990096359     -8.09064572
7.206                0.990075619     -8.11653652
7.208                0.990054835     -8.14239794
7.21                 0.990031181     -8.16784898
7.212                0.990007454     -8.19327655
7.214                0.989983653     -8.21868084
7.216                0.989959779     -8.24406201
7.218                0.989934643     -8.26900703
7.22                 0.989909278     -8.29392993
7.222                0.989883687     -8.31883091
7.224                0.989857869     -8.34371011
7.226                0.989832405     -8.36815959
7.228                0.989806752     -8.39258363
7.23                 0.989780912     -8.41698244
7.232                0.989754885     -8.44135621
7.234                0.989730316     -8.46532246
7.236                0.989705675     -8.48926574
7.238                0.989680963     -8.51318624
7.24                 0.989656181     -8.53708405
7.242                0.989634005     -8.56059602
7.244                0.989611643     -8.58409139
7.246                0.989589095     -8.60757028
7.248                0.989566364     -8.63103279
7.25                 0.989547685     -8.65414172
7.252                0.989528657     -8.67723497
7.254                0.989509284     -8.70031268
7.256                0.989489566     -8.72337494
7.258                0.989474962     -8.74613103
7.26                 0.989460056     -8.76887049
7.262                0.989444847     -8.79159344
7.264                0.989429339         -8.8143
7.266                0.989419565     -8.83674678
7.268                0.989409547     -8.85917964
7.27                 0.989399287     -8.88159867
7.272                0.989388789     -8.90400396
7.274                0.989384677     -8.92620722
7.276                0.989380282     -8.94839673
7.278                0.989375605      -8.9705726
7.28                 0.989370649     -8.99273492
7.282                 0.98937263     -9.01477036
7.284                0.989374404     -9.03678735
7.286                0.989375973     -9.05878607
7.288                0.989377336     -9.08076666
7.29                 0.989385522      -9.1027062
7.292                0.989393665     -9.12462671
7.294                0.989401767     -9.14652833
7.296                0.989409828      -9.1684112
7.298                0.989424614     -9.19032167
7.3                  0.989439304     -9.21221826
7.302                0.989453898     -9.23410105
7.304                0.989468398     -9.25597014
7.306                0.989489719     -9.27793609
7.308                0.989510747     -9.29988976
7.31                 0.989531482     -9.32183121
7.312                0.989551929     -9.34376051
7.314                0.989578954     -9.36585195
7.316                0.989605681      -9.3879286
7.318                0.989632112     -9.40999055
7.32                 0.989658251     -9.43203789
7.322                0.989690144     -9.45430857
7.324                0.989721879     -9.47656493
7.326                0.989753455     -9.49880706
7.328                0.989784873     -9.52103506
7.33                 0.989821055     -9.54352809
7.332                0.989857148     -9.56600783
7.334                0.989893152     -9.58847438
7.336                0.989929069     -9.61092782
7.338                0.989968731     -9.63369149
7.34                  0.99000839     -9.65643875
7.342                0.990048045     -9.67916973
7.344                0.990087698      -9.7018846
7.346                 0.99012995     -9.72495319
7.348                0.990172343     -9.74800334
7.35                 0.990214877     -9.77103518
7.352                 0.99025755     -9.79404885
7.354                0.990301669     -9.81744767
7.356                0.990345896     -9.84083093
7.358                0.990390233     -9.86419868
7.36                 0.990434678     -9.88755105
7.362                0.990479867     -9.91130105
7.364                0.990524948     -9.93503659
7.366                0.990569923     -9.95875773
7.368                0.990614792     -9.98246457
7.37                 0.990659693     -10.0065783
7.372                0.990704415     -10.0306744
7.374                0.990748961     -10.0547529
7.376                0.990793332     -10.0788141
7.378                0.990836475     -10.1032788
7.38                 0.990879577     -10.1277254
7.382                0.990922641      -10.152154
7.384                0.990965666     -10.1765647
7.386                0.991006073     -10.2013522
7.388                0.991046552     -10.2261244
7.39                 0.991087104     -10.2508812
7.392                0.991127729     -10.2756229
7.394                0.991164688     -10.3007077
7.396                0.991201777     -10.3257771
7.398                0.991238995      -10.350831
7.4                  0.991276341     -10.3758697
7.402                 0.99130906     -10.4012201
7.404                0.991341999     -10.4265534
7.406                0.991375156     -10.4518697
7.408                0.991408532     -10.4771691
7.41                 0.991436607     -10.5027424
7.412                0.991464889     -10.5283003
7.414                0.991493379     -10.5538429
7.416                0.991522073     -10.5793702
7.418                  0.9915452      -10.605126
7.42                 0.991568331     -10.6308683
7.422                0.991591469     -10.6565971
7.424                0.991614611     -10.6823126
7.426                0.991632304     -10.7082063
7.428                0.991649861     -10.7340847
7.43                 0.991667283      -10.759948
7.432                0.991684572     -10.7857962
7.434                0.991696186     -10.8117767
7.436                0.991707735     -10.8377414
7.438                0.991719221     -10.8636905
7.44                 0.991730645      -10.889624
7.442                0.991736042     -10.9156238
7.444                0.991741478      -10.941611
7.446                0.991746953     -10.9675857
7.448                0.991752466     -10.9935479
7.45                 0.991751902      -11.019513
7.452                0.991751411      -11.045467
7.454                0.991750991     -11.0714098
7.456                0.991750643     -11.0973416
7.458                0.991744457     -11.1232218
7.46                 0.991738404     -11.1490894
7.462                0.991732483     -11.1749444
7.464                0.991726692     -11.2007869
7.466                0.991715446     -11.2265364
7.468                0.991704355     -11.2522743
7.47                  0.99169342     -11.2780005
7.472                 0.99168264     -11.3037153
7.474                0.991667195     -11.3292929
7.476                0.991651744     -11.3548623
7.478                0.991636287     -11.3804235
7.48                 0.991620824     -11.4059765
7.482                0.991601904     -11.4313551
7.484                0.991582772     -11.4567264
7.486                 0.99156343     -11.4820905
7.488                0.991543878     -11.5074473
7.49                 0.991521852     -11.5326031
7.492                0.991499586     -11.5577514
7.494                0.991477082     -11.5828923
7.496                 0.99145434     -11.6080257
7.498                0.991429866     -11.6329273
7.5                  0.991405229     -11.6578233
7.502                0.991380431     -11.6827136
7.504                0.991355471     -11.7075983
7.506                0.991329476     -11.7322354
7.508                0.991303374     -11.7568673
7.51                 0.991277167     -11.7814941
7.512                0.991250854     -11.8061158
7.514                0.991224307     -11.8304858
7.516                0.991197741      -11.854848
7.518                0.991171156     -11.8792025
7.52                 0.991144552     -11.9035492
7.522                0.991118474     -11.9276565
7.524                0.991092465     -11.9517553
7.526                0.991066523     -11.9758458
7.528                0.991040648     -11.9999279
7.53                 0.991016272     -12.0237876
7.532                0.990991864     -12.0476425
7.534                0.990967426     -12.0714928
7.536                0.990942956     -12.0953384
7.538                0.990921303     -12.1189821
7.54                  0.99089938     -12.1426241
7.542                0.990877189     -12.1662643
7.544                 0.99085473     -12.1899028
7.546                0.990836248     -12.2133743
7.548                0.990817388     -12.2368441
7.55                 0.990798151     -12.2603122
7.552                0.990778538     -12.2837787
7.554                0.990763498     -12.3071136
7.556                0.990748157     -12.3304472
7.558                0.990732517     -12.3537794
7.56                 0.990716579     -12.3771102
7.562                0.990705359     -12.4003507
7.564                0.990693974     -12.4235894
7.566                0.990682425     -12.4468265
7.568                0.990670712     -12.4700619
7.57                 0.990663635     -12.4932548
7.572                0.990656559     -12.5164429
7.574                0.990649483     -12.5396262
7.576                0.990642409     -12.5628047
7.578                0.990639773     -12.5860026
7.58                 0.990637294     -12.6091936
7.582                0.990634972     -12.6323777
7.584                0.990632805     -12.6555549
7.586                0.990635069     -12.6788026
7.588                 0.99063745     -12.7020458
7.59                 0.990639948     -12.7252847
7.592                0.990642561     -12.7485192
7.594                0.990649973      -12.771874
7.596                 0.99065725     -12.7952275
7.598                0.990664394     -12.8185797
7.6                  0.990671405     -12.8419307
7.602                0.990683536     -12.8654519
7.604                0.990695356     -12.8889718
7.606                0.990706865     -12.9124904
7.608                0.990718066     -12.9360076
7.61                 0.990734097     -12.9597416
7.612                 0.99074988     -12.9834737
7.614                0.990765416     -13.0072038
7.616                0.990780706      -13.030932
7.618                0.990799865      -13.054918
7.62                 0.990818973      -13.078902
7.622                0.990838029     -13.1028842
7.624                0.990857033     -13.1268644
7.626                 0.99087869     -13.1511345
7.628                0.990900514     -13.1754009
7.63                 0.990922505     -13.1996636
7.632                0.990944662     -13.2239227
7.634                0.990968214      -13.248501
7.636                0.990992112     -13.2730735
7.638                0.991016355     -13.2976402
7.64                 0.991040941     -13.3222012
7.642                0.991066072     -13.3471076
7.644                0.991091531     -13.3720092
7.646                0.991117318      -13.396906
7.648                0.991143431      -13.421798
7.65                  0.99116976     -13.4470449
7.652                0.991196153      -13.472289
7.654                0.991222609     -13.4975305
7.656                0.991249129     -13.5227692
7.658                0.991275797      -13.548375
7.66                 0.991302273     -13.5739776
7.662                0.991328558     -13.5995771
7.664                0.991354654     -13.6251733
7.666                0.991380423     -13.6511362
7.668                0.991405998     -13.6770949
7.67                 0.991431379     -13.7030493
7.672                0.991456567     -13.7289995
7.674                0.991480305      -13.755306
7.676                0.991504038     -13.7816089
7.678                0.991527766     -13.8079082
7.68                  0.99155149      -13.834204
7.682                0.991572374     -13.8608289
7.684                 0.99159348     -13.8874503
7.686                0.991614809     -13.9140682
7.688                0.991636359     -13.9406826
7.69                 0.991653907     -13.9676042
7.692                0.991671855      -13.994521
7.694                0.991690201     -14.0214329
7.696                0.991708946     -14.0483399
7.698                0.991722925      -14.075524
7.7                  0.991737308     -14.1027034
7.702                0.991752094     -14.1298781
7.704                0.991767282      -14.157048
7.706                0.991777715     -14.1844587
7.708                0.991788301     -14.2118665
7.71                  0.99179904     -14.2392714
7.712                0.991809931     -14.2666733
7.714                0.991816602       -14.29428
7.716                0.991823105     -14.3218841
7.718                0.991829441     -14.3494857
7.72                  0.99183561     -14.3770848
7.722                0.991837975     -14.4048495
7.724                0.991840061     -14.4326111
7.726                0.991841868     -14.4603696
7.728                0.991843397     -14.4881251
7.73                 0.991840899     -14.5160101
7.732                0.991838248     -14.5438927
7.734                0.991835446      -14.571773
7.736                0.991832492     -14.5996509
7.738                0.991825051     -14.6276055
7.74                 0.991817681     -14.6555581
7.742                0.991810382     -14.6835087
7.744                0.991803154     -14.7114573
7.746                 0.99179097     -14.7394433
7.748                0.991779064     -14.7674258
7.75                 0.991767435     -14.7954047
7.752                0.991756082     -14.8233801
7.754                0.991739776      -14.851354
7.756                0.991723816     -14.8793235
7.758                  0.9917082     -14.9072889
7.76                 0.991692928       -14.93525
7.762                0.991673395     -14.9631768
7.764                0.991654008     -14.9911015
7.766                0.991634768     -15.0190241
7.768                0.991615675     -15.0469446
7.77                 0.991593771     -15.0747998
7.772                0.991571647     -15.1026555
7.774                0.991549303     -15.1305116
7.776                 0.99152674     -15.1583681
7.778                0.991502845     -15.1861389
7.78                 0.991478488     -15.2139112
7.782                0.991453669      -15.241685
7.784                 0.99142839     -15.2694603
7.786                0.991402661     -15.2971316
7.788                0.991376506     -15.3248048
7.79                 0.991349926     -15.3524799
7.792                0.991322921     -15.3801569
