! TOUCHSTONE file generated by CST DESIGN STUDIO
! Date and time: Mon Feb 10 16:54:06 2025
! Project name: C:\Work\MatlabApps\UnitCellType2OptimizationMatlab\CST\unitcell.cst
! Tree item: Tasks\Sweep1\SPara1\S-Parameters
! Header version: 2024
! Port assignment regex: !\s*Touchstone port\s*([0-9]+)\s*=\s*(CST MWS port|CST DES external port|CST DES block port)\s*(.+)\s* \(\"(.*)\"\)(\s*mode\s*([0-9]+))?.*
! Touchstone port assignment:
! Touchstone port 1 = CST DES external port 1 ("")
# GHz S MA R 50
7                    0.993372004      -10.181656
7.002                0.993367291     -10.2012415
7.004                0.993362581      -10.220823
7.006                0.993357873     -10.2404003
7.008                0.993353167     -10.2599736
7.01                 0.993346029     -10.2795392
7.012                0.993338714     -10.2990986
7.014                0.993331226     -10.3186517
7.016                0.993323563     -10.3381985
7.018                0.993313587     -10.3577353
7.02                 0.993303604     -10.3772587
7.022                0.993293617     -10.3967687
7.024                0.993283625     -10.4162656
7.026                0.993271044     -10.4357418
7.028                0.993258598     -10.4552091
7.03                 0.993246287     -10.4746677
7.032                0.993234111     -10.4941176
7.034                0.993219688     -10.5135148
7.036                0.993205191     -10.5329097
7.038                0.993190618     -10.5523022
7.04                 0.993175972     -10.5716924
7.042                0.993159886     -10.5910165
7.044                0.993143606     -10.6103341
7.046                0.993127131     -10.6296456
7.048                0.993110462      -10.648951
7.05                 0.993092562     -10.6681938
7.052                0.993074659     -10.6874268
7.054                0.993056751     -10.7066501
7.056                0.993038838     -10.7258637
7.058                0.993019629     -10.7450092
7.06                 0.993000458     -10.7641508
7.062                0.992981326     -10.7832883
7.064                0.992962231     -10.8024219
7.066                0.992942292     -10.8214756
7.068                0.992922207     -10.8405274
7.07                 0.992901976     -10.8595774
7.072                  0.9928816     -10.8786255
7.074                0.992860831     -10.8975952
7.076                0.992839961     -10.9165571
7.078                0.992818992     -10.9355113
7.08                 0.992797925     -10.9544578
7.082                0.992776402     -10.9733304
7.084                0.992754947      -10.992196
7.086                 0.99273356     -11.0110546
7.088                0.992712241     -11.0299064
7.09                 0.992690682     -11.0486719
7.092                0.992669087     -11.0674364
7.094                0.992647455        -11.0862
7.096                0.992625787     -11.1049625
7.098                0.992604582     -11.1236347
7.1                  0.992583187      -11.142304
7.102                0.992561603     -11.1609707
7.104                0.992539831     -11.1796348
7.106                0.992518917     -11.1982255
7.108                 0.99249794     -11.2168086
7.11                   0.9924769      -11.235384
7.112                0.992455797     -11.2539518
7.114                0.992435495     -11.2724576
7.116                0.992415243      -11.290959
7.118                0.992395042     -11.3094561
7.12                 0.992374892     -11.3279489
7.122                0.992355812     -11.3463797
7.124                0.992336635     -11.3648109
7.126                0.992317361     -11.3832425
7.128                 0.99229799     -11.4016744
7.13                 0.992280164     -11.4200533
7.132                0.992262187      -11.438429
7.134                0.992244059     -11.4568015
7.136                0.992225782     -11.4751708
7.138                0.992209071     -11.4935059
7.14                  0.99219236     -11.5118358
7.142                0.992175648     -11.5301607
7.144                0.992158935     -11.5484806
7.146                0.992143743     -11.5667716
7.148                0.992128545     -11.5850621
7.15                 0.992113342      -11.603352
7.152                0.992098134     -11.6216415
7.154                 0.99208486     -11.6399043
7.156                0.992071443     -11.6581668
7.158                0.992057885     -11.6764288
7.16                 0.992044185     -11.6946906
7.162                0.992032724     -11.7129473
7.164                0.992021185     -11.7311984
7.166                0.992009568      -11.749444
7.168                0.991997872     -11.7676841
7.17                 0.991988281      -11.785945
7.172                0.991978759     -11.8042009
7.174                0.991969303     -11.8224518
7.176                0.991959914     -11.8406979
7.178                0.991952652     -11.8589739
7.18                 0.991945364     -11.8772503
7.182                0.991938051     -11.8955273
7.184                0.991930714     -11.9138047
7.186                0.991925801     -11.9321257
7.188                0.991920744     -11.9504462
7.19                 0.991915541     -11.9687661
7.192                0.991910194     -11.9870855
7.194                0.991907278     -12.0054698
7.196                0.991904318     -12.0238502
7.198                0.991901315     -12.0422269
7.2                   0.99189827     -12.0605999
7.202                0.991897352     -12.0790517
7.204                0.991896461     -12.0975026
7.206                0.991895598     -12.1159523
7.208                0.991894763     -12.1344011
7.21                 0.991896016     -12.1529381
7.212                0.991897205     -12.1714757
7.214                0.991898331     -12.1900139
7.216                0.991899394     -12.2085527
7.218                0.991902707     -12.2271931
7.22                 0.991905969     -12.2458299
7.222                 0.99190918      -12.264463
7.224                 0.99191234     -12.2830926
7.226                0.991917463     -12.3018494
7.228                0.991922676     -12.3206011
7.23                 0.991927978     -12.3393476
7.232                0.991933369     -12.3580889
7.234                0.991940475      -12.376971
7.236                0.991947633     -12.3958526
7.238                0.991954843     -12.4147336
7.24                 0.991962107     -12.4336141
7.242                0.991971206     -12.4526429
7.244                0.991980203     -12.4716721
7.246                0.991989099     -12.4907019
7.248                0.991997894     -12.5097321
7.25                 0.992008501      -12.528928
7.252                0.992019042     -12.5481208
7.254                0.992029518     -12.5673107
7.256                0.992039929     -12.5864976
7.258                0.992051696     -12.6058612
7.26                 0.992063507     -12.6252225
7.262                0.992075362     -12.6445818
7.264                0.992087262     -12.6639389
7.266                0.992100205     -12.6834748
7.268                0.992113159     -12.7030112
7.27                 0.992126122     -12.7225479
7.272                0.992139096     -12.7420851
7.274                0.992153006     -12.7618085
7.276                0.992166903     -12.7815298
7.278                0.992180786      -12.801249
7.28                 0.992194657     -12.8209661
7.282                0.992209197     -12.8408823
7.284                0.992223835     -12.8607936
7.286                0.992238569     -12.8807001
7.288                0.992253401     -12.9006017
7.29                 0.992268555     -12.9207084
7.292                0.992283815     -12.9408134
7.294                 0.99229918     -12.9609166
7.296                0.992314651      -12.981018
7.298                0.992330394     -13.0013277
7.3                  0.992346086     -13.0216378
7.302                0.992361727     -13.0419485
7.304                0.992377316     -13.0622597
7.306                0.992393211     -13.0827812
7.308                0.992409021     -13.1033003
7.31                 0.992424747     -13.1238169
7.312                0.992440388     -13.1443311
7.314                0.992455891     -13.1650632
7.316                0.992471421      -13.185792
7.318                0.992486978     -13.2065177
7.32                 0.992502563     -13.2272403
7.322                0.992517588     -13.2481734
7.324                0.992532659     -13.2691061
7.326                0.992547777     -13.2900384
7.328                0.992562942     -13.3109703
7.33                 0.992577364     -13.3321032
7.332                0.992591795      -13.353235
7.334                0.992606236     -13.3743656
7.336                0.992620686     -13.3954951
7.338                0.992634196     -13.4168278
7.34                 0.992647786     -13.4381564
7.342                0.992661454     -13.4594808
7.344                0.992675201     -13.4808012
7.346                0.992687704     -13.5023232
7.348                0.992700327     -13.5238424
7.35                  0.99271307     -13.5453589
7.352                0.992725933     -13.5668727
7.354                 0.99273752     -13.5885815
7.356                0.992749095     -13.6102905
7.358                0.992760656     -13.6319996
7.36                 0.992772205     -13.6537089
7.362                0.992782626     -13.6756052
7.364                0.992792944     -13.6974999
7.366                 0.99280316     -13.7193929
7.368                0.992813274     -13.7412842
7.37                  0.99282204     -13.7633639
7.372                0.992830788       -13.78544
7.374                0.992839517     -13.8075127
7.376                0.992848229     -13.8295819
7.378                0.992855185     -13.8518278
7.38                 0.992862182     -13.8740725
7.382                0.992869221     -13.8963158
7.384                  0.9928763     -13.9185579
7.386                 0.99288147     -13.9409575
7.388                 0.99288665     -13.9633565
7.39                  0.99289184     -13.9857549
7.392                0.992897041     -14.0081528
7.394                0.992900296     -14.0307008
7.396                0.992903595     -14.0532456
7.398                0.992906938     -14.0757873
7.4                  0.992910324     -14.0983257
7.402                  0.9929116     -14.1210087
7.404                0.992912981     -14.1436885
7.406                0.992914466      -14.166365
7.408                0.992916055     -14.1890383
7.41                 0.992915558     -14.2118441
7.412                0.992915074     -14.2346497
7.414                0.992914604     -14.2574551
7.416                0.992914146     -14.2802602
7.418                0.992911917     -14.3031855
7.42                 0.992909575     -14.3261103
7.422                0.992907121     -14.3490346
7.424                0.992904555     -14.3719583
7.426                0.992900276     -14.3949974
7.428                 0.99289592     -14.4180338
7.43                 0.992891488     -14.4410675
7.432                0.992886979     -14.4640985
7.434                0.992880551     -14.4872348
7.436                0.992874126     -14.5103695
7.438                0.992867705     -14.5335027
7.44                 0.992861288     -14.5566345
7.442                0.992852859      -14.579856
7.444                0.992844425     -14.6030775
7.446                0.992835987     -14.6262988
7.448                0.992827544     -14.6495201
7.45                 0.992817178     -14.6728164
7.452                0.992806819     -14.6961107
7.454                0.992796465     -14.7194028
7.456                0.992786116     -14.7426928
7.458                0.992773871     -14.7660522
7.46                 0.992761699     -14.7894082
7.462                  0.9927496     -14.8127609
7.464                0.992737574     -14.8361102
7.466                0.992723797     -14.8595223
7.468                 0.99271005     -14.8829337
7.47                 0.992696333     -14.9063445
7.472                0.992682646     -14.9297545
7.474                0.992667612     -14.9532157
7.476                0.992652468     -14.9766776
7.478                0.992637216     -15.0001401
7.48                 0.992621857     -15.0236033
7.482                0.992605504     -15.0471153
7.484                0.992589022     -15.0706264
7.486                0.992572411     -15.0941364
7.488                0.992555671     -15.1176453
7.49                 0.992537919     -15.1412007
7.492                0.992520116     -15.1647552
7.494                0.992502262     -15.1883088
7.496                0.992484358     -15.2118615
7.498                0.992465439     -15.2354494
7.5                  0.992446492     -15.2590379
7.502                0.992427516     -15.2826268
7.504                 0.99240851     -15.3062162
7.506                0.992388603     -15.3298367
7.508                0.992368672     -15.3534562
7.51                 0.992348718     -15.3770746
7.512                 0.99232874     -15.4006921
7.514                0.992307983     -15.4243417
7.516                0.992287271     -15.4479881
7.518                0.992266604     -15.4716314
7.52                 0.992245982     -15.4952716
7.522                0.992224731     -15.5189426
7.524                0.992203526     -15.5426123
7.526                0.992182369     -15.5662806
7.528                0.992161258     -15.5899476
7.53                 0.992139927     -15.6136422
7.532                0.992118511     -15.6373381
7.534                0.992097011     -15.6610353
7.536                0.992075425     -15.6847338
7.538                0.992054114     -15.7084594
7.54                 0.992032643     -15.7321857
7.542                 0.99201101     -15.7559127
7.544                0.991989216     -15.7796404
7.546                0.991967864     -15.8034062
7.548                0.991946408     -15.8271722
7.55                 0.991924847     -15.8509382
7.552                0.991903182     -15.8747044
7.554                0.991881917     -15.8985078
7.556                0.991860599     -15.9223122
7.558                0.991839229     -15.9461177
7.56                 0.991817806     -15.9699242
7.562                0.991796845     -15.9937716
7.564                0.991775852     -16.0176188
7.566                0.991754826      -16.041466
7.568                0.991733768     -16.0653131
7.57                 0.991713255     -16.0892071
7.572                 0.99169278     -16.1130982
7.574                0.991672342     -16.1369865
7.576                0.991651941     -16.1608719
7.578                0.991632114     -16.1848204
7.58                 0.991612363     -16.2087666
7.582                0.991592688     -16.2327105
7.584                0.991573087     -16.2566523
7.586                0.991554391     -16.2806591
7.588                0.991535659     -16.3046669
7.59                 0.991516892     -16.3286758
7.592                0.991498089     -16.3526856
7.594                0.991480666     -16.3767667
7.596                0.991463085     -16.4008495
7.598                0.991445347      -16.424934
7.6                  0.991427451     -16.4490203
7.602                0.991411144     -16.4731927
7.604                0.991394698      -16.497366
7.606                0.991378113     -16.5215402
7.608                0.991361389     -16.5457154
7.61                 0.991346147     -16.5699879
7.612                0.991330839     -16.5942616
7.614                0.991315467     -16.6185366
7.616                 0.99130003     -16.6428128
7.618                 0.99128593     -16.6671953
7.62                 0.991271813     -16.6915783
7.622                 0.99125768     -16.7159617
7.624                 0.99124353     -16.7403455
7.626                0.991230599     -16.7648512
7.628                0.991217728     -16.7893543
7.63                 0.991204915      -16.813855
7.632                0.991192161     -16.8383532
7.634                  0.9911805     -16.8629854
7.636                0.991168961     -16.8876145
7.638                0.991157544     -16.9122404
7.64                 0.991146251     -16.9368632
7.642                0.991136188     -16.9616322
7.644                0.991126164     -16.9864012
7.646                0.991116179     -17.0111702
7.648                0.991106233     -17.0359391
7.65                 0.991097885     -17.0608601
7.652                 0.99108942      -17.085783
7.654                0.991080839     -17.1107078
7.656                0.991072139     -17.1356344
7.658                0.991065267     -17.1607299
7.66                 0.991058244     -17.1858266
7.662                0.991051073     -17.2109246
7.664                0.991043751     -17.2360237
7.666                0.991038103     -17.2613057
7.668                0.991032384     -17.2865886
7.67                 0.991026594     -17.3118726
7.672                0.991020733     -17.3371577
7.674                0.991016179     -17.3626365
7.676                0.991011636     -17.3881158
7.678                0.991007103     -17.4135957
7.68                  0.99100258     -17.4390761
7.682                0.990999023     -17.4647617
7.684                0.990995565     -17.4904453
7.686                0.990992204     -17.5161268
7.688                0.990988942     -17.5418062
7.69                 0.990986316     -17.5677067
7.692                0.990983868     -17.5936035
7.694                0.990981597     -17.6194966
7.696                0.990979504     -17.6453861
7.698                0.990977977     -17.6715071
7.7                   0.99097657     -17.6976268
7.702                0.990975284     -17.7237451
7.704                0.990974119     -17.7498619
7.706                 0.99097377     -17.7762117
7.708                0.990973364     -17.8025627
7.71                 0.990972902     -17.8289149
7.712                0.990972383     -17.8552685
7.714                0.990972942     -17.8818639
7.716                0.990973352     -17.9084605
7.718                0.990973614     -17.9350583
7.72                 0.990973726     -17.9616572
7.722                0.990974767     -17.9885086
7.724                0.990975718     -18.0153605
7.726                0.990976579     -18.0422131
7.728                0.990977351     -18.0690664
7.73                 0.990978569     -18.0961782
7.732                0.990979806     -18.1232903
7.734                 0.99098106     -18.1504028
7.736                0.990982333     -18.1775155
7.738                0.990983547     -18.2048943
7.74                 0.990984887     -18.2322715
7.742                0.990986353     -18.2596469
7.744                0.990987945     -18.2870206
7.746                0.990989031     -18.3146655
7.748                0.990990335     -18.3423067
7.75                 0.990991858      -18.369944
7.752                  0.9909936     -18.3975776
7.754                0.990994627     -18.4254849
7.756                0.990995842     -18.4533896
7.758                0.990997244     -18.4812918
7.76                 0.990998833     -18.5091914
7.762                 0.99099994     -18.5373649
7.764                0.991001048     -18.5655388
7.766                0.991002159      -18.593713
7.768                0.991003271     -18.6218875
7.77                 0.991004269     -18.6503367
7.772                0.991005117     -18.6787869
7.774                0.991005814     -18.7072381
7.776                 0.99100636     -18.7356903
7.778                0.991006769     -18.7644159
7.78                 0.991007042      -18.793142
7.782                 0.99100718     -18.8218685
7.784                0.991007182     -18.8505954
7.786                0.991006639      -18.879603
7.788                 0.99100608     -18.9086106
7.79                 0.991005503     -18.9376183
7.792                0.991004909      -18.966626
