! TOUCHSTONE file generated by CST DESIGN STUDIO
! Date and time: Mon Feb 10 16:54:09 2025
! Project name: C:\Work\MatlabApps\UnitCellType2OptimizationMatlab\CST\unitcell.cst
! Tree item: Tasks\Sweep1\SPara1\S-Parameters
! Header version: 2024
! Port assignment regex: !\s*Touchstone port\s*([0-9]+)\s*=\s*(CST MWS port|CST DES external port|CST DES block port)\s*(.+)\s* \(\"(.*)\"\)(\s*mode\s*([0-9]+))?.*
! Touchstone port assignment:
! Touchstone port 1 = CST DES external port 1 ("")
# GHz S MA R 50
7                    0.991616653     -8.04613199
7.002                 0.99161777     -8.06900236
7.004                0.991618902     -8.09185297
7.006                0.991620047     -8.11468392
7.008                0.991621206     -8.13749534
7.01                 0.991619303     -8.16022879
7.012                0.991616948     -8.18293554
7.014                0.991614147      -8.2056157
7.016                0.991610904     -8.22826938
7.018                0.991604772     -8.25086287
7.02                 0.991598663     -8.27341238
7.022                0.991592578     -8.29591838
7.024                0.991586521     -8.31838135
7.026                0.991576612     -8.34077254
7.028                0.991567092     -8.36313337
7.03                 0.991557959     -8.38546422
7.032                0.991549211     -8.40776544
7.034                0.991537278     -8.42993325
7.036                0.991525167     -8.45208638
7.038                0.991512879     -8.47422494
7.04                 0.991500415     -8.49634902
7.042                0.991486526     -8.51832273
7.044                0.991472155     -8.54027051
7.046                0.991457307     -8.56219273
7.048                0.991441984      -8.5840898
7.05                 0.991425375     -8.60585652
7.052                0.991408799        -8.62759
7.054                0.991392254     -8.64929051
7.056                0.991375738     -8.67095831
7.058                0.991357462     -8.69248454
7.06                 0.991339317      -8.7139933
7.062                0.991321301     -8.73548467
7.064                0.991303413     -8.75695876
7.066                0.991284686     -8.77826413
7.068                0.991265608     -8.79955618
7.07                 0.991246179     -8.82083496
7.072                0.991226403     -8.84210052
7.074                 0.99120665     -8.86321287
7.076                0.991186681     -8.88429704
7.078                  0.9911665     -8.90535326
7.08                 0.991146108     -8.92638175
7.082                0.991125246     -8.94727291
7.084                0.991104601     -8.96813945
7.086                0.991084173     -8.98898168
7.088                0.991063961     -9.00979988
7.09                 0.991043463     -9.03045386
7.092                0.991022898     -9.05109806
7.094                0.991002268     -9.07173256
7.096                0.990981572      -9.0923574
7.098                 0.99096203     -9.11280972
7.1                  0.990942034     -9.13324651
7.102                0.990921586     -9.15366804
7.104                0.990900688     -9.17407457
7.106                 0.99088149      -9.1943454
7.108                0.990862175     -9.21458928
7.11                 0.990842743     -9.23480646
7.112                0.990823192     -9.25499721
7.114                0.990804838     -9.27507048
7.116                0.990786647     -9.29512654
7.118                0.990768617     -9.31516548
7.12                 0.990750746     -9.33518736
7.122                0.990734535     -9.35508052
7.124                0.990718096     -9.37496725
7.126                0.990701428     -9.39484757
7.128                0.990684535     -9.41472149
7.13                 0.990670293     -9.43448246
7.132                0.990655694     -9.45422758
7.134                0.990640741     -9.47395693
7.136                0.990625435     -9.49367058
7.138                0.990612608     -9.51330734
7.14                 0.990599805     -9.53292487
7.142                0.990587025     -9.55252341
7.144                 0.99057427     -9.57210318
7.146                0.990563658     -9.59160856
7.148                0.990553043      -9.6111063
7.15                 0.990542424     -9.63059647
7.152                0.990531803     -9.65007912
7.154                0.990524112     -9.66948577
7.156                 0.99051607     -9.68888398
7.158                 0.99050768     -9.70827388
7.16                 0.990498943     -9.72765558
7.162                0.990493648     -9.74700069
7.164                0.990488172     -9.76632506
7.166                0.990482516      -9.7856289
7.168                0.990476681     -9.80491245
7.17                 0.990473712     -9.82419842
7.172                 0.99047092     -9.84346679
7.174                0.990468301     -9.86271762
7.176                0.990465855     -9.88195099
7.178                0.990466233     -9.90118954
7.18                 0.990466536     -9.92042316
7.182                0.990466765     -9.93965188
7.184                 0.99046692     -9.95887572
7.186                0.990470683      -9.9781191
7.188                0.990474071     -9.99735404
7.19                 0.990477088     -10.0165805
7.192                0.990479734     -10.0357986
7.194                0.990485992     -10.0550741
7.196                0.990492129     -10.0743341
7.198                0.990498148     -10.0935788
7.2                  0.990504051     -10.1128084
7.202                0.990512837     -10.1321127
7.204                0.990521665      -10.151409
7.206                0.990530534     -10.1706973
7.208                0.990539446     -10.1899777
7.21                 0.990551226     -10.2093369
7.212                0.990562816     -10.2286913
7.214                0.990574218      -10.248041
7.216                0.990585431     -10.2673859
7.218                0.990599814     -10.2868341
7.22                 0.990614043     -10.3062673
7.222                0.990628121     -10.3256856
7.224                0.990642048     -10.3450893
7.226                 0.99065848     -10.3646354
7.228                0.990675101     -10.3841642
7.23                 0.990691911     -10.4036759
7.232                0.990708909     -10.4231705
7.234                0.990727921     -10.4428173
7.236                0.990747016     -10.4624578
7.238                0.990766193      -10.482092
7.24                 0.990785451       -10.50172
7.242                0.990807223     -10.5215031
7.244                0.990828697      -10.541281
7.246                0.990849876     -10.5610536
7.248                0.990870762     -10.5808211
7.25                 0.990894305     -10.6007719
7.252                0.990917644     -10.6207094
7.254                 0.99094078     -10.6406338
7.256                0.990963717     -10.6605451
7.258                0.990988449     -10.6806564
7.26                 0.991013236     -10.7007577
7.262                0.991038078      -10.720849
7.264                0.991062978     -10.7409305
7.266                0.991089127     -10.7612065
7.268                0.991115241     -10.7814783
7.27                 0.991141322      -10.801746
7.272                0.991167368     -10.8220097
7.274                0.991194603     -10.8424756
7.276                0.991221755     -10.8629312
7.278                0.991248824     -10.8833765
7.28                  0.99127581     -10.9038116
7.282                0.991303464     -10.9244718
7.284                0.991331305     -10.9451162
7.286                0.991359331      -10.965745
7.288                0.991387542     -10.9863583
7.29                 0.991415778     -11.0072007
7.292                0.991444212     -11.0280349
7.294                0.991472843     -11.0488608
7.296                 0.99150167     -11.0696787
7.298                0.991530723     -11.0907198
7.3                  0.991559596     -11.1117567
7.302                0.991588289     -11.1327894
7.304                0.991616805      -11.153818
7.306                0.991645892     -11.1750769
7.308                 0.99167473     -11.1963245
7.31                 0.991703322     -11.2175607
7.312                0.991731669     -11.2387855
7.314                 0.99175986      -11.260253
7.316                0.991788071     -11.2817084
7.318                0.991816302      -11.303152
7.32                 0.991844555     -11.3245838
7.322                0.991871898      -11.346243
7.324                0.991899302      -11.367897
7.326                0.991926766     -11.3895458
7.328                0.991954289     -11.4111894
7.33                 0.991980682     -11.4330433
7.332                0.992007053       -11.45489
7.334                0.992033402     -11.4767297
7.336                 0.99205973     -11.4985624
7.338                0.992084604     -11.5206111
7.34                 0.992109632     -11.5426465
7.342                0.992134811     -11.5646686
7.344                0.992160142     -11.5866777
7.346                0.992183447     -11.6088989
7.348                0.992206999     -11.6311107
7.35                 0.992230798      -11.653313
7.352                0.992254842     -11.6755058
7.354                0.992276998     -11.6978952
7.356                0.992299087     -11.7202806
7.358                 0.99232111     -11.7426621
7.36                 0.992343068     -11.7650396
7.362                0.992363684     -11.7876047
7.364                0.992384036     -11.8101608
7.366                0.992404124     -11.8327081
7.368                0.992423951     -11.8552466
7.37                 0.992442153     -11.8779781
7.372                0.992460294     -11.9006974
7.374                0.992478377     -11.9234046
7.376                0.992496401     -11.9460999
7.378                0.992512052     -11.9689701
7.38                 0.992527779     -11.9918338
7.382                0.992543582     -12.0146912
7.384                0.992559462     -12.0375423
7.386                0.992572725     -12.0605383
7.388                0.992585997     -12.0835294
7.39                 0.992599277     -12.1065157
7.392                0.992612567      -12.129497
7.394                0.992623177     -12.1526149
7.396                0.992633885     -12.1757223
7.398                0.992644689     -12.1988193
7.4                  0.992655589     -12.2219059
7.402                0.992663452     -12.2451224
7.404                0.992671555     -12.2683291
7.406                0.992679896     -12.2915259
7.408                0.992688474     -12.3147129
7.41                 0.992694119      -12.338009
7.412                 0.99269979     -12.3613013
7.414                0.992705488     -12.3845899
7.416                0.992711213     -12.4078748
7.418                0.992714754     -12.4312517
7.42                 0.992718041     -12.4546232
7.422                0.992721075     -12.4779893
7.424                0.992723856     -12.5013498
7.426                0.992724665     -12.5248009
7.428                0.992725313      -12.548242
7.43                 0.992725799     -12.5716732
7.432                0.992726126     -12.5950946
7.434                0.992724041     -12.6185935
7.436                0.992721977     -12.6420859
7.438                0.992719935     -12.6655721
7.44                 0.992717914      -12.689052
7.442                0.992713258     -12.7125837
7.444                0.992708605     -12.7361122
7.446                0.992703953     -12.7596376
7.448                0.992699303       -12.78316
7.45                 0.992692125     -12.8067164
7.452                0.992684981     -12.8302653
7.454                0.992677872     -12.8538067
7.456                0.992670797     -12.8773407
7.458                 0.99266109     -12.9009038
7.46                 0.992651577     -12.9244574
7.462                0.992642257     -12.9480016
7.464                 0.99263313     -12.9715363
7.466                0.992621538     -12.9950877
7.468                0.992610039     -13.0186351
7.47                 0.992598632     -13.0421788
7.472                0.992587317     -13.0657185
7.474                0.992574351     -13.0892569
7.476                0.992561165     -13.1127931
7.478                 0.99254776     -13.1363274
7.48                 0.992534136     -13.1598595
7.482                0.992519556     -13.1833899
7.484                0.992504716     -13.2069143
7.486                0.992489618     -13.2304327
7.488                0.992474262     -13.2539452
7.49                 0.992457848     -13.2774543
7.492                0.992441352     -13.3009584
7.494                0.992424774     -13.3244578
7.496                0.992408116     -13.3479523
7.498                0.992390253     -13.3714269
7.5                  0.992372355        -13.3949
7.502                0.992354422     -13.4183716
7.504                0.992336454     -13.4418419
7.506                0.992317381     -13.4652857
7.508                0.992298291     -13.4887249
7.51                 0.992279184     -13.5121593
7.512                0.992260061     -13.5355891
7.514                0.992239863     -13.5589972
7.516                0.992219808     -13.5823965
7.518                0.992199896     -13.6057873
7.52                 0.992180125     -13.6291693
7.522                0.992159371     -13.6525272
7.524                0.992138759     -13.6758806
7.526                0.992118289     -13.6992293
7.528                 0.99209796     -13.7225735
7.53                 0.992077388     -13.7458842
7.532                0.992056659     -13.7691951
7.534                0.992035773      -13.792506
7.536                 0.99201473      -13.815817
7.538                0.991994389     -13.8390947
7.54                 0.991973725     -13.8623705
7.542                0.991952737     -13.8856443
7.544                0.991931428     -13.9089162
7.546                0.991911065     -13.9321694
7.548                0.991890505     -13.9554199
7.55                 0.991869748     -13.9786677
7.552                0.991848795     -14.0019129
7.554                0.991828592     -14.0251379
7.556                0.991808302     -14.0483628
7.558                0.991787927     -14.0715877
7.56                 0.991767467     -14.0948126
7.562                0.991747726     -14.1180209
7.564                0.991727946     -14.1412268
7.566                0.991708126     -14.1644305
7.568                0.991688266      -14.187632
7.57                 0.991669085     -14.2108291
7.572                0.991650023     -14.2340187
7.574                 0.99163108     -14.2572008
7.576                0.991612254     -14.2803754
7.578                0.991593996     -14.3035645
7.58                 0.991575936     -14.3267477
7.582                0.991558074     -14.3499253
7.584                0.991540408     -14.3730971
7.586                0.991523852      -14.396282
7.588                0.991507239     -14.4194672
7.59                  0.99149057     -14.4426528
7.592                0.991473844     -14.4658388
7.594                 0.99145919     -14.4890432
7.596                0.991444208     -14.5122486
7.598                  0.9914289     -14.5354547
7.6                  0.991413265     -14.5586618
7.602                0.991400124     -14.5819074
7.604                0.991386696     -14.6051524
7.606                0.991372981     -14.6283965
7.608                0.991358981     -14.6516399
7.61                 0.991347219     -14.6749356
7.612                0.991335326     -14.6982321
7.614                0.991323303     -14.7215294
7.616                 0.99131115     -14.7448274
7.618                0.991300886     -14.7681883
7.62                 0.991290596     -14.7915487
7.622                0.991280279     -14.8149088
7.624                0.991269937     -14.8382684
7.626                0.991261144     -14.8617124
7.628                0.991252492     -14.8851505
7.63                 0.991243982     -14.9085827
7.632                0.991235612      -14.932009
7.634                0.991228435     -14.9555379
7.636                0.991221534     -14.9790602
7.638                0.991214909     -15.0025759
7.64                 0.991208559      -15.026085
7.642                0.991203617     -15.0497068
7.644                0.991198757     -15.0733278
7.646                0.991193979     -15.0969481
7.648                0.991189282     -15.1205677
7.65                 0.991186818     -15.1443038
7.652                0.991184091     -15.1680418
7.654                0.991181101     -15.1917817
7.656                0.991177847     -15.2155235
7.658                0.991177399     -15.2394028
7.66                 0.991176616     -15.2632824
7.662                0.991175498     -15.2871623
7.664                0.991174046     -15.3110424
7.666                0.991175149     -15.3350773
7.668                0.991176082     -15.3591129
7.67                 0.991176846     -15.3831492
7.672                0.991177441     -15.4071862
7.674                0.991179928     -15.4313909
7.676                0.991182417      -15.455596
7.678                0.991184908     -15.4798016
7.68                 0.991187402     -15.5040078
7.682                0.991191111     -15.5283968
7.684                0.991195015     -15.5527816
7.686                0.991199113     -15.5771624
7.688                0.991203406      -15.601539
7.69                 0.991208269     -15.6261201
7.692                0.991213497     -15.6506945
7.694                0.991219091     -15.6752623
7.696                0.991225049     -15.6998233
7.698                0.991231452     -15.7245984
7.7                   0.99123809     -15.7493712
7.702                0.991244961     -15.7741416
7.704                0.991252065     -15.7989098
7.706                 0.99126028     -15.8238899
7.708                 0.99126834     -15.8488716
7.71                 0.991276247      -15.873855
7.712                0.991284001     -15.8988399
7.714                0.991293571     -15.9240477
7.716                0.991302791     -15.9492561
7.718                0.991311661     -15.9744651
7.72                 0.991320181     -15.9996747
7.722                0.991330375     -16.0251202
7.724                0.991340345     -16.0505659
7.726                 0.99135009     -16.0760117
7.728                0.991359611     -16.1014576
7.73                 0.991369996     -16.1271456
7.732                0.991380385     -16.1528341
7.734                0.991390776     -16.1785232
7.736                0.991401169     -16.2042128
7.738                0.991411496     -16.2301527
7.74                 0.991422059     -16.2560901
7.742                0.991432858     -16.2820249
7.744                0.991443894     -16.3079572
7.746                0.991454013     -16.3341475
7.748                 0.99146457     -16.3603318
7.75                 0.991475564     -16.3865103
7.752                0.991486993     -16.4126828
7.754                0.991497158      -16.439115
7.756                 0.99150769     -16.4655437
7.758                0.991518589     -16.4919688
7.76                 0.991529854     -16.5183903
7.762                 0.99154044     -16.5450672
7.764                0.991550995     -16.5717448
7.766                 0.99156152     -16.5984231
7.768                0.991572015      -16.625102
7.77                 0.991582744     -16.6520352
7.772                0.991593122     -16.6789692
7.774                 0.99160315     -16.7059039
7.776                0.991612827     -16.7328393
7.778                  0.9916229       -16.76003
7.78                 0.991632656     -16.7872205
7.782                0.991642098     -16.8144107
7.784                0.991651226     -16.8416007
7.786                0.991660062     -16.8690515
7.788                0.991668834     -16.8965026
7.79                 0.991677543     -16.9239539
7.792                0.991686187     -16.9514054
