! TOUCHSTONE file generated by CST DESIGN STUDIO
! Date and time: Mon Feb 10 16:54:08 2025
! Project name: C:\Work\MatlabApps\UnitCellType2OptimizationMatlab\CST\unitcell.cst
! Tree item: Tasks\Sweep1\SPara1\S-Parameters
! Header version: 2024
! Port assignment regex: !\s*Touchstone port\s*([0-9]+)\s*=\s*(CST MWS port|CST DES external port|CST DES block port)\s*(.+)\s* \(\"(.*)\"\)(\s*mode\s*([0-9]+))?.*
! Touchstone port assignment:
! Touchstone port 1 = CST DES external port 1 ("")
# GHz S MA R 50
7                    0.992601706     -9.18967025
7.002                0.992599315     -9.21047754
7.004                0.992596934     -9.23127539
7.006                0.992594562     -9.25206383
7.008                0.992592198     -9.27284291
7.01                 0.992587064     -9.29358391
7.012                0.992581644     -9.31431134
7.014                0.992575942     -9.33502524
7.016                0.992569957     -9.35572564
7.018                0.992561347     -9.37639317
7.02                 0.992552744      -9.3970358
7.022                0.992544148     -9.41765377
7.024                0.992535563     -9.43824733
7.026                0.992523801     -9.45879643
7.028                0.992512278     -9.47932879
7.03                 0.992500994     -9.49984463
7.032                0.992489949     -9.52034412
7.034                0.992476206     -9.54075447
7.036                0.992462348     -9.56115832
7.038                0.992448375     -9.58155571
7.04                 0.992434289      -9.6019467
7.042                0.992418709     -9.62223303
7.044                0.992402818     -9.64250589
7.046                0.992386618     -9.66276551
7.048                0.992370111      -9.6830121
7.05                   0.9923523     -9.70316396
7.052                0.992334502     -9.72329725
7.054                0.992316715      -9.7434121
7.056                0.992298938     -9.76350863
7.058                0.992279633     -9.78350236
7.06                 0.992260406     -9.80348736
7.062                0.992241256     -9.82346366
7.064                0.992222182     -9.84343131
7.066                0.992202232     -9.86327775
7.068                0.992182053     -9.88311842
7.07                 0.992161646     -9.90295335
7.072                0.992141013     -9.92278252
7.074                0.992120131     -9.94249754
7.076                0.992099102     -9.96219715
7.078                0.992077929     -9.98188145
7.08                 0.992056613     -10.0015506
7.082                0.992034816     -10.0211146
7.084                 0.99201315      -10.040665
7.086                0.991991615      -10.060202
7.088                0.991970211     -10.0797258
7.09                 0.991948536     -10.0991259
7.092                0.991926815     -10.1185222
7.094                0.991905047     -10.1379145
7.096                0.991883232     -10.1573031
7.098                0.991862164     -10.1765618
7.1                  0.991840798     -10.1958132
7.102                0.991819137     -10.2150575
7.104                 0.99179718     -10.2342947
7.106                0.991776439     -10.2534274
7.108                0.991755614     -10.2725451
7.11                 0.991734704     -10.2916479
7.112                 0.99171371     -10.3107361
7.114                0.991693698      -10.329734
7.116                0.991673786     -10.3487229
7.118                0.991653972     -10.3677028
7.12                 0.991634255     -10.3866737
7.122                0.991615879     -10.4055499
7.124                0.991597352     -10.4244244
7.126                0.991578676     -10.4432971
7.128                0.991559852      -10.462168
7.13                 0.991543064     -10.4809561
7.132                0.991526041     -10.4997365
7.134                0.991508785     -10.5185091
7.136                0.991491296      -10.537274
7.138                0.991475791     -10.5559823
7.14                 0.991460297     -10.5746802
7.142                0.991444814     -10.5933679
7.144                0.991429343     -10.6120454
7.146                0.991415694     -10.6306708
7.148                0.991402042     -10.6492933
7.15                 0.991388387     -10.6679129
7.152                0.991374731     -10.6865298
7.154                0.991363471     -10.7050952
7.156                0.991351984     -10.7236575
7.158                0.991340271     -10.7422168
7.16                 0.991328333     -10.7607731
7.162                0.991319188     -10.7793072
7.164                0.991309925       -10.79783
7.166                0.991300543     -10.8163416
7.168                0.991291042     -10.8348422
7.17                 0.991284023     -10.8533523
7.172                 0.99127712     -10.8718527
7.174                 0.99127033     -10.8903435
7.176                0.991263655     -10.9088247
7.178                0.991259459     -10.9273223
7.18                 0.991255219     -10.9458188
7.182                0.991250937      -10.964314
7.184                0.991246612     -10.9828081
7.186                0.991245271      -11.001333
7.188                0.991243692     -11.0198546
7.19                 0.991241874     -11.0383731
7.192                 0.99123982     -11.0568883
7.194                0.991240756     -11.0754629
7.196                0.991241618     -11.0940294
7.198                0.991242408     -11.1125879
7.2                  0.991243127     -11.1311384
7.202                0.991246354     -11.1497642
7.204                0.991249617     -11.1683866
7.206                0.991252916     -11.1870056
7.208                0.991256252     -11.2056213
7.21                 0.991262066     -11.2243196
7.212                0.991267766     -11.2430168
7.214                0.991273352     -11.2617129
7.216                0.991278825      -11.280408
7.218                0.991286997     -11.2992041
7.22                 0.991295079     -11.3179923
7.222                0.991303069     -11.3367728
7.224                0.991310968     -11.3555455
7.226                 0.99132112     -11.3744511
7.228                0.991331407     -11.3933468
7.23                 0.991341828     -11.4122329
7.232                0.991352383     -11.4311093
7.234                0.991364837     -11.4501308
7.236                 0.99137736     -11.4691499
7.238                0.991389951     -11.4881665
7.24                  0.99140261     -11.5071808
7.242                0.991417447     -11.5263461
7.244                0.991432102       -11.54551
7.246                0.991446577     -11.5646726
7.248                0.991460871     -11.5838338
7.25                 0.991477389     -11.6031683
7.252                0.991493784      -11.622496
7.254                0.991510058     -11.6418169
7.256                0.991526212     -11.6611312
7.258                0.991543956     -11.6806325
7.26                 0.991561751     -11.7001288
7.262                0.991579598     -11.7196201
7.264                0.991597497     -11.7391066
7.266                0.991616569     -11.7587792
7.268                0.991635635     -11.7784508
7.27                 0.991654695     -11.7981214
7.272                0.991673749     -11.8177911
7.274                0.991693883     -11.8376547
7.276                0.991713977     -11.8575131
7.278                0.991734031     -11.8773665
7.28                 0.991754044     -11.8972149
7.282                0.991774759     -11.9172744
7.284                0.991795612     -11.9373249
7.286                0.991816603     -11.9573665
7.288                 0.99183773     -11.9773991
7.29                  0.99185908     -11.9976483
7.292                0.991880578     -12.0178935
7.294                0.991902224     -12.0381347
7.296                0.991924016     -12.0583718
7.298                0.991946084     -12.0788249
7.3                  0.991968046     -12.0992769
7.302                0.991989905      -12.119728
7.304                0.992011661     -12.1401781
7.306                0.992033854     -12.1608485
7.308                0.992055894     -12.1815131
7.31                 0.992077781     -12.2021719
7.312                0.992099518     -12.2228251
7.314                 0.99212112      -12.243708
7.316                0.992142747     -12.2645845
7.318                0.992164401     -12.2854545
7.32                 0.992186082     -12.3063182
7.322                0.992207059     -12.3274012
7.324                0.992228089     -12.3484821
7.326                0.992249175     -12.3695611
7.328                0.992270314      -12.390638
7.33                 0.992290542     -12.4119214
7.332                0.992310768     -12.4332015
7.334                0.992330991     -12.4544784
7.336                0.992351211     -12.4757521
7.338                0.992370264     -12.4972357
7.34                 0.992389429     -12.5187117
7.342                0.992408707       -12.54018
7.344                0.992428096     -12.5616408
7.346                0.992445892     -12.5833089
7.348                0.992463866     -12.6049718
7.35                 0.992482016     -12.6266295
7.352                0.992500342     -12.6482819
7.354                0.992517113      -12.670131
7.356                 0.99253385     -12.6919789
7.358                0.992550552     -12.7138256
7.36                 0.992567221     -12.7356712
7.362                0.992582652     -12.7577048
7.364                0.992597911     -12.7797341
7.366                   0.992613     -12.8017591
7.368                0.992627918     -12.8237798
7.37                 0.992641347     -12.8459915
7.372                 0.99265474     -12.8681964
7.374                0.992668098     -12.8903945
7.376                0.992681422     -12.9125859
7.378                0.992692695     -12.9349538
7.38                 0.992704025     -12.9573186
7.382                0.992715413     -12.9796802
7.384                0.992726858     -13.0020388
7.386                0.992736055     -13.0245498
7.388                0.992745262     -13.0470587
7.39                  0.99275448     -13.0695656
7.392                0.992763709     -13.0920703
7.394                0.992770639     -13.1147193
7.396                0.992777637     -13.1373623
7.398                0.992784702     -13.1599993
7.4                  0.992791835     -13.1826304
7.402                 0.99279642     -13.2053994
7.404                0.992801168     -13.2281626
7.406                0.992806079       -13.25092
7.408                0.992811154     -13.2736716
7.41                 0.992813738     -13.2965451
7.412                0.992816341     -13.3194171
7.414                0.992818964     -13.3422877
7.416                0.992821607     -13.3651569
7.418                0.992822263     -13.3881333
7.42                 0.992822744     -13.4111074
7.422                0.992823052     -13.4340791
7.424                0.992823187     -13.4570486
7.426                0.992821459     -13.4801215
7.428                0.992819616     -13.5031889
7.43                 0.992817661     -13.5262508
7.432                0.992815593     -13.5493073
7.434                0.992811351     -13.5724556
7.436                0.992807121     -13.5956006
7.438                0.992802902     -13.6187422
7.44                 0.992798696     -13.6418806
7.442                0.992792165     -13.6650906
7.444                0.992785632     -13.6882995
7.446                0.992779099     -13.7115072
7.448                0.992772564     -13.7347139
7.45                 0.992763802     -13.7579758
7.452                0.992755059     -13.7812335
7.454                0.992746334     -13.8044871
7.456                0.992737628     -13.8277365
7.458                0.992726664     -13.8510355
7.46                 0.992715828     -13.8743287
7.462                0.992705117     -13.8976161
7.464                0.992694532     -13.9208978
7.466                0.992681848     -13.9442196
7.468                0.992669221     -13.9675396
7.47                 0.992656652     -13.9908577
7.472                0.992644141     -14.0141741
7.474                0.992630116     -14.0375158
7.476                0.992615934     -14.0608573
7.478                0.992601595     -14.0841985
7.48                 0.992587099     -14.1075395
7.482                0.992571598     -14.1309042
7.484                0.992555909      -14.154266
7.486                0.992540034     -14.1776248
7.488                0.992523974     -14.2009807
7.49                 0.992506854     -14.2243581
7.492                0.992489669      -14.247733
7.494                0.992472421     -14.2711056
7.496                0.992455108     -14.2944758
7.498                0.992436672     -14.3178537
7.5                  0.992418205     -14.3412314
7.502                0.992399706     -14.3646091
7.504                0.992381175     -14.3879866
7.506                 0.99236163     -14.4113665
7.508                0.992342065      -14.434744
7.51                 0.992322479      -14.458119
7.512                0.992302873     -14.4814917
7.514                0.992282338     -14.5048691
7.516                0.992261891     -14.5282411
7.518                0.992241533     -14.5516078
7.52                 0.992221262      -14.574969
7.522                0.992200191     -14.5983331
7.524                0.992179209     -14.6216947
7.526                0.992158316     -14.6450536
7.528                0.992137512       -14.66841
7.53                 0.992116468     -14.6917631
7.532                0.992095307     -14.7151172
7.534                0.992074029     -14.7384723
7.536                0.992052634     -14.7618285
7.538                  0.9920317     -14.7851809
7.54                 0.992010531     -14.8085332
7.542                 0.99198913     -14.8318852
7.544                0.991967496      -14.855237
7.546                0.991946526     -14.8785977
7.548                0.991925411     -14.9019575
7.55                 0.991904151     -14.9253164
7.552                0.991882745     -14.9486745
7.554                0.991861896     -14.9720402
7.556                 0.99184098     -14.9954068
7.558                0.991819996     -15.0187741
7.56                 0.991798946     -15.0421422
7.562                0.991778477     -15.0655216
7.564                0.991757973     -15.0889001
7.566                0.991737433     -15.1122778
7.568                0.991716857     -15.1356546
7.57                 0.991696895     -15.1590516
7.572                0.991677007     -15.1824438
7.574                0.991657192     -15.2058312
7.576                 0.99163745      -15.229214
7.578                0.991618293     -15.2526341
7.58                 0.991599265     -15.2760506
7.582                0.991580368     -15.2994635
7.584                0.991561601     -15.3228727
7.586                0.991543847     -15.3463199
7.588                0.991526047      -15.369768
7.59                 0.991508204      -15.393217
7.592                0.991490315      -15.416667
7.594                0.991474137     -15.4401607
7.596                0.991457725      -15.463656
7.598                0.991441081     -15.4871528
7.6                  0.991424204     -15.5106513
7.602                0.991409344     -15.5342109
7.604                0.991394279     -15.5577708
7.606                 0.99137901     -15.5813311
7.608                0.991363536     -15.6048918
7.61                 0.991349908     -15.6285261
7.612                0.991336186     -15.6521617
7.614                0.991322371     -15.6757985
7.616                0.991308462     -15.6994364
7.618                0.991296164     -15.7231579
7.62                 0.991283846     -15.7468795
7.622                0.991271509     -15.7706014
7.624                0.991259151     -15.7943235
7.626                0.991248188     -15.8181473
7.628                0.991237322     -15.8419673
7.63                 0.991226552     -15.8657834
7.632                0.991215879     -15.8895957
7.634                0.991206374     -15.9135248
7.636                0.991197061     -15.9374493
7.638                 0.99118794     -15.9613692
7.64                 0.991179011     -15.9852846
7.642                0.991171425     -16.0093281
7.644                0.991163898     -16.0333715
7.646                 0.99115643     -16.0574147
7.648                0.991149022     -16.0814576
7.65                 0.991143531     -16.1056338
7.652                0.991137858     -16.1298121
7.654                0.991132003     -16.1539924
7.656                0.991125966     -16.1781748
7.658                0.991122231     -16.2025092
7.66                 0.991118264     -16.2268446
7.662                0.991114066      -16.251181
7.664                0.991109636     -16.2755184
7.666                 0.99110731     -16.3000234
7.668                0.991104871     -16.3245294
7.67                 0.991102317     -16.3490366
7.672                0.991099649     -16.3735448
7.674                0.991098586     -16.3982327
7.676                0.991097531     -16.4229212
7.678                0.991096484     -16.4476105
7.68                 0.991095446     -16.4723004
7.682                0.991095517     -16.4971834
7.684                0.991095732     -16.5220634
7.686                 0.99109609     -16.5469407
7.688                0.991096591      -16.571815
7.69                 0.991097729      -16.596901
7.692                0.991099132     -16.6219821
7.694                0.991100798     -16.6470583
7.696                0.991102728     -16.6721295
7.698                0.991105199     -16.6974226
7.7                  0.991107844      -16.722714
7.702                0.991110663     -16.7480038
7.704                0.991113655     -16.7732918
7.706                0.991117625     -16.7988015
7.708                0.991121496     -16.8243128
7.71                 0.991125269     -16.8498257
7.712                0.991128942     -16.8753402
7.714                0.991134057     -16.9010862
7.716                0.991138933     -16.9268334
7.718                 0.99114357     -16.9525817
7.72                 0.991147969     -16.9783311
7.722                0.991153661     -17.0043238
7.724                0.991159203     -17.0303172
7.726                0.991164596     -17.0563112
7.728                 0.99116984     -17.0823057
7.73                 0.991175743     -17.1085499
7.732                0.991181659     -17.1347947
7.734                0.991187588     -17.1610401
7.736                 0.99119353      -17.187286
7.738                0.991199428     -17.2137896
7.74                 0.991205505     -17.2402913
7.742                 0.99121176     -17.2667909
7.744                0.991218193     -17.2932887
7.746                0.991223949     -17.3200505
7.748                0.991230026     -17.3468076
7.75                 0.991236422     -17.3735601
7.752                0.991243138     -17.4003079
7.754                0.991248902     -17.4273219
7.756                0.991254938     -17.4543331
7.758                0.991261244     -17.4813413
7.76                 0.991267822     -17.5083466
7.762                0.991273838     -17.5356162
7.764                0.991279844     -17.5628865
7.766                0.991285839     -17.5901574
7.768                0.991291823     -17.6174289
7.77                 0.991297862     -17.6449644
7.772                0.991303661     -17.6725011
7.774                0.991309219     -17.7000388
7.776                0.991314538     -17.7275776
7.778                0.991319969     -17.7553802
7.78                 0.991325185     -17.7831832
7.782                0.991330184     -17.8109865
7.784                0.991334968       -17.83879
7.786                0.991339327     -17.8668639
7.788                0.991343649     -17.8949381
7.79                 0.991347934     -17.9230126
7.792                0.991352183     -17.9510873
