! TOUCHSTONE file generated by CST DESIGN STUDIO
! Date and time: Mon Feb 10 16:54:01 2025
! Project name: C:\Work\MatlabApps\UnitCellType2OptimizationMatlab\CST\unitcell.cst
! Tree item: Tasks\Sweep1\SPara1\S-Parameters
! Header version: 2024
! Port assignment regex: !\s*Touchstone port\s*([0-9]+)\s*=\s*(CST MWS port|CST DES external port|CST DES block port)\s*(.+)\s* \(\"(.*)\"\)(\s*mode\s*([0-9]+))?.*
! Touchstone port assignment:
! Touchstone port 1 = CST DES external port 1 ("")
# GHz S MA R 50
7                    0.994849997     -12.4726045
7.002                0.994841778     -12.4913892
7.004                0.994833547     -12.5101742
7.006                0.994825306     -12.5289594
7.008                0.994817053     -12.5477448
7.01                 0.994807458      -12.566583
7.012                 0.99479783     -12.5854217
7.014                0.994788172     -12.6042607
7.016                0.994778482        -12.6231
7.018                0.994767509     -12.6419837
7.02                 0.994756515     -12.6608668
7.022                0.994745501     -12.6797493
7.024                0.994734466     -12.6986311
7.026                0.994722217     -12.7175514
7.028                0.994709962     -12.7364712
7.03                 0.994697702     -12.7553907
7.032                0.994685437     -12.7743097
7.034                 0.99467208     -12.7932571
7.036                0.994658699     -12.8122052
7.038                0.994645296     -12.8311539
7.04                 0.994631868     -12.8501033
7.042                0.994617566     -12.8690754
7.044                0.994603226     -12.8880481
7.046                0.994588846     -12.9070214
7.048                0.994574428     -12.9259952
7.05                 0.994559293     -12.9449898
7.052                0.994544135     -12.9639842
7.054                0.994528953     -12.9829786
7.056                 0.99451375     -13.0019728
7.058                0.994497914      -13.020987
7.06                 0.994482063     -13.0400017
7.062                0.994466197     -13.0590168
7.064                0.994450315     -13.0780323
7.066                0.994433927     -13.0970676
7.068                0.994417505     -13.1161039
7.07                 0.994401051     -13.1351412
7.072                0.994384563     -13.1541796
7.074                0.994367714     -13.1732336
7.076                0.994350831      -13.192288
7.078                0.994333916     -13.2113428
7.08                 0.994316968     -13.2303979
7.082                0.994299762     -13.2494681
7.084                0.994282541     -13.2685385
7.086                0.994265303      -13.287609
7.088                 0.99424805     -13.3066797
7.09                 0.994230708     -13.3257628
7.092                0.994213344     -13.3448469
7.094                0.994195958     -13.3639321
7.096                0.994178549     -13.3830182
7.098                0.994161242     -13.4021178
7.1                  0.994143897     -13.4212185
7.102                0.994126514     -13.4403205
7.104                0.994109092     -13.4594237
7.106                0.994091978     -13.4785466
7.108                0.994074836       -13.49767
7.11                 0.994057664     -13.5167939
7.112                0.994040464     -13.5359182
7.114                0.994023675     -13.5550674
7.116                0.994006871     -13.5742173
7.118                0.993990053     -13.5933677
7.12                  0.99397322     -13.6125187
7.122                0.993956889     -13.6316999
7.124                0.993940531     -13.6508826
7.126                0.993924149     -13.6700666
7.128                0.993907741     -13.6892521
7.13                  0.99389194     -13.7084716
7.132                0.993876107     -13.7276924
7.134                0.993860242     -13.7469143
7.136                0.993844344     -13.7661374
7.138                0.993829126     -13.7854011
7.14                 0.993813891     -13.8046655
7.142                0.993798638     -13.8239306
7.144                0.993783368     -13.8431964
7.146                0.993768855     -13.8625076
7.148                0.993754329     -13.8818199
7.15                 0.993739789     -13.9011334
7.152                0.993725236     -13.9204481
7.154                 0.99371158     -13.9398119
7.156                0.993697899     -13.9591773
7.158                0.993684192     -13.9785441
7.16                 0.993670459     -13.9979124
7.162                 0.99365773     -14.0173386
7.164                 0.99364498     -14.0367657
7.166                0.993632209     -14.0561936
7.168                0.993619418     -14.0756223
7.17                   0.9936077     -14.0951227
7.172                0.993595977     -14.1146237
7.174                0.993584251     -14.1341252
7.176                0.993572521     -14.1536272
7.178                0.993561885     -14.1732097
7.18                 0.993551242     -14.1927935
7.182                0.993540591     -14.2123786
7.184                0.993529933      -14.231965
7.186                0.993520353     -14.2516419
7.188                0.993510756     -14.2713202
7.19                 0.993501139         -14.291
7.192                0.993491505     -14.3106813
7.194                0.993482939     -14.3304597
7.196                0.993474364     -14.3502391
7.198                0.993465781     -14.3700193
7.2                  0.993457189     -14.3898004
7.202                0.993449625     -14.4096865
7.204                0.993442063     -14.4295736
7.206                0.993434504     -14.4494617
7.208                0.993426946     -14.4693507
7.21                 0.993420374     -14.4893549
7.212                0.993413799     -14.5093604
7.214                0.993407219     -14.5293673
7.216                0.993400635     -14.5493755
7.218                0.993395099     -14.5695021
7.22                  0.99338956     -14.5896296
7.222                0.993384016     -14.6097579
7.224                0.993378469      -14.629887
7.226                0.993373911     -14.6501478
7.228                0.993369364     -14.6704088
7.23                 0.993364828     -14.6906702
7.232                0.993360302      -14.710932
7.234                0.993356683     -14.7313368
7.236                0.993353076     -14.7517424
7.238                0.993349481      -14.772149
7.24                 0.993345899     -14.7925564
7.242                0.993343136      -14.813114
7.244                0.993340373      -14.833673
7.246                0.993337608     -14.8542332
7.248                0.993334842     -14.8747948
7.25                 0.993332798     -14.8955141
7.252                0.993330755     -14.9162342
7.254                0.993328713     -14.9369552
7.256                0.993326672     -14.9576771
7.258                0.993325203     -14.9785598
7.26                 0.993323746     -14.9994433
7.262                0.993322303     -15.0203274
7.264                0.993320873     -15.0412121
7.266                0.993319913     -15.0622623
7.268                0.993318965     -15.0833135
7.27                  0.99331803     -15.1043656
7.272                0.993317107     -15.1254187
7.274                0.993316565     -15.1466433
7.276                0.993316031     -15.1678687
7.278                0.993315506     -15.1890948
7.28                 0.993314989     -15.2103216
7.282                 0.99331478      -15.231724
7.284                0.993314588     -15.2531266
7.286                0.993314415     -15.2745294
7.288                0.993314259     -15.2959324
7.29                 0.993314299     -15.3175155
7.292                0.993314361      -15.339099
7.294                0.993314443      -15.360683
7.296                0.993314547     -15.3822675
7.298                0.993314697     -15.4040404
7.3                  0.993314854     -15.4258143
7.302                0.993315017     -15.4475893
7.304                0.993315188     -15.4693653
7.306                0.993315287     -15.4913274
7.308                0.993315387     -15.5132903
7.31                 0.993315488      -15.535254
7.312                0.993315589     -15.5572185
7.314                0.993315435     -15.5793725
7.316                 0.99331529     -15.6015269
7.318                0.993315157     -15.6236817
7.32                 0.993315033      -15.645837
7.322                0.993314525      -15.668179
7.324                 0.99331403     -15.6905216
7.326                0.993313548     -15.7128649
7.328                 0.99331308     -15.7352088
7.33                 0.993312139     -15.7577361
7.332                0.993311207      -15.780264
7.334                0.993310282     -15.8027925
7.336                0.993309365     -15.8253217
7.338                0.993307911     -15.8480348
7.34                 0.993306469      -15.870748
7.342                0.993305038     -15.8934613
7.344                0.993303619     -15.9161748
7.346                0.993301581     -15.9390727
7.348                0.993299559     -15.9619707
7.35                 0.993297551     -15.9848688
7.352                0.993295559     -16.0077671
7.354                0.993292857     -16.0308507
7.356                0.993290157     -16.0539351
7.358                0.993287459     -16.0770203
7.36                 0.993284764     -16.1001063
7.362                0.993281282     -16.1233722
7.364                 0.99327779      -16.146639
7.366                0.993274288     -16.1699066
7.368                0.993270777      -16.193175
7.37                 0.993266356     -16.2166233
7.372                 0.99326193     -16.2400719
7.374                0.993257499     -16.2635209
7.376                0.993253064     -16.2869703
7.378                0.993247608     -16.3105938
7.38                 0.993242153     -16.3342177
7.382                0.993236699     -16.3578421
7.384                0.993231246     -16.3814669
7.386                0.993224731     -16.4052568
7.388                0.993218212     -16.4290472
7.39                  0.99321169     -16.4528383
7.392                0.993205164     -16.4766299
7.394                0.993197588     -16.5005835
7.396                0.993190008     -16.5245373
7.398                0.993182424     -16.5484914
7.4                  0.993174836     -16.5724457
7.402                0.993166188     -16.5965598
7.404                0.993157539     -16.6206741
7.406                 0.99314889     -16.6447884
7.408                0.993140241     -16.6689028
7.41                 0.993130523     -16.6931745
7.412                0.993120796     -16.7174467
7.414                0.993111061     -16.7417196
7.416                0.993101317     -16.7659931
7.418                0.993090526     -16.7904184
7.42                 0.993079712     -16.8148445
7.422                0.993068875     -16.8392716
7.424                0.993058015     -16.8636997
7.426                0.993046076     -16.8882756
7.428                0.993034114     -16.9128521
7.43                 0.993022129     -16.9374293
7.432                0.993010121      -16.962007
7.434                0.992997009     -16.9867272
7.436                0.992983881     -17.0114478
7.438                0.992970737      -17.036169
7.44                 0.992957577     -17.0608908
7.442                0.992943336     -17.0857504
7.444                0.992929077     -17.1106108
7.446                0.992914802     -17.1354719
7.448                0.992900509     -17.1603337
7.45                 0.992885207     -17.1853248
7.452                0.992869885     -17.2103165
7.454                0.992854545     -17.2353087
7.456                0.992839184     -17.2603014
7.458                0.992822918     -17.2854205
7.46                 0.992806636     -17.3105399
7.462                 0.99279034     -17.3356596
7.464                0.992774029     -17.3607794
7.466                0.992756908     -17.3860271
7.468                0.992739769     -17.4112754
7.47                 0.992722612     -17.4365243
7.472                0.992705437     -17.4617739
7.474                0.992687537     -17.4871483
7.476                0.992669605     -17.5125238
7.478                0.992651642     -17.5379006
7.48                 0.992633647     -17.5632785
7.482                0.992615006     -17.5887808
7.484                 0.99259633     -17.6142843
7.486                0.992577618     -17.6397889
7.488                 0.99255887     -17.6652945
7.49                 0.992539492     -17.6909241
7.492                0.992520085     -17.7165545
7.494                0.992500649     -17.7421859
7.496                0.992481184     -17.7678182
7.498                 0.99246117     -17.7935688
7.5                  0.992441129     -17.8193204
7.502                0.992421063     -17.8450731
7.504                 0.99240097     -17.8708268
7.506                 0.99238042     -17.8966995
7.508                0.992359842     -17.9225731
7.51                 0.992339238     -17.9484476
7.512                0.992318605      -17.974323
7.514                0.992297652     -18.0003184
7.516                0.992276677     -18.0263144
7.518                0.992255678      -18.052311
7.52                 0.992234657      -18.078308
7.522                0.992213451     -18.1044264
7.524                0.992192224     -18.1305456
7.526                0.992170977     -18.1566655
7.528                0.992149708     -18.1827861
7.53                 0.992128369     -18.2090316
7.532                0.992106998     -18.2352786
7.534                0.992085597      -18.261527
7.536                0.992064164     -18.2877767
7.538                0.992042766     -18.3141525
7.54                 0.992021329     -18.3405299
7.542                0.991999853     -18.3669089
7.544                0.991978338     -18.3932895
7.546                0.991956918      -18.419806
7.548                0.991935464     -18.4463239
7.55                 0.991913977     -18.4728432
7.552                0.991892456     -18.4993639
7.554                0.991871062     -18.5260196
7.556                0.991849641     -18.5526767
7.558                0.991828192     -18.5793351
7.56                 0.991806717     -18.6059949
7.562                0.991785457      -18.632794
7.564                0.991764172     -18.6595943
7.566                0.991742861     -18.6863958
7.568                0.991721524     -18.7131985
7.57                 0.991700523     -18.7401418
7.572                0.991679501     -18.7670857
7.574                0.991658459     -18.7940305
7.576                0.991637397      -18.820976
7.578                0.991616746     -18.8480764
7.58                  0.99159608     -18.8751775
7.582                  0.9915754     -18.9022794
7.584                0.991554704     -18.9293819
7.586                0.991534534      -18.956644
7.588                0.991514342     -18.9839075
7.59                 0.991494128     -19.0111723
7.592                0.991473894     -19.0384384
7.594                 0.99145424      -19.065871
7.596                0.991434555     -19.0933053
7.598                0.991414838     -19.1207415
7.6                   0.99139509     -19.1481795
7.602                0.991375927      -19.175794
7.604                0.991356736     -19.2034101
7.606                0.991337515      -19.231028
7.608                0.991318265     -19.2586474
7.61                 0.991299579     -19.2864507
7.612                0.991280873     -19.3142555
7.614                0.991262146     -19.3420616
7.616                0.991243399     -19.3698693
7.618                0.991225201     -19.3978665
7.62                 0.991206987      -19.425865
7.622                0.991188759     -19.4538647
7.624                0.991170515     -19.4818656
7.626                 0.99115285     -19.5100652
7.628                0.991135174     -19.5382654
7.63                  0.99111749     -19.5664664
7.632                0.991099797      -19.594668
7.634                0.991082694     -19.6230736
7.636                0.991065588     -19.6514796
7.638                 0.99104848      -19.679886
7.64                  0.99103137     -19.7082929
7.642                0.991014904     -19.7369165
7.644                0.990998432      -19.765541
7.646                0.990981954     -19.7941665
7.648                 0.99096547     -19.8227929
7.65                 0.990949624      -19.851643
7.652                 0.99093376     -19.8804947
7.654                0.990917879     -19.9093479
7.656                0.990901981     -19.9382027
7.658                0.990886661     -19.9672935
7.66                 0.990871322     -19.9963859
7.662                0.990855963     -20.0254799
7.664                0.990840583     -20.0545755
7.666                0.990825704     -20.0839154
7.668                0.990810814     -20.1132565
7.67                 0.990795913     -20.1425989
7.672                0.990780999     -20.1719427
7.674                0.990766462     -20.2015367
7.676                0.990751921     -20.2311316
7.678                0.990737376     -20.2607275
7.68                 0.990722828     -20.2903244
7.682                0.990708593     -20.3201771
7.684                0.990694362     -20.3500302
7.686                0.990680133     -20.3798837
7.688                0.990665908     -20.4097376
7.69                 0.990651916     -20.4398561
7.692                0.990637933     -20.4699746
7.694                0.990623961      -20.500093
7.696                0.990609998     -20.5302113
7.698                0.990596256     -20.5606041
7.7                  0.990582521     -20.5909972
7.702                0.990568794     -20.6213905
7.704                0.990555074     -20.6517842
7.706                0.990541508      -20.682456
7.708                0.990527936     -20.7131289
7.71                 0.990514357     -20.7438028
7.712                0.990500772     -20.7744777
7.714                0.990487264     -20.8054382
7.716                0.990473741        -20.8364
7.718                0.990460204     -20.8673631
7.72                 0.990446651     -20.8983274
7.722                0.990433052     -20.9295837
7.724                0.990419443     -20.9608409
7.726                0.990405824     -20.9920991
7.728                0.990392195     -21.0233583
7.73                 0.990378338     -21.0549133
7.732                0.990364481     -21.0864688
7.734                0.990350622     -21.1180249
7.736                0.990336763     -21.1495815
7.738                 0.99032256     -21.1814382
7.74                 0.990308364     -21.2132949
7.742                0.990294174     -21.2451516
7.744                 0.99027999     -21.2770082
7.746                0.990265379     -21.3091663
7.748                 0.99025078     -21.3413238
7.75                 0.990236192     -21.3734807
7.752                0.990221617     -21.4056371
7.754                0.990206558     -21.4380974
7.756                0.990191509     -21.4705574
7.758                0.990176469     -21.5030169
7.76                 0.990161437      -21.535476
7.762                  0.9901459      -21.568245
7.764                0.990130356     -21.6010144
7.766                0.990114806     -21.6337843
7.768                0.990099249     -21.6665545
7.77                  0.99008314     -21.6996391
7.772                 0.99006701     -21.7327246
7.774                0.990050859     -21.7658111
7.776                0.990034687     -21.7988985
7.778                0.990017827     -21.8322972
7.78                 0.990000946     -21.8656967
7.782                0.989984043      -21.899097
7.784                0.989967119      -21.932498
7.786                0.989949381     -21.9662185
7.788                 0.98993163     -21.9999392
7.79                 0.989913866     -22.0336602
7.792                0.989896089     -22.0673815
