! TOUCHSTONE file generated by CST DESIGN STUDIO
! Date and time: Mon Feb 10 16:53:56 2025
! Project name: C:\Work\MatlabApps\UnitCellType2OptimizationMatlab\CST\unitcell.cst
! Tree item: Tasks\Sweep1\SPara1\S-Parameters
! Header version: 2024
! Port assignment regex: !\s*Touchstone port\s*([0-9]+)\s*=\s*(CST MWS port|CST DES external port|CST DES block port)\s*(.+)\s* \(\"(.*)\"\)(\s*mode\s*([0-9]+))?.*
! Touchstone port assignment:
! Touchstone port 1 = CST DES external port 1 ("")
# GHz S MA R 50
7                    0.995603441     -14.0067102
7.002                0.995595933      -14.026351
7.004                0.995588394     -14.0460184
7.006                0.995580825     -14.0657127
7.008                0.995573226     -14.0854337
7.01                 0.995565595     -14.1051817
7.012                0.995557934     -14.1249566
7.014                0.995550243     -14.1447585
7.016                 0.99554252     -14.1645876
7.018                0.995534766     -14.1844439
7.02                 0.995526981     -14.2043275
7.022                0.995519165     -14.2242385
7.024                0.995511318     -14.2441768
7.026                0.995503439     -14.2641427
7.028                0.995495529     -14.2841362
7.03                 0.995487587     -14.3041573
7.032                0.995479613     -14.3242062
7.034                0.995471608     -14.3442829
7.036                0.995463571     -14.3643875
7.038                0.995455502     -14.3845201
7.04                 0.995447401     -14.4046807
7.042                0.995439268     -14.4248695
7.044                0.995431102     -14.4450864
7.046                0.995422905     -14.4653317
7.048                0.995414674     -14.4856054
7.05                 0.995406412     -14.5059075
7.052                0.995398116     -14.5262381
7.054                0.995389788     -14.5465974
7.056                0.995381427     -14.5669854
7.058                0.995373033     -14.5874021
7.06                 0.995364606     -14.6078477
7.062                0.995356146     -14.6283223
7.064                0.995347653     -14.6488259
7.066                0.995339126     -14.6693586
7.068                0.995330566     -14.6899205
7.07                 0.995321973     -14.7105117
7.072                0.995313345     -14.7311322
7.074                0.995304684     -14.7517822
7.076                0.995295989     -14.7724617
7.078                 0.99528726     -14.7931708
7.08                 0.995278497     -14.8139097
7.082                  0.9952697     -14.8346783
7.084                0.995260868     -14.8554768
7.086                0.995252002     -14.8763053
7.088                0.995243102     -14.8971638
7.09                 0.995234167     -14.9180524
7.092                0.995225197     -14.9389712
7.094                0.995216192     -14.9599204
7.096                0.995207153     -14.9808999
7.098                0.995198078       -15.00191
7.1                  0.995188968     -15.0229506
7.102                0.995179823     -15.0440218
7.104                0.995170642     -15.0651238
7.106                0.995161426     -15.0862567
7.108                0.995152174     -15.1074204
7.11                 0.995142887     -15.1286152
7.112                0.995133563     -15.1498411
7.114                0.995124204     -15.1710982
7.116                0.995114808     -15.1923866
7.118                0.995105376     -15.2137063
7.12                 0.995095908     -15.2350576
7.122                0.995086403     -15.2564404
7.124                0.995076862     -15.2778548
7.126                0.995067284      -15.299301
7.128                0.995057669     -15.3207791
7.13                 0.995048017     -15.3422891
7.132                0.995038328     -15.3638311
7.134                0.995028602     -15.3854052
7.136                0.995018838     -15.4070116
7.138                0.995009037     -15.4286502
7.14                 0.994999199     -15.4503213
7.142                0.994989322     -15.4720249
7.144                0.994979408      -15.493761
7.146                0.994969456     -15.5155299
7.148                0.994959466     -15.5373316
7.15                 0.994949437     -15.5591662
7.152                0.994939371     -15.5810337
7.154                0.994929265     -15.6029343
7.156                0.994919121     -15.6248681
7.158                0.994908939     -15.6468352
7.16                 0.994898717     -15.6688357
7.162                0.994888456     -15.6908697
7.164                0.994878156     -15.7129372
7.166                0.994867817     -15.7350385
7.168                0.994857439     -15.7571735
7.17                  0.99484702     -15.7793424
7.172                0.994836563     -15.8015452
7.174                0.994826065     -15.8237822
7.176                0.994815527     -15.8460533
7.178                0.994804949     -15.8683588
7.18                 0.994794331     -15.8906986
7.182                0.994783673     -15.9130729
7.184                0.994772973     -15.9354819
7.186                0.994762234     -15.9579255
7.188                0.994751453     -15.9804039
7.19                 0.994740631     -16.0029173
7.192                0.994729769     -16.0254657
7.194                0.994718864     -16.0480492
7.196                0.994707919     -16.0706679
7.198                0.994696932      -16.093322
7.2                  0.994685903     -16.1160115
7.202                0.994674832     -16.1387366
7.204                 0.99466372     -16.1614973
7.206                0.994652565     -16.1842938
7.208                0.994641367     -16.2071261
7.21                 0.994630128     -16.2299945
7.212                0.994618845      -16.252899
7.214                 0.99460752     -16.2758396
7.216                0.994596152     -16.2988166
7.218                0.994584741       -16.32183
7.22                 0.994573286     -16.3448799
7.222                0.994561788     -16.3679665
7.224                0.994550247     -16.3910899
7.226                0.994538661     -16.4142501
7.228                0.994527032     -16.4374473
7.23                 0.994515359     -16.4606817
7.232                0.994503641     -16.4839532
7.234                 0.99449188     -16.5072621
7.236                0.994480073     -16.5306084
7.238                0.994468222     -16.5539923
7.24                 0.994456326     -16.5774138
7.242                0.994444385     -16.6008732
7.244                0.994432398     -16.6243704
7.246                0.994420367     -16.6479057
7.248                0.994408289     -16.6714791
7.25                 0.994396166     -16.6950908
7.252                0.994383997     -16.7187409
7.254                0.994371782     -16.7424295
7.256                0.994359521     -16.7661567
7.258                0.994347213     -16.7899226
7.26                 0.994334859     -16.8137274
7.262                0.994322457     -16.8375712
7.264                0.994310009     -16.8614541
7.266                0.994297514     -16.8853762
7.268                0.994284971     -16.9093376
7.27                 0.994272381     -16.9333386
7.272                0.994259743     -16.9573791
7.274                0.994247058     -16.9814594
7.276                0.994234324     -17.0055795
7.278                0.994221542     -17.0297395
7.28                 0.994208711     -17.0539397
7.282                0.994195832     -17.0781801
7.284                0.994182904     -17.1024608
7.286                0.994169927      -17.126782
7.288                0.994156901     -17.1511438
7.29                 0.994143826     -17.1755463
7.292                0.994130701     -17.1999897
7.294                0.994117526     -17.2244741
7.296                0.994104301     -17.2489996
7.298                0.994091026     -17.2735664
7.3                  0.994077701     -17.2981745
7.302                0.994064325     -17.3228242
7.304                0.994050898     -17.3475155
7.306                0.994037421     -17.3722486
7.308                0.994023892     -17.3970236
7.31                 0.994010312     -17.4218406
7.312                 0.99399668     -17.4466998
7.314                0.993982997     -17.4716013
7.316                0.993969261     -17.4965453
7.318                0.993955474     -17.5215318
7.32                 0.993941634     -17.5465611
7.322                0.993927741     -17.5716332
7.324                0.993913795     -17.5967484
7.326                0.993899797     -17.6219066
7.328                0.993885745     -17.6471082
7.33                  0.99387164     -17.6723531
7.332                0.993857481     -17.6976416
7.334                0.993843268     -17.7229738
7.336                0.993829001     -17.7483498
7.338                 0.99381468     -17.7737698
7.34                 0.993800304     -17.7992339
7.342                0.993785873     -17.8247423
7.344                0.993771388     -17.8502951
7.346                0.993756847     -17.8758924
7.348                 0.99374225     -17.9015344
7.35                 0.993727598     -17.9272213
7.352                0.993712891     -17.9529532
7.354                0.993698126     -17.9787301
7.356                0.993683306     -18.0045524
7.358                0.993668429     -18.0304201
7.36                 0.993653495     -18.0563333
7.362                0.993638504     -18.0822923
7.364                0.993623455     -18.1082972
7.366                 0.99360835     -18.1343481
7.368                0.993593186     -18.1604451
7.37                 0.993577964     -18.1865885
7.372                0.993562684     -18.2127784
7.374                0.993547345     -18.2390149
7.376                0.993531948     -18.2652981
7.378                0.993516491     -18.2916284
7.38                 0.993500976     -18.3180057
7.382                0.993485401     -18.3444303
7.384                0.993469766     -18.3709022
7.386                 0.99345407     -18.3974218
7.388                0.993438315      -18.423989
7.39                 0.993422499     -18.4506042
7.392                0.993406622     -18.4772674
7.394                0.993390685     -18.5039788
7.396                0.993374686     -18.5307385
7.398                0.993358625     -18.5575468
7.4                  0.993342502     -18.5844038
7.402                0.993326318     -18.6113096
7.404                0.993310071     -18.6382644
7.406                0.993293761     -18.6652684
7.408                0.993277388     -18.6923217
7.41                 0.993260953     -18.7194245
7.412                0.993244453      -18.746577
7.414                 0.99322789     -18.7737794
7.416                0.993211263     -18.8010317
7.418                0.993194572     -18.8283343
7.42                 0.993177816     -18.8556871
7.422                0.993160995     -18.8830905
7.424                0.993144109     -18.9105446
7.426                0.993127157     -18.9380495
7.428                 0.99311014     -18.9656054
7.43                 0.993093057     -18.9932126
7.432                0.993075908     -19.0208711
7.434                0.993058691     -19.0485812
7.436                0.993041409      -19.076343
7.438                0.993024058     -19.1041566
7.44                 0.993006641     -19.1320224
7.442                0.992989155     -19.1599404
7.444                0.992971602     -19.1879109
7.446                 0.99295398      -19.215934
7.448                0.992936289     -19.2440098
7.45                  0.99291853     -19.2721387
7.452                0.992900701     -19.3003207
7.454                0.992882802      -19.328556
7.456                0.992864834     -19.3568448
7.458                0.992846795     -19.3851874
7.46                 0.992828686     -19.4135838
7.462                0.992810505     -19.4420343
7.464                0.992792254     -19.4705391
7.466                0.992773931     -19.4990984
7.468                0.992755536     -19.5277122
7.47                 0.992737069     -19.5563809
7.472                 0.99271853     -19.5851046
7.474                0.992699917     -19.6138836
7.476                0.992681232     -19.6427179
7.478                0.992662473     -19.6716078
7.48                  0.99264364     -19.7005535
7.482                0.992624733     -19.7295552
7.484                0.992605752     -19.7586131
7.486                0.992586695     -19.7877273
7.488                0.992567564     -19.8168981
7.49                 0.992548356     -19.8461257
7.492                0.992529073     -19.8754102
7.494                0.992509714     -19.9047519
7.496                0.992490278      -19.934151
7.498                0.992470765     -19.9636076
7.5                  0.992451175      -19.993122
7.502                0.992431507     -20.0226944
7.504                0.992411761      -20.052325
7.506                0.992391937      -20.082014
7.508                0.992372034     -20.1117615
7.51                 0.992352051     -20.1415679
7.512                 0.99233199     -20.1714332
7.514                0.992311848     -20.2013578
7.516                0.992291626     -20.2313418
7.518                0.992271324     -20.2613854
7.52                  0.99225094     -20.2914889
7.522                0.992230475     -20.3216524
7.524                0.992209928     -20.3518763
7.526                0.992189299     -20.3821606
7.528                0.992168588     -20.4125056
7.53                 0.992147793     -20.4429116
7.532                0.992126915     -20.4733787
7.534                0.992105954     -20.5039072
7.536                0.992084908     -20.5344972
7.538                0.992063777     -20.5651491
7.54                 0.992042562      -20.595863
7.542                0.992021261     -20.6266391
7.544                0.991999875     -20.6574777
7.546                0.991978402     -20.6883791
7.548                0.991956843     -20.7193433
7.55                 0.991935197     -20.7503707
7.552                0.991913463     -20.7814615
7.554                0.991891641     -20.8126159
7.556                0.991869731     -20.8438342
7.558                0.991847733     -20.8751165
7.56                 0.991825645     -20.9064632
7.562                0.991803468     -20.9378744
7.564                  0.9917812     -20.9693504
7.566                0.991758842     -21.0008914
7.568                0.991736393     -21.0324976
7.57                 0.991713853     -21.0641694
7.572                0.991691221     -21.0959069
7.574                0.991668497     -21.1277104
7.576                 0.99164568       -21.15958
7.578                 0.99162277     -21.1915162
7.58                 0.991599766     -21.2235191
7.582                0.991576668     -21.2555889
7.584                0.991553476     -21.2877259
7.586                0.991530188     -21.3199304
7.588                0.991506805     -21.3522025
7.59                 0.991483326     -21.3845426
7.592                0.991459751     -21.4169509
7.594                0.991436079     -21.4494277
7.596                0.991412309     -21.4819732
7.598                0.991388441     -21.5145876
7.6                  0.991364475     -21.5472713
7.602                 0.99134041     -21.5800244
7.604                0.991316246     -21.6128473
7.606                0.991291981     -21.6457402
7.608                0.991267617     -21.6787034
7.61                 0.991243151      -21.711737
7.612                0.991218584     -21.7448415
7.614                0.991193915      -21.778017
7.616                0.991169144     -21.8112639
7.618                 0.99114427     -21.8445823
7.62                 0.991119292     -21.8779726
7.622                 0.99109421     -21.9114351
7.624                0.991069024     -21.9449699
7.626                0.991043733     -21.9785774
7.628                0.991018336     -22.0122579
7.63                 0.990992832     -22.0460116
7.632                0.990967222     -22.0798388
7.634                0.990941505     -22.1137398
7.636                 0.99091568     -22.1477149
7.638                0.990889747     -22.1817643
7.64                 0.990863705     -22.2158884
7.642                0.990837553     -22.2500873
7.644                0.990811292     -22.2843615
7.646                0.990784919     -22.3187112
7.648                0.990758436     -22.3531367
7.65                  0.99073184     -22.3876382
7.652                0.990705133     -22.4222162
7.654                0.990678312     -22.4568707
7.656                0.990651378     -22.4916023
7.658                 0.99062433     -22.5264111
7.66                 0.990597167     -22.5612974
7.662                0.990569889     -22.5962616
7.664                0.990542495     -22.6313039
7.666                0.990514984     -22.6664247
7.668                0.990487356     -22.7016243
7.67                  0.99045961     -22.7369029
7.672                0.990431746     -22.7722609
7.674                0.990403763     -22.8076986
7.676                0.990375661     -22.8432163
7.678                0.990347438     -22.8788143
7.68                 0.990319094     -22.9144929
7.682                0.990290629     -22.9502524
7.684                0.990262041     -22.9860932
7.686                0.990233331     -23.0220156
7.688                0.990204497     -23.0580198
7.69                 0.990175539     -23.0941063
7.692                0.990146456     -23.1302753
7.694                0.990117247     -23.1665272
7.696                0.990087913     -23.2028623
7.698                0.990058451     -23.2392808
7.7                  0.990028862     -23.2757833
7.702                0.989999145     -23.3123699
7.704                0.989969298      -23.349041
7.706                0.989939323      -23.385797
7.708                0.989909216     -23.4226382
7.71                 0.989878979     -23.4595649
7.712                 0.98984861     -23.4965774
7.714                0.989818109     -23.5336762
7.716                0.989787474     -23.5708616
7.718                0.989756706     -23.6081338
7.72                 0.989725803     -23.6454933
7.722                0.989694764     -23.6829404
7.724                 0.98966359     -23.7204754
7.726                0.989632278     -23.7580988
7.728                0.989600829     -23.7958108
7.73                 0.989569241     -23.8336118
7.732                0.989537515     -23.8715023
7.734                0.989505648     -23.9094824
7.736                0.989473641     -23.9475527
7.738                0.989441492     -23.9857134
7.74                 0.989409201      -24.023965
7.742                0.989376767     -24.0623078
7.744                 0.98934419     -24.1007421
7.746                0.989311467     -24.1392684
7.748                0.989278599     -24.1778871
7.75                 0.989245585     -24.2165984
7.752                0.989212424     -24.2554028
7.754                0.989179115     -24.2943007
7.756                0.989145657     -24.3332924
7.758                 0.98911205     -24.3723784
7.76                 0.989078292     -24.4115589
7.762                0.989044383     -24.4508345
7.764                0.989010322     -24.4902055
7.766                0.988976108     -24.5296723
7.768                0.988941741     -24.5692352
7.77                 0.988907218     -24.6088948
7.772                 0.98887254     -24.6486513
7.774                0.988837705     -24.6885052
7.776                0.988802714      -24.728457
7.778                0.988767564     -24.7685069
7.78                 0.988732254     -24.8086554
7.782                0.988696785      -24.848903
7.784                0.988661155       -24.88925
7.786                0.988625363     -24.9296968
7.788                0.988589408     -24.9702439
7.79                 0.988553289     -25.0108917
7.792                0.988517006     -25.0516406
