! TOUCHSTONE file generated by CST DESIGN STUDIO
! Date and time: Mon Feb 10 16:54:13 2025
! Project name: C:\Work\MatlabApps\UnitCellType2OptimizationMatlab\CST\unitcell.cst
! Tree item: Tasks\Sweep1\SPara1\S-Parameters
! Header version: 2024
! Port assignment regex: !\s*Touchstone port\s*([0-9]+)\s*=\s*(CST MWS port|CST DES external port|CST DES block port)\s*(.+)\s* \(\"(.*)\"\)(\s*mode\s*([0-9]+))?.*
! Touchstone port assignment:
! Touchstone port 1 = CST DES external port 1 ("")
# GHz S MA R 50
7                    0.988672454     -5.16001053
7.002                0.988687565     -5.19119415
7.004                0.988702671     -5.22230396
7.006                0.988717771     -5.25334057
7.008                0.988732863     -5.28430456
7.01                 0.988744586     -5.31505887
7.012                0.988755238     -5.34572346
7.014                0.988764832     -5.37629898
7.016                0.988773383     -5.40678609
7.018                0.988778818     -5.43713117
7.02                 0.988784293     -5.46734949
7.022                0.988789812     -5.49744268
7.024                0.988795383     -5.52741238
7.026                0.988795404     -5.55723425
7.028                0.988796293     -5.58696322
7.03                 0.988798044     -5.61660053
7.032                0.988800646      -5.6461474
7.034                0.988798965     -5.67543168
7.036                0.988796848     -5.70465849
7.038                0.988794299      -5.7338283
7.04                 0.988791323     -5.76294157
7.042                0.988787665     -5.79177554
7.044                0.988782901     -5.82052661
7.046                 0.98877704       -5.849196
7.048                0.988770095     -5.87778494
7.05                 0.988762353     -5.90615321
7.052                0.988754674     -5.93442468
7.054                0.988747053     -5.96260036
7.056                0.988739486     -5.99068121
7.058                 0.98872972     -6.01852192
7.06                 0.988720223     -6.04630262
7.062                 0.98871099     -6.07402376
7.064                0.988702018      -6.1016858
7.066                0.988692616     -6.12905343
7.068                0.988682404      -6.1563697
7.07                 0.988671389     -6.18363494
7.072                0.988659581     -6.21084944
7.074                 0.98864892     -6.23781563
7.076                 0.98863777     -6.26469858
7.078                0.988626138     -6.29149914
7.08                 0.988614033     -6.31821812
7.082                0.988601636     -6.34472948
7.084                0.988589704     -6.37116766
7.086                0.988578234     -6.39753366
7.088                0.988567223     -6.42382844
7.09                 0.988555954     -6.44986222
7.092                0.988544512      -6.4758554
7.094                0.988532899     -6.50180829
7.096                0.988521115     -6.52772116
7.098                0.988511832     -6.55335968
7.1                  0.988501533     -6.57894432
7.102                0.988490229     -6.60447586
7.104                0.988477928     -6.62995505
7.106                0.988468839     -6.65523551
7.108                0.988459484     -6.68043887
7.11                 0.988449862     -6.70556599
7.112                0.988439974     -6.73061772
7.114                0.988431826     -6.75550029
7.116                0.988424007     -6.78032854
7.118                0.988416512     -6.80510284
7.12                 0.988409338     -6.82982356
7.122                0.988404649      -6.8543404
7.124                0.988399432      -6.8788254
7.126                0.988393691     -6.90327873
7.128                0.988387431     -6.92770059
7.13                 0.988385551     -6.95194557
7.132                0.988382877     -6.97613847
7.134                0.988379418     -7.00027963
7.136                0.988375183     -7.02436939
7.138                0.988374714     -7.04834877
7.14                 0.988374268     -7.07227065
7.142                0.988373848     -7.09613573
7.144                0.988373455     -7.11994475
7.146                0.988375896     -7.14363796
7.148                 0.98837829     -7.16729873
7.15                 0.988380635     -7.19092736
7.152                0.988382934      -7.2145241
7.154                0.988389492     -7.23799481
7.156                0.988395266      -7.2614305
7.158                0.988400263     -7.28483157
7.16                 0.988404489     -7.30819841
7.162                0.988413787     -7.33150911
7.164                0.988422673     -7.35475979
7.166                0.988431149     -7.37795116
7.168                0.988439216     -7.40108393
7.17                 0.988450909     -7.42421983
7.172                0.988462931     -7.44730411
7.174                0.988475278     -7.47033714
7.176                0.988487945     -7.49331928
7.178                0.988504038     -7.51629074
7.18                 0.988519918     -7.53923656
7.182                0.988535586     -7.56215693
7.184                0.988551043     -7.58505201
7.186                0.988571571     -7.60794818
7.188                0.988591263     -7.63081055
7.19                 0.988610128     -7.65363925
7.192                0.988628173     -7.67643441
7.194                0.988651272     -7.69929405
7.196                 0.98867407     -7.72210664
7.198                0.988696573     -7.74487265
7.2                  0.988718786     -7.76759259
7.202                0.988744567      -7.7903958
7.204                 0.98877037     -7.81316825
7.206                0.988796196     -7.83591024
7.208                0.988822046     -7.85862208
7.21                 0.988851508     -7.88140907
7.212                 0.98888051     -7.90417136
7.214                0.988909058     -7.92690913
7.216                0.988937153     -7.94962259
7.218                0.988969397     -7.97245188
7.22                 0.989001269     -7.99523591
7.222                0.989032773     -8.01797522
7.224                0.989063911     -8.04067035
7.226                 0.98909787     -8.06354051
7.228                0.989132156      -8.0863626
7.23                 0.989166766     -8.10913697
7.232                0.989201698     -8.13186399
7.234                0.989238559     -8.15476491
7.236                0.989275513     -8.17763997
7.238                 0.98931256     -8.20048936
7.24                 0.989349699     -8.22331327
7.242                0.989389955     -8.24630234
7.244                0.989429536     -8.26926654
7.246                0.989468448     -8.29220596
7.248                0.989506697     -8.31512066
7.25                  0.98954853     -8.33824473
7.252                0.989589887     -8.36132839
7.254                0.989630773     -8.38437193
7.256                0.989671194     -8.40737565
7.258                0.989713685     -8.43061184
7.26                 0.989756217     -8.45381535
7.262                0.989798792     -8.47698654
7.264                0.989841411     -8.50012578
7.266                0.989885216     -8.52347659
7.268                0.989928877     -8.54680649
7.27                 0.989972394     -8.57011563
7.272                0.990015769     -8.59340417
7.274                0.990060399     -8.61691162
7.276                0.990104797     -8.64038581
7.278                0.990148966     -8.66382709
7.28                 0.990192906     -8.68723584
7.282                 0.99023718     -8.71090105
7.284                0.990281766     -8.73452393
7.286                0.990326662     -8.75810478
7.288                0.990371863     -8.78164391
7.29                 0.990416305      -8.8054381
7.292                0.990461072     -8.82920515
7.294                0.990506162     -8.85294524
7.296                0.990551573     -8.87665854
7.298                0.990596908     -8.90060547
7.3                  0.990641822     -8.92453195
7.302                0.990686319     -8.94843807
7.304                0.990730401     -8.97232392
7.306                0.990775323     -8.99645807
7.308                0.990819703     -9.02055769
7.31                 0.990863548     -9.04462295
7.312                0.990906863     -9.06865408
7.314                0.990949888     -9.09295266
7.316                0.990992901     -9.11721702
7.318                0.991035904     -9.14144753
7.32                 0.991078898     -9.16564453
7.322                0.991120364     -9.19008039
7.324                0.991161893     -9.21449575
7.326                0.991203485     -9.23889075
7.328                0.991245139     -9.26326551
7.33                 0.991285039     -9.28785057
7.332                0.991324848     -9.31241144
7.334                0.991364569     -9.33694834
7.336                0.991404203      -9.3614615
7.338                0.991441599      -9.3861975
7.34                 0.991479256     -9.41089847
7.342                0.991517171     -9.43556468
7.344                0.991555341     -9.46019643
7.346                0.991590304     -9.48504423
7.348                0.991625709      -9.5098651
7.35                 0.991661552     -9.53465917
7.352                 0.99169783      -9.5594266
7.354                0.991731357       -9.584381
7.356                0.991764718     -9.60931824
7.358                0.991797916     -9.63423839
7.36                 0.991830952     -9.65914154
7.362                0.991862462     -9.68422259
7.364                0.991893438     -9.70927657
7.366                0.991923886     -9.73430354
7.368                 0.99195381     -9.75930361
7.37                 0.991981865     -9.78449559
7.372                0.992009786     -9.80965533
7.374                0.992037576     -9.83478312
7.376                0.992065237     -9.85987925
7.378                 0.99208979     -9.88513999
7.38                 0.992114466     -9.91038039
7.382                0.992139267      -9.9356006
7.384                0.992164191     -9.96080081
7.386                0.992185664     -9.98612095
7.388                0.992207135     -10.0114236
7.39                 0.992228604      -10.036709
7.392                0.992250071     -10.0619771
7.394                0.992268006     -10.0873577
7.396                0.992286117     -10.1127109
7.398                0.992304403     -10.1380372
7.4                  0.992322863     -10.1633366
7.402                0.992337145     -10.1887424
7.404                0.992351874     -10.2141231
7.406                0.992367046     -10.2394786
7.408                0.992382659     -10.2648092
7.41                  0.99239434     -10.2902144
7.412                0.992406063     -10.3156053
7.414                0.992417828     -10.3409819
7.416                0.992429634     -10.3663444
7.418                0.992438945     -10.3917602
7.42                 0.992447777     -10.4171576
7.422                0.992456134     -10.4425368
7.424                0.992464018     -10.4678977
7.426                0.992469863     -10.4933178
7.428                0.992475413     -10.5187117
7.43                 0.992480669     -10.5440798
7.432                0.992485636     -10.5694222
7.434                0.992487773     -10.5948082
7.436                0.992489956     -10.6201758
7.438                0.992492185     -10.6455252
7.44                  0.99249446     -10.6708564
7.442                0.992493497     -10.6961925
7.444                0.992492544     -10.7215163
7.446                  0.9924916      -10.746828
7.448                0.992490665     -10.7721275
7.45                 0.992486621     -10.7974128
7.452                0.992482656      -10.822678
7.454                0.992478769     -10.8479233
7.456                0.992474958     -10.8731489
7.458                0.992467725     -10.8983593
7.46                  0.99246087     -10.9235469
7.462                 0.99245439     -10.9487118
7.464                0.992448282     -10.9738541
7.466                0.992438933     -10.9989623
7.468                0.992429768     -11.0240579
7.47                 0.992420787     -11.0491409
7.472                0.992411989     -11.0742114
7.474                0.992401363     -11.0992225
7.476                0.992390346     -11.1242233
7.478                 0.99237894     -11.1492139
7.48                 0.992367148     -11.1741941
7.482                0.992354708     -11.1991198
7.484                0.992341813      -11.224028
7.486                0.992328464     -11.2489188
7.488                0.992314666     -11.2737923
7.49                 0.992299974     -11.2986123
7.492                0.992285153     -11.3234178
7.494                0.992270203     -11.3482089
7.496                0.992255127     -11.3729856
7.498                 0.99223878     -11.3976856
7.5                  0.992222387     -11.4223777
7.502                0.992205948     -11.4470619
7.504                0.992189464     -11.4717382
7.506                0.992171764     -11.4963303
7.508                0.992154058     -11.5209087
7.51                 0.992136344     -11.5454735
7.512                0.992118623     -11.5700248
7.514                0.992099548     -11.5945036
7.516                0.992080761     -11.6189623
7.518                 0.99206226     -11.6434009
7.52                 0.992044043     -11.6678196
7.522                 0.99202444     -11.6921629
7.524                0.992005118     -11.7164937
7.526                0.991986076      -11.740812
7.528                0.991967312     -11.7651178
7.53                 0.991948354     -11.7893316
7.532                0.991929129     -11.8135403
7.534                0.991909639     -11.8377439
7.536                0.991889884     -11.8619424
7.538                0.991871502      -11.886051
7.54                 0.991852555     -11.9101504
7.542                0.991833047     -11.9342405
7.544                 0.99181298     -11.9583213
7.546                0.991794609     -11.9823327
7.548                0.991775904     -12.0063341
7.55                 0.991756865     -12.0303256
7.552                0.991737496     -12.0543071
7.554                0.991719371     -12.0782167
7.556                0.991701109     -12.1021215
7.558                 0.99168271     -12.1260217
7.56                 0.991664174     -12.1499173
7.562                0.991646692     -12.1737446
7.564                0.991629157     -12.1975635
7.566                0.991611569      -12.221374
7.568                0.991593928     -12.2451763
7.57                 0.991577084     -12.2689315
7.572                0.991560475     -12.2926698
7.574                0.991544101     -12.3163911
7.576                 0.99152796     -12.3400955
7.578                0.991512267     -12.3637756
7.58                 0.991496946     -12.3874424
7.582                0.991481995     -12.4110959
7.584                0.991467413      -12.434736
7.586                0.991454091     -12.4583453
7.588                0.991440677     -12.4819512
7.59                 0.991427172     -12.5055537
7.592                0.991413575     -12.5291528
7.594                0.991402866     -12.5527257
7.596                 0.99139158     -12.5762951
7.598                0.991379721      -12.599861
7.6                   0.99136729     -12.6234232
7.602                0.991358448     -12.6469862
7.604                0.991349101      -12.670543
7.606                0.991339252     -12.6940936
7.608                0.991328904      -12.717638
7.61                 0.991321658     -12.7411989
7.612                0.991314181     -12.7647571
7.614                0.991306474     -12.7883124
7.616                0.991298539     -12.8118649
7.618                0.991293057     -12.8354453
7.62                 0.991287529     -12.8590214
7.622                0.991281954     -12.8825932
7.624                0.991276333     -12.9061606
7.626                0.991272498     -12.9297853
7.628                0.991268915     -12.9533967
7.63                 0.991265582     -12.9769949
7.632                0.991262499     -13.0005801
7.634                0.991260497     -13.0242477
7.636                0.991258981     -13.0479015
7.638                0.991257948     -13.0715416
7.64                 0.991257397     -13.0951678
7.642                0.991258238     -13.1188827
7.644                0.991259211     -13.1425934
7.646                0.991260317     -13.1662999
7.648                0.991261555     -13.1900021
7.65                  0.99126564     -13.2137934
7.652                0.991269246     -13.2375837
7.654                0.991272377     -13.2613731
7.656                0.991275032     -13.2851614
7.658                0.991281576     -13.3090651
7.66                 0.991287518     -13.3329648
7.662                0.991292859     -13.3568605
7.664                0.991297601     -13.3807521
7.666                0.991305845     -13.4047792
7.668                0.991313773     -13.4288039
7.67                 0.991321384     -13.4528261
7.672                 0.99132868     -13.4768459
7.674                0.991338409     -13.5010144
7.676                0.991348118     -13.5251809
7.678                0.991357806     -13.5493454
7.68                 0.991367473     -13.5735079
7.682                0.991378446     -13.5978377
7.684                0.991389735     -13.6221584
7.686                0.991401339     -13.6464699
7.688                0.991413257     -13.6707723
7.69                 0.991425408     -13.6952703
7.692                0.991438172     -13.7197554
7.694                0.991451545     -13.7442278
7.696                0.991465526     -13.7686872
7.698                0.991479554     -13.7933498
7.7                  0.991493957     -13.8180066
7.702                0.991508734     -13.8426576
7.704                0.991523886     -13.8673029
7.706                0.991540319     -13.8921444
7.708                0.991556452     -13.9169853
7.71                 0.991572287     -13.9418258
7.712                0.991587825     -13.9666656
7.714                0.991605964      -13.991715
7.716                0.991623466     -14.0167614
7.718                0.991640332     -14.0418048
7.72                 0.991656565      -14.066845
7.722                0.991675285     -14.0921104
7.724                0.991693584     -14.1173727
7.726                0.991711464     -14.1426317
7.728                0.991728925     -14.1678874
7.73                 0.991747639     -14.1933729
7.732                0.991766321     -14.2188569
7.734                0.991784971     -14.2443395
7.736                 0.99180359     -14.2698206
7.738                0.991821984     -14.2955392
7.74                 0.991840749     -14.3212521
7.742                0.991859885     -14.3469594
7.744                0.991879391     -14.3726609
7.746                0.991897307     -14.3986102
7.748                0.991915941      -14.424549
7.75                  0.99193529     -14.4504772
7.752                0.991955353     -14.4763949
7.754                0.991973313     -14.5025609
7.756                0.991991867     -14.5287201
7.758                0.992011014     -14.5548727
7.76                 0.992030752     -14.5810184
7.762                0.992049459     -14.6074028
7.764                0.992068081     -14.6337862
7.766                0.992086616     -14.6601686
7.768                0.992105067     -14.6865499
7.77                 0.992124138     -14.7131675
7.772                0.992142581      -14.739783
7.774                0.992160398     -14.7663963
7.776                0.992177591     -14.7930072
7.778                0.992195826     -14.8198586
7.78                 0.992213497     -14.8467065
7.782                0.992230605     -14.8735508
7.784                0.992247152     -14.9003914
7.786                0.992263716     -14.9274755
7.788                0.992280143      -14.954558
7.79                 0.992296432     -14.9816387
7.792                0.992312585     -15.0087176
