! TOUCHSTONE file generated by CST DESIGN STUDIO
! Date and time: Mon Feb 10 16:53:59 2025
! Project name: C:\Work\MatlabApps\UnitCellType2OptimizationMatlab\CST\unitcell.cst
! Tree item: Tasks\Sweep1\SPara1\S-Parameters
! Header version: 2024
! Port assignment regex: !\s*Touchstone port\s*([0-9]+)\s*=\s*(CST MWS port|CST DES external port|CST DES block port)\s*(.+)\s* \(\"(.*)\"\)(\s*mode\s*([0-9]+))?.*
! Touchstone port assignment:
! Touchstone port 1 = CST DES external port 1 ("")
# GHz S MA R 50
7                    0.995159739     -13.0576134
7.002                0.995150902     -13.0766464
7.004                0.995142051     -13.0956798
7.006                0.995133187     -13.1147137
7.008                 0.99512431      -13.133748
7.01                  0.99511444     -13.1528494
7.012                0.995104551     -13.1719515
7.014                0.995094645     -13.1910543
7.016                 0.99508472     -13.2101577
7.018                0.995073847     -13.2293207
7.02                 0.995062955     -13.2484841
7.022                0.995052044      -13.267648
7.024                0.995041114     -13.2868122
7.026                0.995029325     -13.3060319
7.028                 0.99501752      -13.325252
7.03                 0.995005698     -13.3444725
7.032                 0.99499386     -13.3636933
7.034                0.994981253     -13.3829635
7.036                0.994968628     -13.4022344
7.038                0.994955985     -13.4215061
7.04                 0.994943324     -13.4407786
7.042                0.994930035     -13.4600975
7.044                0.994916724     -13.4794173
7.046                0.994903392      -13.498738
7.048                0.994890037     -13.5180596
7.05                 0.994876178     -13.5374263
7.052                0.994862297     -13.5567937
7.054                0.994848397     -13.5761618
7.056                0.994834475     -13.5955307
7.058                0.994820124     -13.6149448
7.06                 0.994805754     -13.6343598
7.062                0.994791366     -13.6537755
7.064                 0.99477696     -13.6731921
7.066                0.994762199     -13.6926559
7.068                0.994747418     -13.7121207
7.07                 0.994732616     -13.7315867
7.072                0.994717794     -13.7510538
7.074                0.994702707     -13.7705641
7.076                0.994687598     -13.7900755
7.078                0.994672467     -13.8095879
7.08                 0.994657314     -13.8291014
7.082                 0.99464199     -13.8486574
7.084                0.994626646     -13.8682144
7.086                0.994611283     -13.8877723
7.088                  0.9945959     -13.9073311
7.09                 0.994580491     -13.9269313
7.092                0.994565062     -13.9465327
7.094                0.994549616     -13.9661353
7.096                0.994534151     -13.9857391
7.098                0.994518771     -14.0053868
7.1                  0.994503371      -14.025036
7.102                 0.99448795     -14.0446865
7.104                0.994472508     -14.0643385
7.106                0.994457304       -14.08404
7.108                0.994442079     -14.1037427
7.11                 0.994426834     -14.1234466
7.112                 0.99441157     -14.1431518
7.114                0.994396626     -14.1629104
7.116                0.994381666     -14.1826701
7.118                 0.99436669      -14.202431
7.12                 0.994351697     -14.2221931
7.122                0.994337077      -14.242014
7.124                 0.99432244     -14.2618363
7.126                0.994307787     -14.2816602
7.128                0.994293118     -14.3014855
7.13                  0.99427887     -14.3213727
7.132                0.994264604     -14.3412614
7.134                0.994250321     -14.3611516
7.136                0.994236022     -14.3810434
7.138                0.994222196     -14.4010017
7.14                 0.994208356     -14.4209614
7.142                0.994194502     -14.4409224
7.144                0.994180632     -14.4608848
7.146                0.994167311     -14.4809176
7.148                0.994153977     -14.5009519
7.15                 0.994140632     -14.5209877
7.152                0.994127274     -14.5410249
7.154                0.994114561     -14.5611362
7.156                0.994101834     -14.5812492
7.158                0.994089095     -14.6013638
7.16                 0.994076344     -14.6214802
7.162                0.994064298     -14.6416774
7.164                0.994052239     -14.6618761
7.166                0.994040168     -14.6820764
7.168                0.994028085     -14.7022782
7.17                 0.994016774     -14.7225721
7.172                0.994005453     -14.7428674
7.174                0.993994124     -14.7631641
7.176                0.993982787     -14.7834622
7.178                0.993972228     -14.8038595
7.18                 0.993961663     -14.8242584
7.182                0.993951092     -14.8446589
7.184                0.993940514     -14.8650609
7.186                0.993930662     -14.8855708
7.188                0.993920804     -14.9060824
7.19                 0.993910939     -14.9265957
7.192                0.993901067     -14.9471107
7.194                0.993891902     -14.9677373
7.196                0.993882732     -14.9883655
7.198                0.993873556     -15.0089952
7.2                  0.993864374     -15.0296264
7.202                0.993855885     -15.0503749
7.204                0.993847394     -15.0711249
7.206                  0.9938389     -15.0918763
7.208                0.993830403     -15.1126292
7.21                  0.99382256     -15.1335087
7.212                0.993814715     -15.1543898
7.214                0.993806869     -15.1752725
7.216                 0.99379902     -15.1961567
7.218                0.993791874     -15.2171687
7.22                 0.993784725     -15.2381822
7.222                0.993777574     -15.2591972
7.224                0.993770422     -15.2802136
7.226                 0.99376393     -15.3013683
7.228                0.993757439     -15.3225242
7.23                 0.993750948     -15.3436814
7.232                0.993744457     -15.3648398
7.234                0.993738564     -15.3861462
7.236                0.993732675     -15.4074538
7.238                0.993726788     -15.4287629
7.24                 0.993720903     -15.4500732
7.242                0.993715523     -15.4715374
7.244                0.993710145     -15.4930031
7.246                0.993704768     -15.5144703
7.248                0.993699394      -15.535939
7.25                  0.99369443     -15.5575669
7.252                0.993689467     -15.5791962
7.254                0.993684506     -15.6008269
7.256                0.993679547     -15.6224591
7.258                0.993674892     -15.6442514
7.26                 0.993670241      -15.666045
7.262                0.993665593     -15.6878398
7.264                0.993660949     -15.7096358
7.266                 0.99365655     -15.7315958
7.268                0.993652156     -15.7535571
7.27                 0.993647766     -15.7755197
7.272                 0.99364338     -15.7974835
7.274                0.993639171     -15.8196168
7.276                0.993634966     -15.8417513
7.278                0.993630763     -15.8638871
7.28                 0.993626563      -15.886024
7.282                0.993622495     -15.9083328
7.284                0.993618431     -15.9306427
7.286                0.993614369     -15.9529535
7.288                 0.99361031     -15.9752654
7.29                 0.993606311     -15.9977526
7.292                0.993602316     -16.0202407
7.294                0.993598325     -16.0427298
7.296                0.993594338       -16.06522
7.298                0.993590276     -16.0878939
7.3                  0.993586217      -16.110569
7.302                0.993582161     -16.1332453
7.304                0.993578108     -16.1559228
7.306                0.993573868     -16.1787808
7.308                0.993569628       -16.20164
7.31                  0.99356539     -16.2245003
7.312                0.993561151     -16.2473619
7.314                0.993556596     -16.2704065
7.316                 0.99355204     -16.2934521
7.318                0.993547485     -16.3164987
7.32                  0.99354293     -16.3395463
7.322                0.993537984     -16.3627744
7.324                0.993533039     -16.3860034
7.326                0.993528094     -16.4092335
7.328                0.993523149     -16.4324645
7.33                 0.993517762     -16.4558736
7.332                0.993512374     -16.4792837
7.334                0.993506984     -16.5026948
7.336                0.993501593      -16.526107
7.338                0.993495728     -16.5496978
7.34                  0.99348986     -16.5732896
7.342                0.993483988     -16.5968822
7.344                0.993478113     -16.6204756
7.346                0.993471721     -16.6442487
7.348                0.993465325     -16.6680226
7.35                 0.993458925     -16.6917973
7.352                0.993452521     -16.7155728
7.354                0.993445524     -16.7395301
7.356                 0.99343852     -16.7634885
7.358                0.993431512     -16.7874478
7.36                 0.993424498     -16.8114082
7.362                0.993416809     -16.8355461
7.364                0.993409111     -16.8596851
7.366                0.993401405     -16.8838252
7.368                0.993393691     -16.9079664
7.37                  0.99338521     -16.9322854
7.372                0.993376719     -16.9566054
7.374                0.993368217     -16.9809263
7.376                0.993359706     -17.0052481
7.378                0.993350372     -17.0297432
7.38                 0.993341027      -17.054239
7.382                0.993331672     -17.0787358
7.384                0.993322306     -17.1032335
7.386                0.993312108     -17.1278974
7.388                0.993301898     -17.1525623
7.39                 0.993291676      -17.177228
7.392                0.993281441     -17.2018948
7.394                0.993270405     -17.2267265
7.396                0.993259354     -17.2515591
7.398                0.993248288     -17.2763925
7.4                  0.993237207     -17.3012269
7.402                0.993225336     -17.3262256
7.404                 0.99321345     -17.3512252
7.406                0.993201547     -17.3762256
7.408                0.993189628     -17.4012268
7.41                 0.993176917     -17.4263921
7.412                0.993164188     -17.4515583
7.414                0.993151443     -17.4767254
7.416                0.993138681     -17.5018936
7.418                0.993125124     -17.5272224
7.42                 0.993111548     -17.5525524
7.422                0.993097953     -17.5778836
7.424                0.993084339     -17.6032159
7.426                0.993069897     -17.6287064
7.428                0.993055434     -17.6541981
7.43                 0.993040949     -17.6796909
7.432                0.993026444     -17.7051848
7.434                 0.99301111      -17.730833
7.436                0.992995756     -17.7564822
7.438                0.992980379     -17.7821325
7.44                 0.992964981     -17.8077838
7.442                0.992948799     -17.8335876
7.444                0.992932595     -17.8593925
7.446                0.992916369     -17.8851985
7.448                 0.99290012     -17.9110057
7.45                 0.992883156      -17.936959
7.452                0.992866168     -17.9629134
7.454                0.992849155      -17.988869
7.456                0.992832119     -18.0148258
7.458                0.992814471     -18.0409276
7.46                 0.992796798     -18.0670306
7.462                  0.9927791     -18.0931346
7.464                0.992761378     -18.1192398
7.466                0.992743123     -18.1454937
7.468                0.992724843     -18.1717489
7.47                 0.992706538     -18.1980052
7.472                0.992688209     -18.2242628
7.474                0.992669389     -18.2506687
7.476                0.992650544     -18.2770761
7.478                0.992631673     -18.3034849
7.48                 0.992612777     -18.3298952
7.482                 0.99259343      -18.356455
7.484                0.992574057     -18.3830164
7.486                0.992554657     -18.4095794
7.488                0.992535231     -18.4361439
7.49                 0.992515361     -18.4628587
7.492                0.992495466     -18.4895749
7.494                0.992475543     -18.5162926
7.496                0.992455594     -18.5430119
7.498                0.992435283     -18.5698771
7.5                  0.992414945     -18.5967439
7.502                0.992394582     -18.6236123
7.504                0.992374192     -18.6504822
7.506                0.992353517     -18.6775007
7.508                0.992332816     -18.7045208
7.51                 0.992312088     -18.7315425
7.512                0.992291333     -18.7585658
7.514                0.992270409       -18.78574
7.516                0.992249458     -18.8129157
7.518                0.992228479      -18.840093
7.52                 0.992207474     -18.8672719
7.522                0.992186408      -18.894604
7.524                0.992165316     -18.9219377
7.526                0.992144199     -18.9492731
7.528                0.992123055     -18.9766101
7.53                 0.992101915     -19.0041057
7.532                0.992080749     -19.0316031
7.534                0.992059559     -19.0591025
7.536                0.992038345     -19.0866038
7.538                0.992017174     -19.1142658
7.54                 0.991995979     -19.1419299
7.542                0.991974759      -19.169596
7.544                0.991953514     -19.1972642
7.546                0.991932342     -19.2251036
7.548                0.991911145      -19.252945
7.55                 0.991889924     -19.2807885
7.552                0.991868679      -19.308634
7.554                0.991847529     -19.3366496
7.556                0.991826355     -19.3646673
7.558                0.991805158     -19.3926871
7.56                 0.991783939     -19.4207089
7.562                0.991762886     -19.4489054
7.564                0.991741811     -19.4771039
7.566                0.991720713     -19.5053046
7.568                0.991699591     -19.5335074
7.57                 0.991678736     -19.5618856
7.572                0.991657857     -19.5902659
7.574                0.991636955     -19.6186482
7.576                 0.99161603     -19.6470326
7.578                0.991595426     -19.6756068
7.58                   0.9915748     -19.7041832
7.582                0.991554151     -19.7327616
7.584                0.991533481      -19.761342
7.586                0.991513199     -19.7901172
7.588                0.991492897     -19.8188946
7.59                 0.991472576     -19.8476742
7.592                0.991452234     -19.8764561
7.594                0.991432271     -19.9054399
7.596                 0.99141229     -19.9344261
7.598                 0.99139229     -19.9634148
7.6                  0.991372272     -19.9924059
7.602                0.991352596     -20.0216082
7.604                0.991332903      -20.050813
7.606                0.991313192     -20.0800202
7.608                0.991293463     -20.1092298
7.61                 0.991274052     -20.1386566
7.612                0.991254623     -20.1680857
7.614                0.991235178     -20.1975172
7.616                0.991215716     -20.2269511
7.618                0.991196558     -20.2566067
7.62                 0.991177384     -20.2862647
7.622                0.991158193      -20.315925
7.624                0.991138985     -20.3455876
7.626                0.991120115     -20.3754796
7.628                0.991101227     -20.4053739
7.63                 0.991082322     -20.4352704
7.632                0.991063399     -20.4651691
7.634                0.991044823     -20.4953009
7.636                0.991026229     -20.5254349
7.638                0.991007619      -20.555571
7.64                 0.990988992     -20.5857093
7.642                0.990970742      -20.616093
7.644                0.990952478      -20.646479
7.646                0.990934199     -20.6768672
7.648                0.990915905     -20.7072577
7.65                 0.990897937     -20.7379005
7.652                0.990879956     -20.7685456
7.654                0.990861961     -20.7991932
7.656                0.990843954     -20.8298433
7.658                0.990826174     -20.8607571
7.66                 0.990808382     -20.8916733
7.662                0.990790577      -20.922592
7.664                0.990772759     -20.9535131
7.666                0.990755097     -20.9847043
7.668                0.990737423     -21.0158979
7.67                 0.990719735     -21.0470937
7.672                0.990702035      -21.078292
7.674                0.990684394     -21.1097642
7.676                 0.99066674     -21.1412386
7.678                0.990649072     -21.1727152
7.68                  0.99063139      -21.204194
7.682                0.990613741     -21.2359505
7.684                0.990596076     -21.2677091
7.686                0.990578396     -21.2994697
7.688                0.990560701     -21.3312324
7.69                 0.990542984     -21.3632796
7.692                 0.99052525     -21.3953289
7.694                0.990507499       -21.42738
7.696                0.990489732     -21.4594331
7.698                0.990471943     -21.4917798
7.7                  0.990454138     -21.5241285
7.702                0.990436317     -21.5564792
7.704                 0.99041848     -21.5888318
7.706                0.990400527      -21.621482
7.708                0.990382559     -21.6541343
7.71                 0.990364577     -21.6867887
7.712                 0.99034658     -21.7194453
7.714                0.990328362     -21.7524065
7.716                0.990310129     -21.7853699
7.718                0.990291881     -21.8183355
7.72                 0.990273618     -21.8513034
7.722                0.990255029     -21.8845809
7.724                0.990236423     -21.9178605
7.726                0.990217801     -21.9511422
7.728                0.990199162     -21.9844259
7.73                 0.990180063     -22.0180218
7.732                0.990160945     -22.0516196
7.734                0.990141809     -22.0852193
7.736                0.990122653     -22.1188208
7.738                0.990102983     -22.1527374
7.74                 0.990083291     -22.1866556
7.742                0.990063578     -22.2205756
7.744                0.990043842     -22.2544973
7.746                0.990023563     -22.2887341
7.748                0.990003258     -22.3229725
7.75                 0.989982929     -22.3572124
7.752                0.989962575     -22.3914539
7.754                0.989941654     -22.4260128
7.756                0.989920707     -22.4605733
7.758                0.989899734     -22.4951353
7.76                 0.989878734     -22.5296989
7.762                0.989857134     -22.5645872
7.764                0.989835508     -22.5994774
7.766                0.989813856     -22.6343692
7.768                0.989792179     -22.6692628
7.77                 0.989769826     -22.7044872
7.772                0.989747447     -22.7397134
7.774                0.989725042     -22.7749416
7.776                0.989702611     -22.8101716
7.778                0.989679377     -22.8457292
7.78                 0.989656115     -22.8812886
7.782                0.989632824     -22.9168499
7.784                0.989609505     -22.9524129
7.786                0.989585312     -22.9883115
7.788                0.989561088     -23.0242116
7.79                 0.989536832     -23.0601134
7.792                0.989512543     -23.0960168
