! TOUCHSTONE file generated by CST DESIGN STUDIO
! Date and time: Mon Feb 10 16:54:03 2025
! Project name: C:\Work\MatlabApps\UnitCellType2OptimizationMatlab\CST\unitcell.cst
! Tree item: Tasks\Sweep1\SPara1\S-Parameters
! Header version: 2024
! Port assignment regex: !\s*Touchstone port\s*([0-9]+)\s*=\s*(CST MWS port|CST DES external port|CST DES block port)\s*(.+)\s* \(\"(.*)\"\)(\s*mode\s*([0-9]+))?.*
! Touchstone port assignment:
! Touchstone port 1 = CST DES external port 1 ("")
# GHz S MA R 50
7                    0.994463507     -11.8061275
7.002                  0.9944561      -11.824854
7.004                0.994448686     -11.8435802
7.006                0.994441263     -11.8623061
7.008                0.994433833     -11.8810318
7.01                 0.994424697     -11.8997937
7.012                0.994415503     -11.9185551
7.014                 0.99440625      -11.937316
7.016                 0.99439694     -11.9560765
7.018                0.994386001     -11.9748648
7.02                 0.994375043     -11.9936503
7.022                0.994364065     -12.0124332
7.024                0.994353069     -12.0312133
7.026                0.994340456     -12.0500137
7.028                0.994327862     -12.0688122
7.03                 0.994315288     -12.0876089
7.032                0.994302734     -12.1064038
7.034                0.994288735     -12.1252036
7.036                0.994274703     -12.1440037
7.038                0.994260638     -12.1628043
7.04                 0.994246539     -12.1816052
7.042                0.994231337     -12.2004026
7.044                0.994216066     -12.2191996
7.046                0.994200725     -12.2379962
7.048                0.994185316     -12.2567925
7.05                 0.994168989     -12.2755836
7.052                 0.99415264      -12.294373
7.054                 0.99413627     -12.3131606
7.056                0.994119879     -12.3319466
7.058                0.994102643     -12.3507254
7.06                 0.994085401     -12.3695039
7.062                0.994068152     -12.3882822
7.064                0.994050896     -12.4070603
7.066                0.994032995     -12.4258281
7.068                0.994015039     -12.4445967
7.07                 0.993997028     -12.4633661
7.072                0.993978962     -12.4821363
7.074                0.993960468     -12.5008926
7.076                0.993941927      -12.519648
7.078                0.993923338     -12.5384025
7.08                 0.993904701     -12.5571561
7.082                0.993885728      -12.575896
7.084                0.993866751     -12.5946348
7.086                0.993847773     -12.6133725
7.088                0.993828793     -12.6321092
7.09                 0.993809667     -12.6508274
7.092                0.993790514     -12.6695464
7.094                0.993771336     -12.6882662
7.096                0.993752131     -12.7069868
7.098                0.993733087     -12.7256883
7.1                  0.993713975     -12.7443905
7.102                0.993694793     -12.7630935
7.104                0.993675543     -12.7817971
7.106                0.993656718     -12.8004899
7.108                0.993637856     -12.8191818
7.11                 0.993618955     -12.8378728
7.112                0.993600016     -12.8565629
7.114                0.993581596     -12.8752489
7.116                0.993563172     -12.8939346
7.118                0.993544743       -12.91262
7.12                 0.993526311     -12.9313051
7.122                0.993508536     -12.9499908
7.124                0.993490721     -12.9686779
7.126                0.993472866     -12.9873663
7.128                0.993454971     -13.0060561
7.13                 0.993437924     -13.0247515
7.132                0.993420819     -13.0434474
7.134                0.993403659     -13.0621438
7.136                0.993386442     -13.0808408
7.138                 0.99337015     -13.0995527
7.14                 0.993353842     -13.1182642
7.142                0.993337517     -13.1369753
7.144                0.993321177     -13.1556861
7.146                0.993305827     -13.1744173
7.148                0.993290463     -13.1931493
7.15                 0.993275087     -13.2118822
7.152                0.993259699      -13.230616
7.154                0.993245502     -13.2493738
7.156                0.993231258     -13.2681328
7.158                0.993216965     -13.2868932
7.16                 0.993202623     -13.3056548
7.162                0.993189635      -13.324452
7.164                0.993176614     -13.3432489
7.166                 0.99316356     -13.3620455
7.168                0.993150472     -13.3808418
7.17                 0.993138783     -13.3996907
7.172                0.993127102      -13.418539
7.174                0.993115431     -13.4373869
7.176                0.993103769     -13.4562342
7.178                0.993093534     -13.4751438
7.18                  0.99308329     -13.4940546
7.182                0.993073035     -13.5129666
7.184                 0.99306277     -13.5318797
7.186                0.993053983     -13.5508667
7.188                0.993045154     -13.5698549
7.19                 0.993036282     -13.5888443
7.192                0.993027369     -13.6078349
7.194                0.993019929     -13.6269097
7.196                0.993012475     -13.6459846
7.198                0.993005006     -13.6650595
7.2                  0.992997523     -13.6841345
7.202                0.992991422     -13.7033036
7.204                 0.99298533     -13.7224734
7.206                0.992979247     -13.7416437
7.208                0.992973173     -13.7608146
7.21                 0.992968436     -13.7800903
7.212                0.992963687     -13.7993672
7.214                0.992958925     -13.8186455
7.216                0.992954149     -13.8379249
7.218                0.992950797     -13.8573151
7.22                 0.992947434     -13.8767052
7.222                0.992944059     -13.8960955
7.224                0.992940674     -13.9154858
7.226                 0.99293861     -13.9350032
7.228                0.992936575     -13.9545199
7.23                 0.992934568     -13.9740358
7.232                0.992932589     -13.9935509
7.234                0.992931814      -14.013206
7.236                0.992931062     -14.0328616
7.238                0.992930334     -14.0525179
7.24                  0.99292963     -14.0721748
7.242                0.992930077     -14.0919797
7.244                0.992930507     -14.1117858
7.246                 0.99293092     -14.1315932
7.248                0.992931317     -14.1514019
7.25                 0.992932774     -14.1713687
7.252                0.992934223     -14.1913356
7.254                0.992935663     -14.2113028
7.256                0.992937095     -14.2312702
7.258                0.992939366     -14.2514012
7.26                 0.992941661     -14.2715324
7.262                 0.99294398     -14.2916638
7.264                0.992946323     -14.3117952
7.266                0.992949348      -14.332095
7.268                0.992952391     -14.3523957
7.27                 0.992955451     -14.3726973
7.272                0.992958528     -14.3929998
7.274                0.992962185     -14.4134773
7.276                 0.99296585      -14.433955
7.278                0.992969525     -14.4544329
7.28                 0.992973209     -14.4749112
7.282                0.992977354     -14.4955707
7.284                0.992981537     -14.5162293
7.286                0.992985758     -14.5368872
7.288                0.992990018     -14.5575442
7.29                 0.992994571     -14.5783879
7.292                0.992999167     -14.5992317
7.294                0.993003807     -14.6200754
7.296                 0.99300849     -14.6409191
7.298                0.993013323      -14.661957
7.3                  0.993018157     -14.6829959
7.302                0.993022991     -14.7040359
7.304                0.993027827      -14.725077
7.306                0.993032712     -14.7463111
7.308                0.993037586     -14.7675454
7.31                 0.993042448     -14.7887801
7.312                  0.9930473     -14.8100151
7.314                0.993051947     -14.8314475
7.316                0.993056614     -14.8528797
7.318                0.993061299     -14.8743116
7.32                 0.993066004     -14.8957433
7.322                0.993070301     -14.9173689
7.324                0.993074624     -14.9389951
7.326                0.993078972     -14.9606217
7.328                0.993083346     -14.9822488
7.33                 0.993087192      -15.004065
7.332                 0.99309105     -15.0258815
7.334                0.993094922     -15.0476984
7.336                0.993098808     -15.0695157
7.338                0.993102062     -15.0915228
7.34                 0.993105347     -15.1135291
7.342                 0.99310866     -15.1355347
7.344                0.993112002     -15.1575396
7.346                0.993114578     -15.1797343
7.348                0.993117195     -15.2019285
7.35                 0.993119853     -15.2241222
7.352                0.993122552     -15.2463155
7.354                0.993124392     -15.2686976
7.356                0.993126237     -15.2910805
7.358                0.993128086     -15.3134641
7.36                 0.993129939     -15.3358484
7.362                0.993130891     -15.3584154
7.364                 0.99313182     -15.3809828
7.366                0.993132723     -15.4035506
7.368                0.993133603      -15.426119
7.37                 0.993133427     -15.4488697
7.372                0.993133248       -15.47162
7.374                0.993133064     -15.4943701
7.376                0.993132877     -15.5171199
7.378                0.993131449     -15.5400447
7.38                 0.993130034     -15.5629696
7.382                0.993128632     -15.5858947
7.384                0.993127243     -15.6088199
7.386                0.993124536     -15.6319085
7.388                0.993121832     -15.6549974
7.39                 0.993119131     -15.6780868
7.392                0.993116434     -15.7011765
7.394                0.993112414     -15.7244249
7.396                0.993108403     -15.7476728
7.398                0.993104401     -15.7709202
7.4                  0.993100407     -15.7941672
7.402                0.993095045     -15.8175693
7.404                0.993089706     -15.8409708
7.406                0.993084392     -15.8643716
7.408                0.993079101     -15.8877717
7.41                 0.993072435     -15.9113217
7.412                0.993065768     -15.9348722
7.414                  0.9930591     -15.9584231
7.416                0.993052431     -15.9819745
7.418                0.993044465      -16.005668
7.42                  0.99303646     -16.0293623
7.422                0.993028416     -16.0530573
7.424                0.993020334      -16.076753
7.426                0.993010937     -16.1005861
7.428                0.993001508     -16.1244192
7.43                 0.992992047     -16.1482522
7.432                0.992982553     -16.1720853
7.434                0.992971679     -16.1960487
7.436                0.992960794     -16.2200121
7.438                0.992949899     -16.2439756
7.44                 0.992938995     -16.2679393
7.442                0.992926703     -16.2920256
7.444                0.992914399     -16.3161125
7.446                0.992902082     -16.3401999
7.448                0.992889753     -16.3642878
7.45                 0.992876113     -16.3884876
7.452                 0.99286246     -16.4126874
7.454                0.992848793      -16.436887
7.456                0.992835114     -16.4610866
7.458                0.992820215     -16.4853939
7.46                  0.99280532     -16.5097004
7.462                0.992790428     -16.5340064
7.464                0.992775541     -16.5583117
7.466                0.992759547     -16.5827234
7.468                0.992743547     -16.6071355
7.47                 0.992727539     -16.6315477
7.472                0.992711525     -16.6559602
7.474                 0.99269456     -16.6804736
7.476                0.992677549      -16.704988
7.478                0.992660491     -16.7295034
7.48                 0.992643387       -16.75402
7.482                0.992625477     -16.7786358
7.484                0.992607512     -16.8032523
7.486                0.992589491     -16.8278694
7.488                0.992571415     -16.8524872
7.49                 0.992552548     -16.8772027
7.492                0.992533647     -16.9019187
7.494                0.992514713     -16.9266351
7.496                0.992495745      -16.951352
7.498                0.992476053     -16.9761594
7.5                  0.992456336     -17.0009676
7.502                0.992436591     -17.0257766
7.504                 0.99241682     -17.0505864
7.506                0.992396429     -17.0754857
7.508                0.992376011     -17.1003854
7.51                 0.992355566     -17.1252854
7.512                0.992335094     -17.1501857
7.514                0.992314148      -17.175176
7.516                0.992293192     -17.2001658
7.518                0.992272226     -17.2251551
7.52                 0.992251251     -17.2501439
7.522                0.992229954      -17.275223
7.524                0.992208649     -17.3003021
7.526                0.992187337     -17.3253813
7.528                0.992166017     -17.3504605
7.53                 0.992144564     -17.3756314
7.532                0.992123068     -17.4008037
7.534                0.992101529     -17.4259772
7.536                0.992079947     -17.4511519
7.538                0.992058432     -17.4764187
7.54                 0.992036851     -17.5016868
7.542                0.992015205     -17.5269563
7.544                0.991993494     -17.5522271
7.546                0.991971943     -17.5775997
7.548                0.991950343     -17.6029733
7.55                 0.991928694     -17.6283479
7.552                0.991906995     -17.6537234
7.554                0.991885483        -17.6792
7.556                0.991863938     -17.7046777
7.558                0.991842359     -17.7301564
7.56                 0.991820748     -17.7556362
7.562                0.991799417      -17.781221
7.564                0.991778057     -17.8068064
7.566                 0.99175667     -17.8323926
7.568                0.991735255     -17.8579794
7.57                 0.991714247     -17.8836734
7.572                0.991693228     -17.9093671
7.574                  0.9916722     -17.9350604
7.576                0.991651161     -17.9607534
7.578                 0.99163061     -17.9865683
7.58                 0.991610061     -18.0123829
7.582                0.991589515     -18.0381971
7.584                0.991568972      -18.064011
7.586                0.991549089     -18.0899509
7.588                0.991529181     -18.1158918
7.59                 0.991509248     -18.1418337
7.592                 0.99148929     -18.1677765
7.594                0.991470149      -18.193852
7.596                0.991450949     -18.2199291
7.598                0.991431691     -18.2460077
7.6                  0.991412376      -18.272088
7.602                0.991393933     -18.2983122
7.604                0.991375438     -18.3245377
7.606                0.991356891     -18.3507644
7.608                0.991338292     -18.3769925
7.61                 0.991320533     -18.4033731
7.612                0.991302745     -18.4297548
7.614                0.991284928     -18.4561376
7.616                0.991267082     -18.4825214
7.618                 0.99125004     -18.5090648
7.62                 0.991232984     -18.5356088
7.622                0.991215913     -18.5621535
7.624                0.991198828     -18.5886989
7.626                0.991182551     -18.6154146
7.628                0.991166279     -18.6421298
7.63                 0.991150013     -18.6688445
7.632                0.991133754     -18.6955588
7.634                0.991118294     -18.7224507
7.636                 0.99110286     -18.7493416
7.638                0.991087452     -18.7762317
7.64                 0.991072068     -18.8031208
7.642                0.991057563     -18.8302005
7.644                0.991043064     -18.8572805
7.646                0.991028571     -18.8843607
7.648                0.991014085     -18.9114411
7.65                 0.991000554      -18.938719
7.652                0.990986988     -18.9659981
7.654                0.990973387     -18.9932786
7.656                0.990959749     -19.0205604
7.658                0.990947075     -19.0480531
7.66                 0.990934357     -19.0755471
7.662                0.990921595     -19.1030422
7.664                0.990908788     -19.1305386
7.666                 0.99089685     -19.1582561
7.668                0.990884893     -19.1859744
7.67                 0.990872915     -19.2136936
7.672                0.990860918     -19.2414137
7.674                 0.99084961     -19.2693628
7.676                0.990838308     -19.2973122
7.678                0.990827009     -19.3252621
7.68                 0.990815715     -19.3532123
7.682                0.990804986     -19.3813991
7.684                0.990794284     -19.4095852
7.686                0.990783611     -19.4377705
7.688                0.990772967     -19.4659551
7.69                 0.990762753     -19.4943871
7.692                0.990752591     -19.5228177
7.694                0.990742479     -19.5512467
7.696                0.990732417     -19.5796741
7.698                0.990722759     -19.6083594
7.7                  0.990713138     -19.6370439
7.702                0.990703555     -19.6657278
7.704                 0.99069401     -19.6944109
7.706                0.990684867     -19.7233551
7.708                0.990675714     -19.7522999
7.71                  0.99066655     -19.7812455
7.712                0.990657376     -19.8101917
7.714                0.990648596     -19.8394067
7.716                0.990639779     -19.8686226
7.718                0.990630925     -19.8978396
7.72                 0.990622035     -19.9270575
7.722                0.990613402     -19.9565518
7.724                0.990604749     -19.9860467
7.726                0.990596076     -20.0155422
7.728                0.990587383     -20.0450382
7.73                 0.990578693     -20.0748156
7.732                0.990570013     -20.1045931
7.734                0.990561346     -20.1343705
7.736                0.990552689      -20.164148
7.738                0.990543823     -20.1942125
7.74                 0.990534998     -20.2242761
7.742                0.990526213     -20.2543386
7.744                0.990517468     -20.2844001
7.746                0.990508342     -20.3147512
7.748                0.990499281     -20.3451004
7.75                 0.990490284     -20.3754475
7.752                0.990481351     -20.4057926
7.754                 0.99047194     -20.4364301
7.756                0.990462586     -20.4670659
7.758                0.990453287     -20.4977002
7.76                 0.990444045     -20.5283329
7.762                0.990434348     -20.5592621
7.764                0.990424656     -20.5901912
7.766                0.990414969     -20.6211203
7.768                0.990405286     -20.6520493
7.77                 0.990395185     -20.6832778
7.772                0.990385044     -20.7145071
7.774                0.990374863      -20.745737
7.776                0.990364642     -20.7769675
7.778                0.990353882      -20.808495
7.78                 0.990343085     -20.8400228
7.782                 0.99033225     -20.8715511
7.784                0.990321378     -20.9030797
7.786                0.990309768     -20.9349133
7.788                0.990298152     -20.9667466
7.79                 0.990286533     -20.9985797
7.792                0.990274908     -21.0304126
