! TOUCHSTONE file generated by CST DESIGN STUDIO
! Date and time: Mon Feb 10 16:49:03 2025
! Project name: C:\Work\MatlabApps\UnitCellType2OptimizationMatlab\CST\unitcell.cst
! Tree item: Tasks\Sweep1\SPara1\S-Parameters
! Header version: 2024
! Port assignment regex: !\s*Touchstone port\s*([0-9]+)\s*=\s*(CST MWS port|CST DES external port|CST DES block port)\s*(.+)\s* \(\"(.*)\"\)(\s*mode\s*([0-9]+))?.*
! Touchstone port assignment:
! Touchstone port 1 = CST DES external port 1 ("")
# GHz S MA R 50
7                    0.992834098     -10.9971382
7.002                0.992789441     -11.0132709
7.004                0.992744524     -11.0293976
7.006                0.992699346     -11.0455185
7.008                0.992653911     -11.0616335
7.01                 0.992646556     -11.0763992
7.012                0.992639213     -11.0911598
7.014                0.992631882     -11.1059153
7.016                0.992624566      -11.120666
7.018                0.992659856     -11.1362303
7.02                 0.992695312     -11.1517942
7.022                0.992730934     -11.1673578
7.024                0.992766722     -11.1829211
7.026                0.992819742     -11.2009089
7.028                0.992872915     -11.2188967
7.03                 0.992926239     -11.2368845
7.032                0.992979716     -11.2548721
7.034                0.993013155     -11.2752374
7.036                0.993046708     -11.2955988
7.038                0.993080377     -11.3159563
7.04                 0.993114162       -11.33631
7.042                0.993104429     -11.3573787
7.044                0.993094683     -11.3784434
7.046                0.993084922     -11.3995043
7.048                0.993075147     -11.4205612
7.05                 0.993029077     -11.4401907
7.052                0.992982769     -11.4598177
7.054                0.992936222     -11.4794422
7.056                0.992889436     -11.4990642
7.058                0.992839725     -11.5161744
7.06                 0.992789736     -11.5332798
7.062                0.992739471     -11.5503808
7.064                0.992688931     -11.5674773
7.066                0.992670825     -11.5828365
7.068                0.992652669     -11.5981907
7.07                 0.992634463       -11.61354
7.072                0.992616205     -11.6288844
7.074                0.992642199     -11.6445511
7.076                0.992668337     -11.6602167
7.078                0.992694619     -11.6758812
7.08                 0.992721046     -11.6915447
7.082                0.992772277     -11.7093857
7.084                0.992823668     -11.7272274
7.086                0.992875219     -11.7450697
7.088                0.992926928     -11.7629129
7.09                 0.992966773     -11.7833027
7.092                0.993006739     -11.8036901
7.094                0.993046824     -11.8240749
7.096                0.993087029     -11.8444573
7.098                0.993086793     -11.8660313
7.1                  0.993086577     -11.8876017
7.102                0.993086383     -11.9091683
7.104                0.993086214     -11.9307313
7.106                 0.99304533     -11.9513218
7.108                0.993004265     -11.9719099
7.11                 0.992963023     -11.9924957
7.112                0.992921601     -12.0130793
7.114                0.992868365     -12.0312533
7.116                0.992814854      -12.049424
7.118                0.992761068     -12.0675915
7.12                 0.992707011     -12.0857556
7.122                0.992678517     -12.1018562
7.124                0.992649914     -12.1179523
7.126                0.992621202     -12.1340439
7.128                0.992592386     -12.1501311
7.13                 0.992607865     -12.1660327
7.132                0.992623453     -12.1819326
7.134                 0.99263915     -12.1978306
7.136                0.992654954     -12.2137269
7.138                0.992702317     -12.2314726
7.14                 0.992749847     -12.2492192
7.142                0.992797541     -12.2669666
7.144                0.992845399     -12.2847149
7.146                0.992890098     -12.3050909
7.148                0.992934924     -12.3254657
7.15                 0.992979875     -12.3458393
7.152                0.993024952     -12.3662117
7.154                0.993034237     -12.3882098
7.156                0.993043571     -12.4102044
7.158                0.993052955     -12.4321958
7.16                 0.993062385     -12.4541838
7.162                0.993028313     -12.4756944
7.164                0.992994118     -12.4972027
7.166                  0.9929598     -12.5187087
7.168                 0.99292536     -12.5402125
7.17                  0.99287068     -12.5595106
7.172                0.992815742     -12.5788061
7.174                0.992760547     -12.5980992
7.176                0.992705097       -12.61739
7.178                  0.9926673     -12.6343782
7.18                 0.992629348     -12.6513624
7.182                0.992591238     -12.6683429
7.184                0.992552973     -12.6853196
7.186                0.992557353     -12.7016057
7.188                0.992561798     -12.7178896
7.19                 0.992566306     -12.7341712
7.192                0.992570879     -12.7504506
7.194                0.992612607     -12.7681854
7.196                0.992654497     -12.7859208
7.198                 0.99269655     -12.8036569
7.2                  0.992738765     -12.8213939
7.202                0.992786702     -12.8417405
7.204                0.992834774      -12.862087
7.206                0.992882981     -12.8824333
7.208                0.992931324     -12.9027794
7.21                 0.992949946      -12.925131
7.212                0.992968634       -12.94748
7.214                 0.99298739     -12.9698263
7.216                0.993006215     -12.9921699
7.218                0.992980462      -13.014559
7.22                 0.992954633     -13.0369456
7.222                0.992928729     -13.0593299
7.224                0.992902751     -13.0817119
7.226                0.992848927     -13.1021854
7.228                0.992794875     -13.1226571
7.23                 0.992740597     -13.1431271
7.232                0.992686094     -13.1635951
7.234                0.992640567     -13.1816186
7.236                 0.99259485      -13.199639
7.238                0.992548942     -13.2176564
7.24                 0.992502848     -13.2356708
7.242                0.992495962     -13.2525233
7.244                0.992489088     -13.2693733
7.246                0.992482229     -13.2862207
7.248                0.992475383     -13.3030657
7.25                 0.992509813     -13.3209141
7.252                0.992544399     -13.3387628
7.254                0.992579137     -13.3566118
7.256                0.992614027     -13.3744609
7.258                0.992663261     -13.3948099
7.26                 0.992712641     -13.4151595
7.262                0.992762168     -13.4355097
7.264                0.992811839     -13.4558604
7.266                0.992838906      -13.478525
7.268                0.992866056     -13.5011876
7.27                 0.992893289     -13.5238482
7.272                0.992920603     -13.5465069
7.274                0.992903968     -13.5697291
7.276                0.992887297     -13.5929489
7.278                0.992870592     -13.6161661
7.28                 0.992853851     -13.6393809
7.282                0.992802718     -13.6610624
7.284                 0.99275139     -13.6827422
7.286                0.992699872     -13.7044204
7.288                0.992648164     -13.7260972
7.29                 0.992596369     -13.7452842
7.292                0.992544365     -13.7644688
7.294                0.992492151     -13.7836512
7.296                0.992439727     -13.8028313
7.298                0.992421524     -13.8204246
7.3                  0.992403283     -13.8380153
7.302                0.992385003     -13.8556035
7.304                0.992366688     -13.8731892
7.306                0.992392246     -13.8912862
7.308                0.992417936     -13.9093828
7.31                 0.992443758     -13.9274792
7.312                0.992469712     -13.9455754
7.314                0.992518165      -13.965968
7.316                0.992566774     -13.9863615
7.318                0.992615538     -14.0067559
7.32                 0.992664458     -14.0271512
7.322                0.992698812     -14.0500882
7.324                0.992733263     -14.0730244
7.326                 0.99276781     -14.0959594
7.328                0.992802456     -14.1188933
7.33                 0.992795438     -14.1428988
7.332                0.992788414     -14.1669019
7.334                0.992781386     -14.1909025
7.336                0.992774354     -14.2149008
7.338                0.992727634     -14.2378035
7.34                 0.992680762     -14.2607047
7.342                0.992633738     -14.2836044
7.344                0.992586561     -14.3065023
7.346                  0.9925301     -14.3269658
7.348                0.992473424     -14.3474276
7.35                 0.992416531     -14.3678878
7.352                0.992359424     -14.3883464
7.354                0.992330072     -14.4068494
7.356                0.992300637     -14.4253499
7.358                0.992271114     -14.4438481
7.36                 0.992241505     -14.4623441
7.362                0.992256677     -14.4808308
7.364                0.992271952     -14.4993167
7.366                0.992287326     -14.5178017
7.368                  0.9923028     -14.5362859
7.37                 0.992348281       -14.55677
7.372                0.992393923     -14.5772551
7.374                0.992439726      -14.597741
7.376                0.992485691     -14.6182279
7.378                0.992525927     -14.6413884
7.38                 0.992566276     -14.6645486
7.382                0.992606737     -14.6877083
7.384                0.992647307     -14.7108677
7.386                0.992650289     -14.7355764
7.388                0.992653292     -14.7602828
7.39                 0.992656317      -14.784987
7.392                0.992659362     -14.8096889
7.394                0.992619153     -14.8337929
7.396                0.992578826     -14.8578951
7.398                0.992538384     -14.8819956
7.4                  0.992497828     -14.9060944
7.402                 0.99243911     -14.9279304
7.404                0.992380183     -14.9497651
7.406                0.992321049     -14.9715986
7.408                0.992261707     -14.9934309
7.41                  0.99222246     -15.0130257
7.412                0.992183086     -15.0326186
7.414                0.992143584     -15.0522095
7.416                0.992103956     -15.0717986
7.418                0.992108133     -15.0908644
7.42                 0.992112372     -15.1099289
7.422                0.992116671     -15.1289922
7.424                0.992121034     -15.1480544
7.426                0.992161682     -15.1687456
7.428                0.992202491     -15.1894374
7.43                 0.992243461     -15.2101298
7.432                0.992284593     -15.2308229
7.434                0.992328986     -15.2542284
7.436                0.992373507     -15.2776343
7.438                0.992418157     -15.3010404
7.44                 0.992462935     -15.3244468
7.442                0.992475569      -15.349829
7.444                0.992488244     -15.3752093
7.446                0.992500961     -15.4005878
7.448                0.992513719     -15.4259644
7.45                 0.992481121     -15.4512717
7.452                0.992448441     -15.4765771
7.454                0.992415681     -15.5018805
7.456                0.992382838     -15.5271818
7.458                0.992323526     -15.5504719
7.46                 0.992264022     -15.5737609
7.462                0.992204326     -15.5970488
7.464                0.992144438     -15.6203357
7.466                0.992096031     -15.6411881
7.468                0.992047466     -15.6620389
7.47                  0.99199874     -15.6828881
7.472                0.991949854      -15.703736
7.474                0.991942159     -15.7235519
7.476                0.991934483     -15.7433664
7.478                0.991926821     -15.7631794
7.48                 0.991919175     -15.7829911
7.482                0.991952955      -15.803991
7.484                0.991986888     -15.8249912
7.486                0.992020973     -15.8459915
7.488                 0.99205521     -15.8669922
7.49                 0.992101951     -15.8906453
7.492                0.992148836     -15.9142989
7.494                0.992195867     -15.9379531
7.496                0.992243039     -15.9616082
7.498                0.992264979     -15.9876066
7.5                  0.992286981     -16.0136036
7.502                0.992309044     -16.0395992
7.504                0.992331169     -16.0655934
7.506                0.992307675     -16.0920749
7.508                0.992284125     -16.1185544
7.51                 0.992260524     -16.1450316
7.512                0.992236873     -16.1715066
7.514                 0.99217925     -16.1963328
7.516                0.992121456     -16.2211577
7.518                0.992063493     -16.2459814
7.52                 0.992005361     -16.2708039
7.522                0.991949317     -16.2930948
7.524                0.991893091     -16.3153847
7.526                0.991836685     -16.3376734
7.528                0.991780099      -16.359961
7.53                  0.99176013     -16.3807429
7.532                0.991740128     -16.4015233
7.534                0.991720094     -16.4223022
7.536                0.991700033     -16.4430798
7.538                0.991724882     -16.4645436
7.54                 0.991749864     -16.4860071
7.542                0.991774979     -16.5074702
7.544                0.991800226      -16.528933
7.546                 0.99184688     -16.5528783
7.548                0.991893694     -16.5768245
7.55                 0.991940666     -16.6007713
7.552                0.991987798     -16.6247187
7.554                0.992017839     -16.6512934
7.556                0.992047961     -16.6778672
7.558                0.992078164     -16.7044401
7.56                 0.992108446     -16.7310122
7.562                0.992094782     -16.7586188
7.564                0.992081093     -16.7862231
7.566                0.992067377     -16.8138251
7.568                0.992053633     -16.8414246
7.57                 0.991999822     -16.8678131
7.572                0.991945867     -16.8942001
7.574                0.991891769     -16.9205857
7.576                0.991837527     -16.9469697
7.578                0.991775744      -16.970843
7.58                  0.99171377     -16.9947152
7.582                0.991651605     -17.0185866
7.584                0.991589251     -17.0424571
7.586                 0.99155743     -17.0644116
7.588                0.991525532     -17.0863647
7.59                 0.991493558     -17.1083164
7.592                0.991461507     -17.1302669
7.594                  0.9914761     -17.1523751
7.596                0.991490798     -17.1744825
7.598                0.991505599      -17.196589
7.6                  0.991520506     -17.2186949
7.602                0.991565087     -17.2430207
7.604                0.991609838      -17.267347
7.606                0.991654759     -17.2916737
7.608                0.991699848     -17.3160012
7.61                 0.991736732     -17.3431562
7.612                0.991773718     -17.3703108
7.614                0.991810805     -17.3974649
7.616                0.991847995     -17.4246187
7.618                0.991844566      -17.453338
7.62                 0.991841129     -17.4820551
7.622                0.991837688     -17.5107699
7.624                0.991834242     -17.5394823
7.626                0.991785944     -17.5674904
7.628                0.991737526     -17.5954964
7.63                 0.991688989     -17.6235005
7.632                0.991640333     -17.6515025
7.634                0.991574398     -17.6771125
7.636                0.991508272     -17.7027217
7.638                0.991441956       -17.72833
7.64                 0.991375451     -17.7539374
7.642                0.991331818     -17.7772807
7.644                0.991288067      -17.800623
7.646                0.991244198     -17.8239641
7.648                0.991200216     -17.8473041
7.65                 0.991202837      -17.870241
7.652                0.991205523     -17.8931766
7.654                0.991208275      -17.916111
7.656                0.991211093     -17.9390441
7.658                0.991251058     -17.9638368
7.66                 0.991291199     -17.9886296
7.662                0.991331514     -18.0134224
7.664                0.991372002     -18.0382153
7.666                0.991414036      -18.065931
7.668                0.991456194     -18.0936466
7.67                 0.991498478     -18.1213622
7.672                0.991540885     -18.1490778
7.674                0.991547963     -18.1788553
7.676                0.991555056     -18.2086306
7.678                0.991562166     -18.2384037
7.68                 0.991569287     -18.2681747
7.682                0.991528553     -18.2978078
7.684                0.991487723     -18.3274384
7.686                0.991446799     -18.3570664
7.688                 0.99140578      -18.386692
7.69                 0.991338198     -18.4141725
7.692                0.991270432     -18.4416517
7.694                0.991202485     -18.4691299
7.696                0.991134358     -18.4966069
7.698                0.991080141     -18.5215709
7.7                  0.991025774     -18.5465338
7.702                0.990971257     -18.5714958
7.704                0.990916591     -18.5964569
7.706                0.990906371     -18.6204644
7.708                0.990896173     -18.6444703
7.71                 0.990885997     -18.6684747
7.712                0.990875844     -18.6924777
7.714                0.990908943     -18.7178936
7.716                 0.99094221     -18.7433088
7.718                0.990975647     -18.7687234
7.72                 0.991009254     -18.7941376
7.722                0.991054357     -18.8224599
7.724                 0.99109961      -18.850782
7.726                0.991145013     -18.8791042
7.728                0.991190564     -18.9074263
7.73                  0.99120762     -18.9382488
7.732                 0.99122471     -18.9690696
7.734                0.991241835     -18.9998885
7.736                0.991258996     -19.0307055
7.738                0.991227191     -19.0619841
7.74                 0.991195308     -19.0932596
7.742                0.991163349     -19.1245321
7.744                0.991131314     -19.1558015
7.746                0.991064172      -19.185275
7.748                0.990996861     -19.2147469
7.75                 0.990929383      -19.244217
7.752                0.990861737     -19.2736853
7.754                0.990798055     -19.3004915
7.756                  0.9907342     -19.3272968
7.758                0.990670172     -19.3541014
7.76                 0.990605972      -19.380905
7.762                0.990582141     -19.4062278
7.764                0.990558289     -19.4315488
7.766                0.990534412     -19.4568681
7.768                 0.99051051     -19.4821857
7.77                 0.990534438     -19.5084002
7.772                0.990558524     -19.5346133
7.774                0.990582764     -19.5608249
7.776                0.990607158     -19.5870351
7.778                0.990652987     -19.6160269
7.78                 0.990698991     -19.6450184
7.782                0.990745169     -19.6740095
7.784                 0.99079152     -19.7030005
7.786                0.990817742     -19.7348507
7.788                0.990844022     -19.7666993
7.79                  0.99087036     -19.7985463
7.792                0.990896752     -19.8303918
