! TOUCHSTONE file generated by CST DESIGN STUDIO
! Date and time: Mon Feb 10 16:49:10 2025
! Project name: C:\Work\MatlabApps\UnitCellType2OptimizationMatlab\CST\unitcell.cst
! Tree item: Tasks\Sweep1\SPara1\S-Parameters
! Header version: 2024
! Port assignment regex: !\s*Touchstone port\s*([0-9]+)\s*=\s*(CST MWS port|CST DES external port|CST DES block port)\s*(.+)\s* \(\"(.*)\"\)(\s*mode\s*([0-9]+))?.*
! Touchstone port assignment:
! Touchstone port 1 = CST DES external port 1 ("")
# GHz S MA R 50
7                    0.985117129     -5.89497434
7.002                0.985151244     -5.92431607
7.004                0.985183014     -5.95357285
7.006                0.985212469     -5.98274549
7.008                0.985239636     -6.01183475
7.01                 0.985253509     -6.03963258
7.012                0.985266548     -6.06731266
7.014                0.985278764     -6.09487636
7.016                 0.98529017     -6.12232489
7.018                0.985309526     -6.14826447
7.02                 0.985329052     -6.17412432
7.022                0.985348748     -6.19990525
7.024                0.985368614     -6.22560802
7.026                0.985413561     -6.25071315
7.028                0.985458258     -6.27576102
7.03                 0.985502708     -6.30075223
7.032                0.985546916     -6.32568729
7.034                0.985614355      -6.3514407
7.036                0.985682014     -6.37711179
7.038                0.985749894     -6.40270145
7.04                 0.985817997     -6.42821063
7.042                 0.98588818      -6.4553723
7.044                  0.9859592     -6.48246187
7.046                0.986031052     -6.50948046
7.048                0.986103728     -6.53642925
7.05                 0.986156286     -6.56460688
7.052                0.986208361     -6.59274719
7.054                0.986259954     -6.62085044
7.056                0.986311066     -6.64891689
7.058                0.986336172     -6.67690609
7.06                 0.986359409     -6.70483751
7.062                  0.9863808      -6.7327116
7.064                0.986400364      -6.7605288
7.066                0.986406087     -6.78708842
7.068                0.986410806     -6.81355366
7.07                 0.986414537     -6.83992566
7.072                 0.98641729      -6.8662055
7.074                0.986427458     -6.89099342
7.076                0.986437804     -6.91570887
7.078                0.986448325     -6.94035254
7.08                 0.986459023     -6.96492509
7.082                0.986494191     -6.98886334
7.084                0.986529278     -7.01275973
7.086                0.986564285     -7.03661465
7.088                0.986599218     -7.06042852
7.09                 0.986658178      -7.0849852
7.092                0.986717097     -7.10948356
7.094                0.986775979     -7.13392413
7.096                0.986834828     -7.15830743
7.098                0.986897846     -7.18431988
7.1                  0.986961516     -7.21026884
7.102                0.987025835     -7.23615503
7.104                0.987090801     -7.26197934
7.106                0.987136626     -7.28910465
7.108                0.987182453     -7.31619525
7.11                 0.987228279     -7.34325146
7.112                0.987274103     -7.37027363
7.114                0.987292855     -7.39731959
7.116                 0.98731023     -7.42432647
7.118                 0.98732624     -7.45129448
7.12                 0.987340895     -7.47822375
7.122                  0.9873401     -7.50394617
7.124                0.987338208     -7.52959517
7.126                0.987335232     -7.55517155
7.128                0.987331183     -7.58067597
7.13                 0.987333233     -7.60466928
7.132                0.987335365     -7.62859607
7.134                0.987337579     -7.65245697
7.136                0.987339874     -7.67625258
7.138                0.987365945      -7.6993328
7.14                 0.987392105     -7.72237877
7.142                0.987418353     -7.74539084
7.144                 0.98744469      -7.7683693
7.146                0.987496066     -7.79198841
7.148                 0.98754729     -7.81556788
7.15                 0.987598365       -7.839108
7.152                0.987649295     -7.86260911
7.154                0.987707094      -7.8877034
7.156                0.987765306     -7.91274404
7.158                0.987823931     -7.93773169
7.16                 0.987882968     -7.96266711
7.162                0.987924742     -7.98899518
7.164                0.987966787      -8.0152893
7.166                  0.9880091     -8.04154993
7.168                0.988051679     -8.06777749
7.17                 0.988066412     -8.09417557
7.172                0.988080224     -8.12054658
7.174                0.988093126     -8.14689059
7.176                0.988105124      -8.1732077
7.178                0.988099414     -8.19840203
7.18                 0.988092601     -8.22354114
7.182                0.988084696     -8.24862567
7.184                0.988075711     -8.27365618
7.186                0.988070838     -8.29714527
7.188                0.988065894     -8.32057406
7.19                 0.988060877      -8.3439431
7.192                0.988055791     -8.36725292
7.194                0.988073522     -8.38973763
7.196                0.988091465     -8.41219099
7.198                 0.98810962     -8.43461326
7.2                  0.988127988     -8.45700472
7.202                0.988172426      -8.4799048
7.204                0.988216716     -8.50277866
7.206                0.988260858     -8.52562646
7.208                0.988304857     -8.54844839
7.21                 0.988358766     -8.57281767
7.212                0.988412862     -8.59714425
7.214                0.988467145      -8.6214284
7.216                0.988521618     -8.64567054
7.218                0.988561408      -8.6714066
7.22                 0.988601568     -8.69710942
7.222                0.988642098      -8.7227794
7.224                0.988682996     -8.74841702
7.226                0.988695761      -8.7744081
7.228                0.988708009     -8.80037892
7.23                 0.988719742     -8.82632957
7.232                0.988730961     -8.85226006
7.234                 0.98872181     -8.87718518
7.236                0.988711639     -8.90207053
7.238                0.988700457     -8.92691646
7.24                 0.988688273     -8.95172317
7.242                 0.98867746      -8.9749662
7.244                0.988666403     -8.99815607
7.246                0.988655105     -9.02129328
7.248                0.988643567     -9.04437834
7.25                 0.988653483     -9.06650532
7.252                0.988663672     -9.08860121
7.254                0.988674131      -9.1106663
7.256                0.988684859      -9.1327008
7.258                 0.98872254     -9.15508994
7.26                 0.988760151     -9.17746148
7.262                0.988797693     -9.19981552
7.264                0.988835168     -9.22215225
7.266                0.988885667      -9.2459684
7.268                0.988936176      -9.2697524
7.27                 0.988986696      -9.2935045
7.272                0.989037228     -9.31722506
7.274                0.989076251     -9.34253135
7.276                0.989115623     -9.36780579
7.278                0.989155346     -9.39304882
7.28                 0.989195417     -9.41826085
7.282                0.989207651     -9.44402912
7.284                0.989219679     -9.46978036
7.286                0.989231506     -9.49551464
7.288                 0.98924313     -9.52123206
7.29                 0.989231687     -9.54609656
7.292                0.989219373     -9.57093348
7.294                0.989206197     -9.59574306
7.296                0.989192165      -9.6205255
7.298                0.989176134     -9.64373839
7.3                  0.989159706     -9.66690612
7.302                0.989142884     -9.69002914
7.304                0.989125672     -9.71310785
7.306                0.989128118     -9.73508223
7.308                0.989130826     -9.75702504
7.31                 0.989133794      -9.7789365
7.312                0.989137022     -9.80081683
7.314                0.989167864     -9.82287123
7.316                 0.98919875     -9.84491256
7.318                 0.98922968     -9.86694092
7.32                 0.989260656      -9.8889564
7.322                0.989307802     -9.91235931
7.324                0.989354852     -9.93573995
7.326                0.989401808     -9.95909832
7.328                0.989448671     -9.98243454
7.33                 0.989487675     -10.0074382
7.332                0.989526933     -10.0324128
7.334                0.989566447     -10.0573586
7.336                0.989606215     -10.0822759
7.338                0.989619092     -10.1079624
7.34                 0.989631985     -10.1336326
7.342                0.989644894     -10.1592867
7.344                0.989657815     -10.1849249
7.346                0.989645107     -10.2098947
7.348                0.989631724      -10.234846
7.35                  0.98961767     -10.2597789
7.352                0.989602949     -10.2846936
7.354                0.989582393     -10.3080563
7.356                0.989561328     -10.3313822
7.358                0.989539757     -10.3546719
7.36                 0.989517684     -10.3779256
7.362                 0.98951291     -10.3999234
7.364                0.989508328     -10.4218892
7.366                0.989503936     -10.4438234
7.368                0.989499731     -10.4657263
7.37                 0.989523581     -10.4875979
7.372                0.989547591     -10.5094579
7.374                0.989571761     -10.5313062
7.376                0.989596092     -10.5531429
7.378                0.989639796     -10.5762454
7.38                  0.98968337     -10.5993335
7.382                0.989726817     -10.6224074
7.384                0.989770136     -10.6454672
7.386                0.989809682     -10.6702562
7.388                0.989849354       -10.69502
7.39                 0.989889152     -10.7197587
7.392                0.989929079     -10.7444727
7.394                0.989943939     -10.7701791
7.396                0.989958938     -10.7958688
7.398                0.989974075     -10.8215422
7.4                  0.989989351     -10.8471994
7.402                0.989976799     -10.8724169
7.404                0.989963781     -10.8976219
7.406                0.989950303     -10.9228145
7.408                0.989936364     -10.9479947
7.41                 0.989912446     -10.9716794
7.412                0.989887967      -10.995336
7.414                0.989862928     -11.0189647
7.416                0.989837336     -11.0425658
7.418                0.989825964     -11.0647736
7.42                 0.989814674     -11.0869503
7.422                0.989803463     -11.1090961
7.424                0.989792333     -11.1312114
7.426                 0.98980913     -11.1530747
7.428                0.989826179     -11.1749253
7.43                  0.98984348     -11.1967635
7.432                0.989861032     -11.2185891
7.434                0.989900857      -11.241531
7.436                0.989940587     -11.2644646
7.438                 0.98998022     -11.2873899
7.44                 0.990019759     -11.3103069
7.442                0.990059794     -11.3349875
7.444                0.990099827     -11.3596478
7.446                0.990139858     -11.3842879
7.448                 0.99017989      -11.408908
7.45                 0.990197227     -11.4347375
7.452                0.990214738     -11.4605497
7.454                0.990232425     -11.4863449
7.456                0.990250285     -11.5121233
7.458                0.990238677     -11.5377036
7.46                 0.990226805     -11.5632747
7.462                0.990214668     -11.5888368
7.464                0.990202267     -11.6143898
7.466                0.990175539     -11.6385398
7.468                0.990148254     -11.6626694
7.47                 0.990120415     -11.6867789
7.472                0.990092027     -11.7108687
7.474                0.990074295      -11.733438
7.476                0.990056515     -11.7559783
7.478                0.990038687     -11.7784898
7.48                  0.99002081     -11.8009729
7.482                0.990030323      -11.822967
7.484                 0.99004014     -11.8449464
7.486                0.990050259     -11.8669112
7.488                 0.99006068     -11.8888615
7.49                 0.990096168     -11.9117476
7.492                 0.99013164     -11.9346291
7.494                0.990167098     -11.9575059
7.496                0.990202541     -11.9803782
7.498                0.990243037     -12.0050203
7.5                  0.990283431     -12.0296474
7.502                0.990323725     -12.0542597
7.504                 0.99036392     -12.0788571
7.506                 0.99038453     -12.1048766
7.508                0.990405279     -12.1308788
7.51                 0.990426171     -12.1568638
7.512                0.990447206     -12.1828319
7.514                 0.99043775     -12.2088852
7.516                0.990428194     -12.2349306
7.518                0.990418536      -12.260968
7.52                 0.990408778     -12.2869976
7.522                0.990380273     -12.3117593
7.524                0.990351271     -12.3365074
7.526                0.990321777     -12.3612422
7.528                0.990291792     -12.3859636
7.53                 0.990268106     -12.4090654
7.532                0.990244246     -12.4321416
7.534                0.990220214     -12.4551925
7.536                0.990196013     -12.4782182
7.538                0.990197908      -12.500504
7.54                 0.990200108     -12.5227728
7.542                0.990202613     -12.5450246
7.544                0.990205419     -12.5672594
7.546                0.990235663     -12.5902112
7.548                0.990266002     -12.6131598
7.55                 0.990296436      -12.636105
7.552                0.990326963     -12.6590471
7.554                0.990367233     -12.6837223
7.556                0.990407347     -12.7083879
7.558                0.990447306      -12.733044
7.56                 0.990487111     -12.7576906
7.562                0.990511213     -12.7839474
7.564                0.990535373     -12.8101875
7.566                0.990559594     -12.8364112
7.568                0.990583873     -12.8626185
7.57                 0.990577593     -12.8892053
7.572                0.990571326     -12.9157836
7.574                0.990565071     -12.9423536
7.576                0.990558829     -12.9689153
7.578                0.990529706     -12.9943993
7.58                 0.990500185     -13.0198749
7.582                0.990470271      -13.045342
7.584                0.990439964     -13.0708009
7.586                0.990411172     -13.0945834
7.588                0.990382109     -13.1183446
7.59                 0.990352773     -13.1420849
7.592                0.990323167     -13.1658045
7.594                0.990317584     -13.1885434
7.596                0.990312263     -13.2112633
7.598                0.990307201     -13.2339642
7.6                  0.990302399     -13.2566462
7.602                0.990326916     -13.2798005
7.604                0.990351643     -13.3029508
7.606                 0.99037658     -13.3260972
7.608                0.990401728     -13.3492398
7.61                 0.990441153     -13.3740449
7.612                0.990480423     -13.3988451
7.614                0.990519537     -13.4236403
7.616                0.990558497     -13.4484304
7.618                0.990586096     -13.4749943
7.62                 0.990613645     -13.5015434
7.622                0.990641146     -13.5280778
7.624                0.990668602     -13.5545975
7.626                0.990666185     -13.5818043
7.628                 0.99066383     -13.6090012
7.63                 0.990661539     -13.6361884
7.632                0.990659311      -13.663366
7.634                0.990630359     -13.6896901
7.636                0.990601133     -13.7160092
7.638                0.990571631     -13.7423231
7.64                 0.990541855     -13.7686318
7.642                0.990508259     -13.7932446
7.644                0.990474328     -13.8178412
7.646                0.990440065     -13.8424219
7.648                0.990405473     -13.8669866
7.65                 0.990392096     -13.8903258
7.652                0.990378899     -13.9136449
7.654                 0.99036588     -13.9369439
7.656                0.990353038      -13.960223
7.658                0.990370873     -13.9836979
7.66                 0.990389022     -14.0071666
7.662                0.990407484     -14.0306291
7.664                0.990426257     -14.0540853
7.666                0.990463943     -14.0790853
7.668                 0.99050153     -14.1040837
7.67                 0.990539017     -14.1290805
7.672                0.990576406     -14.1540757
7.674                0.990607446     -14.1809769
7.676                 0.99063833     -14.2078659
7.678                0.990669061      -14.234743
7.68                 0.990699638     -14.2616082
7.682                0.990702031     -14.2894738
7.684                0.990704475      -14.317328
7.686                0.990706972     -14.3451708
7.688                0.990709522     -14.3730025
7.69                 0.990682196     -14.4002644
7.692                0.990654709     -14.4275225
7.694                0.990627066     -14.4547769
7.696                0.990599265     -14.4820276
7.698                0.990561974     -14.5076215
7.7                  0.990524334     -14.5332042
7.702                0.990486346     -14.5587759
7.704                0.990448011     -14.5843367
7.706                0.990427084     -14.6084565
7.708                0.990406234     -14.6325564
7.71                 0.990385459     -14.6566365
7.712                0.990364761      -14.680697
7.714                0.990375263     -14.7046494
7.716                0.990386151     -14.7285924
7.718                0.990397425     -14.7525257
7.72                 0.990409084     -14.7764496
7.722                0.990443948     -14.8017505
7.724                0.990478817     -14.8270515
7.726                0.990513691     -14.8523527
7.728                0.990548572     -14.8776539
7.73                 0.990582435      -14.904951
7.732                 0.99061606     -14.9322398
7.734                0.990649447     -14.9595199
7.736                0.990682598     -14.9867915
7.738                0.990690278     -15.0153705
7.74                 0.990697939     -15.0439368
7.742                0.990705581     -15.0724905
7.744                0.990713206     -15.1010317
7.746                0.990688537     -15.1293197
7.748                0.990663804     -15.1576036
7.75                 0.990639006     -15.1858834
7.752                0.990614143      -15.214159
7.754                0.990574019     -15.2408742
7.756                0.990533575     -15.2675828
7.758                0.990492811     -15.2942848
7.76                 0.990451728     -15.3209801
7.762                0.990423446     -15.3460477
7.764                0.990395135     -15.3710967
7.766                0.990366794     -15.3961276
7.768                0.990338421     -15.4211404
7.77                 0.990340894     -15.4457279
7.772                0.990343789     -15.4703021
7.774                0.990347103      -15.494863
7.776                0.990350834     -15.5194106
7.778                 0.99038167     -15.5451205
7.78                 0.990412655     -15.5708304
7.782                0.990443789     -15.5965401
7.784                0.990475072     -15.6222498
7.786                0.990511064     -15.6499956
7.788                0.990546778     -15.6777366
7.79                 0.990582215     -15.7054728
7.792                0.990617373     -15.7332042
