! TOUCHSTONE file generated by CST DESIGN STUDIO
! Date and time: Mon Feb 10 16:49:06 2025
! Project name: C:\Work\MatlabApps\UnitCellType2OptimizationMatlab\CST\unitcell.cst
! Tree item: Tasks\Sweep1\SPara1\S-Parameters
! Header version: 2024
! Port assignment regex: !\s*Touchstone port\s*([0-9]+)\s*=\s*(CST MWS port|CST DES external port|CST DES block port)\s*(.+)\s* \(\"(.*)\"\)(\s*mode\s*([0-9]+))?.*
! Touchstone port assignment:
! Touchstone port 1 = CST DES external port 1 ("")
# GHz S MA R 50
7                    0.990215844     -8.98635642
7.002                0.990188575     -9.00616621
7.004                0.990160553      -9.0259523
7.006                0.990131782     -9.04571494
7.008                0.990102271     -9.06545428
7.01                 0.990088497     -9.08345057
7.012                0.990074592     -9.10141804
7.014                0.990060556     -9.11935697
7.016                0.990046394     -9.13726762
7.018                0.990065332     -9.15473963
7.02                 0.990084478     -9.17219911
7.022                0.990103831     -9.18964617
7.024                 0.99012339     -9.20708086
7.026                0.990170244     -9.22571246
7.028                0.990217142     -9.24433717
7.03                 0.990264084      -9.2629549
7.032                0.990311071     -9.28156571
7.034                0.990360179     -9.30220477
7.036                0.990409438     -9.32282487
7.038                0.990458848     -9.34342608
7.04                  0.99050841     -9.36400859
7.042                0.990532615     -9.38605803
7.044                0.990557057     -9.40808944
7.046                0.990581735     -9.43010311
7.048                0.990606647     -9.45209931
7.05                 0.990596828     -9.47396106
7.052                0.990586716     -9.49581397
7.054                0.990576312     -9.51765809
7.056                0.990565617     -9.53949346
7.058                0.990536393      -9.5597187
7.06                 0.990506485     -9.57992716
7.062                0.990475899     -9.60011916
7.064                0.990444641     -9.62029482
7.066                0.990424123     -9.63860958
7.068                0.990403349     -9.65689886
7.07                 0.990382321     -9.67516306
7.072                 0.99036104     -9.69340245
7.074                0.990371419     -9.71091408
7.076                0.990381987      -9.7284116
7.078                0.990392744     -9.74589511
7.08                  0.99040369     -9.76336474
7.082                0.990444853     -9.78177549
7.084                0.990486109     -9.80018201
7.086                0.990527456     -9.81858433
7.088                0.990568897     -9.83698265
7.09                 0.990617891     -9.85736521
7.092                0.990666961     -9.87773488
7.094                0.990716108     -9.89809172
7.096                0.990765334     -9.91843581
7.098                 0.99079341     -9.94046036
7.1                  0.990821702     -9.96246824
7.102                0.990850213     -9.98445951
7.104                0.990878942     -10.0064344
7.106                0.990872538     -10.0286059
7.108                0.990866017     -10.0507689
7.11                 0.990859383     -10.0729234
7.112                0.990852634     -10.0950695
7.114                0.990822466     -10.1158077
7.116                0.990791726     -10.1365346
7.118                0.990760418     -10.1572504
7.12                 0.990728545      -10.177955
7.122                0.990701842     -10.1967195
7.124                0.990674785     -10.2154629
7.126                0.990647376     -10.2341853
7.128                0.990619622     -10.2528869
7.13                 0.990621231       -10.27057
7.132                0.990622973     -10.2882377
7.134                0.990624846     -10.3058903
7.136                 0.99062685     -10.3235277
7.138                 0.99066144     -10.3418141
7.14                 0.990696177     -10.3600971
7.142                0.990731056     -10.3783765
7.144                0.990766079     -10.3966525
7.146                0.990814138     -10.4168223
7.148                0.990862239     -10.4369843
7.15                 0.990910384     -10.4571386
7.152                0.990958573     -10.4772852
7.154                0.990990564     -10.4992903
7.156                0.991022724     -10.5212806
7.158                0.991055055     -10.5432564
7.16                 0.991087555     -10.5652179
7.162                0.991085599      -10.587715
7.164                0.991083651     -10.6102032
7.166                 0.99108171     -10.6326826
7.168                0.991079776     -10.6551533
7.17                 0.991050077     -10.6764718
7.172                0.991019935     -10.6977826
7.174                0.990989354     -10.7190858
7.176                0.990958337     -10.7403815
7.178                0.990926491     -10.7597163
7.18                 0.990894233     -10.7790342
7.182                0.990861566     -10.7983357
7.184                0.990828491     -10.8176208
7.186                0.990821579     -10.8356095
7.188                0.990814715     -10.8535824
7.19                   0.9908079     -10.8715397
7.192                0.990801135     -10.8894816
7.194                0.990828555     -10.9077546
7.196                0.990856155     -10.9260234
7.198                0.990883935      -10.944288
7.2                  0.990911897     -10.9625487
7.202                0.990958214     -10.9825582
7.204                0.991004576     -11.0025637
7.206                0.991050983     -11.0225654
7.208                0.991097436     -11.0425631
7.21                 0.991133259     -11.0645587
7.212                0.991169195     -11.0865426
7.214                0.991205246     -11.1085148
7.216                0.991241414     -11.1304753
7.218                0.991244868     -11.1533125
7.22                 0.991248398     -11.1761403
7.222                0.991252005     -11.1989589
7.224                0.991255688     -11.2217685
7.226                0.991228014     -11.2437296
7.228                0.991200034     -11.2656853
7.23                  0.99117175     -11.2876356
7.232                0.991143161     -11.3095803
7.234                0.991107484     -11.3296056
7.236                0.991071377     -11.3496186
7.238                0.991034845     -11.3696193
7.24                 0.990997891     -11.3896078
7.242                 0.99098287      -11.408056
7.244                0.990967803      -11.426489
7.246                0.990952691      -11.444907
7.248                0.990937533     -11.4633101
7.25                 0.990957188     -11.4817033
7.252                0.990977037      -11.500091
7.254                0.990997079     -11.5184731
7.256                0.991017312     -11.5368496
7.258                0.991060803     -11.5567819
7.26                 0.991104366     -11.5767126
7.262                0.991148003     -11.5966419
7.264                0.991191713     -11.6165697
7.266                0.991230699     -11.6385845
7.268                0.991269752     -11.6605906
7.27                 0.991308873      -11.682588
7.272                0.991348059      -11.704577
7.274                  0.9913573     -11.7277632
7.276                0.991366641     -11.7509398
7.278                0.991376085      -11.774107
7.28                  0.99138563      -11.797265
7.282                0.991361115     -11.8199136
7.284                0.991336412     -11.8425576
7.286                0.991311526      -11.865197
7.288                0.991286456     -11.8878319
7.29                 0.991248068     -11.9086505
7.292                0.991209271     -11.9294604
7.294                0.991170069     -11.9502618
7.296                0.991130463     -11.9710549
7.298                0.991107701     -11.9901044
7.3                  0.991084802     -12.0091402
7.302                0.991061766     -12.0281623
7.304                0.991038597      -12.047171
7.306                0.991049887     -12.0658168
7.308                0.991061353     -12.0844555
7.31                 0.991072996     -12.1030871
7.312                0.991084817     -12.1217117
7.314                0.991124279     -12.1416475
7.316                0.991163854     -12.1615829
7.318                0.991203543     -12.1815178
7.32                 0.991243345     -12.2014523
7.322                0.991284623     -12.2235081
7.324                0.991325938     -12.2455587
7.326                0.991367291     -12.2676037
7.328                0.991408684     -12.2896433
7.33                 0.991423857     -12.3131801
7.332                0.991439123     -12.3367078
7.334                0.991454484     -12.3602265
7.336                0.991469939     -12.3837364
7.338                0.991449615     -12.4071005
7.34                 0.991429205     -12.4304601
7.342                0.991408709     -12.4538151
7.344                0.991388126     -12.4771655
7.346                0.991348182     -12.4988645
7.348                0.991307882     -12.5205578
7.35                 0.991267227     -12.5422456
7.352                0.991226218     -12.5639279
7.354                0.991196183     -12.5837098
7.356                0.991165935     -12.6034798
7.358                0.991135475     -12.6232383
7.36                 0.991104803     -12.6429854
7.362                0.991107139     -12.6620121
7.364                 0.99110961     -12.6810303
7.366                0.991112215     -12.7000401
7.368                0.991114951     -12.7190415
7.37                 0.991149141     -12.7390588
7.372                0.991183485     -12.7590755
7.374                0.991217983     -12.7790917
7.376                0.991252636     -12.7991074
7.378                0.991295224     -12.8212148
7.38                 0.991337844     -12.8433195
7.382                0.991380497     -12.8654215
7.384                 0.99142318     -12.8875208
7.386                 0.99144439      -12.911384
7.388                 0.99146567      -12.935239
7.39                 0.991487018      -12.959086
7.392                0.991508437      -12.982925
7.394                0.991493683     -13.0070069
7.396                 0.99147891     -13.0310837
7.398                 0.99146412     -13.0551554
7.4                  0.991449314     -13.0792222
7.402                0.991409595     -13.1018777
7.404                0.991369589     -13.1245295
7.406                0.991329299     -13.1471777
7.408                0.991288726     -13.1698224
7.41                 0.991252681     -13.1904774
7.412                0.991216372     -13.2111231
7.414                0.991179798     -13.2317599
7.416                0.991142963     -13.2523876
7.418                0.991136434     -13.2719583
7.42                 0.991129976     -13.2915199
7.422                0.991123587     -13.3110722
7.424                0.991117272     -13.3306156
7.426                 0.99114521     -13.3508427
7.428                0.991173333     -13.3710683
7.43                 0.991201641     -13.3912924
7.432                0.991230134      -13.411515
7.434                0.991272793     -13.4337396
7.436                0.991315501     -13.4559637
7.438                0.991358259     -13.4781872
7.44                 0.991401065       -13.50041
7.442                0.991427827     -13.5246172
7.444                0.991454626     -13.5488179
7.446                0.991481462     -13.5730121
7.448                0.991508336     -13.5971998
7.45                 0.991499649     -13.6220223
7.452                0.991490983     -13.6468391
7.454                0.991482339     -13.6716502
7.456                0.991473713     -13.6964556
7.458                  0.9914353     -13.7201307
7.46                  0.99139668     -13.7438034
7.462                0.991357852     -13.7674735
7.464                0.991318817     -13.7911411
7.466                0.991277446     -13.8127925
7.468                0.991235785     -13.8344371
7.47                 0.991193836     -13.8560752
7.472                  0.9911516     -13.8777069
7.474                 0.99113597     -13.8979614
7.476                0.991120338     -13.9182067
7.478                0.991104702     -13.9384428
7.48                 0.991089062     -13.9586698
7.482                0.991109623     -13.9792133
7.484                0.991130382     -13.9997539
7.486                 0.99115134     -14.0202915
7.488                0.991172496     -14.0408262
7.49                 0.991213985       -14.06321
7.492                0.991255558     -14.0855943
7.494                0.991297215     -14.1079791
7.496                0.991338954     -14.1303648
7.498                0.991370861     -14.1549067
7.5                  0.991402779      -14.179444
7.502                 0.99143471     -14.2039766
7.504                0.991466654     -14.2285046
7.506                0.991464933     -14.2540633
7.508                 0.99146324     -14.2796158
7.51                 0.991461578     -14.3051622
7.512                0.991459948     -14.3307025
7.514                 0.99142445     -14.3554643
7.516                0.991388816     -14.3802237
7.518                0.991353048     -14.4049807
7.52                 0.991317145     -14.4297354
7.522                0.991271754     -14.4525198
7.524                0.991226079     -14.4752999
7.526                0.991180119     -14.4980758
7.528                0.991133877     -14.5208474
7.53                 0.991109242     -14.5419602
7.532                0.991084527     -14.5630645
7.534                0.991059733     -14.5841603
7.536                0.991034864     -14.6052477
7.538                0.991046885     -14.6262544
7.54                 0.991059095     -14.6472566
7.542                0.991071491     -14.6682541
7.544                0.991084075      -14.689247
7.546                0.991122653      -14.711864
7.548                0.991161361      -14.734482
7.55                 0.991200197     -14.7571008
7.552                0.991239162     -14.7797204
7.554                0.991275095     -14.8046011
7.556                0.991311029     -14.8294793
7.558                0.991346964     -14.8543548
7.56                 0.991382899     -14.8792276
7.562                  0.9913884     -14.9055028
7.564                0.991393918     -14.9317717
7.566                0.991399456     -14.9580343
7.568                0.991405011     -14.9842907
7.57                 0.991373863      -15.010158
7.572                 0.99134264     -15.0360224
7.574                0.991311342      -15.061884
7.576                0.991279968     -15.0877426
7.578                0.991232103     -15.1117631
7.58                 0.991183979     -15.1357808
7.582                  0.9911356     -15.1597961
7.584                0.991086965      -15.183809
7.586                0.991054062     -15.2059402
7.588                0.991021015      -15.228064
7.59                 0.990987823     -15.2501807
7.592                0.990954487     -15.2722903
7.594                0.990957437     -15.2939211
7.596                0.990960543     -15.3155459
7.598                0.990963804     -15.3371647
7.6                   0.99096722     -15.3587775
7.602                 0.99100162     -15.3817336
7.604                0.991036196     -15.4046899
7.606                0.991070947     -15.4276464
7.608                0.991105874     -15.4506034
7.61                 0.991144765     -15.4758648
7.612                0.991183665     -15.5011254
7.614                0.991222574     -15.5263851
7.616                0.991261494     -15.5516438
7.618                0.991274233     -15.5786499
7.62                 0.991286963     -15.6056503
7.622                0.991299686     -15.6326449
7.624                0.991312402     -15.6596337
7.626                 0.99128666     -15.6866578
7.628                0.991260878     -15.7136779
7.63                 0.991235058     -15.7406942
7.632                  0.9912092     -15.7677068
7.634                0.991160042     -15.7930777
7.636                0.991110671     -15.8184472
7.638                0.991061088     -15.8438153
7.64                 0.991011293     -15.8691818
7.642                0.990970383     -15.8924979
7.644                0.990929278     -15.9158085
7.646                 0.99088798     -15.9391135
7.648                0.990846492     -15.9624129
7.65                 0.990839431     -15.9848243
7.652                0.990832473     -16.0072286
7.654                0.990825617      -16.029626
7.656                0.990818863     -16.0520163
7.658                0.990847329      -16.075408
7.66                 0.990876013     -16.0987986
7.662                0.990904911     -16.1221881
7.664                0.990934024     -16.1455763
7.666                0.990974484     -16.1712345
7.668                0.991014983      -16.196893
7.67                 0.991055522      -16.222552
7.672                  0.9910961     -16.2482113
7.674                0.991116031     -16.2759248
7.676                0.991135925     -16.3036335
7.678                0.991155784     -16.3313372
7.68                 0.991175603      -16.359036
7.682                0.991156632     -16.3872219
7.684                0.991137636     -16.4154027
7.686                0.991118614     -16.4435786
7.688                0.991099568     -16.4717496
7.69                 0.991051076     -16.4985672
7.692                0.991002419     -16.5253833
7.694                0.990953601     -16.5521983
7.696                 0.99090462      -16.579012
7.698                0.990856958     -16.6036887
7.7                  0.990809076     -16.6283615
7.702                0.990760974     -16.6530305
7.704                0.990712653     -16.6776958
7.706                0.990695359     -16.7010896
7.708                0.990678104      -16.724476
7.71                 0.990660888     -16.7478549
7.712                0.990643712     -16.7712266
7.714                0.990664813     -16.7952058
7.716                0.990686154      -16.819182
7.718                0.990707736     -16.8431551
7.72                 0.990729559     -16.8671254
7.722                0.990769939     -16.8932514
7.724                0.990810408     -16.9193784
7.726                0.990850968     -16.9455062
7.728                0.990891618     -16.9716349
7.73                 0.990918034     -17.0000698
7.732                0.990944389     -17.0285013
7.734                0.990970685     -17.0569292
7.736                0.990996922     -17.0853535
7.738                 0.99098551     -17.1147238
7.74                 0.990974057     -17.1440882
7.742                0.990962565     -17.1734466
7.744                0.990951035     -17.2027992
7.746                0.990904728     -17.2311509
7.748                0.990858304     -17.2595008
7.75                 0.990811763     -17.2878487
7.752                0.990765106     -17.3161948
7.754                0.990711752     -17.3423974
7.756                0.990658175     -17.3685978
7.758                0.990604375     -17.3947959
7.76                 0.990550352     -17.4209917
7.762                0.990522638     -17.4455646
7.764                0.990494898     -17.4701301
7.766                0.990467128     -17.4946885
7.768                0.990439328     -17.5192398
7.77                 0.990451606     -17.5439684
7.772                0.990464132     -17.5686918
7.774                0.990476903       -17.59341
7.776                0.990489919     -17.6181229
7.778                0.990528406     -17.6447985
7.78                 0.990567049     -17.6714747
7.782                0.990605849     -17.6981512
7.784                0.990644806     -17.7248283
7.786                0.990676842     -17.7539954
7.788                0.990708814     -17.7831603
7.79                 0.990740721     -17.8123231
7.792                 0.99077256     -17.8414839
