! TOUCHSTONE file generated by CST DESIGN STUDIO
! Date and time: Mon Feb 10 16:48:59 2025
! Project name: C:\Work\MatlabApps\UnitCellType2OptimizationMatlab\CST\unitcell.cst
! Tree item: Tasks\Sweep1\SPara1\S-Parameters
! Header version: 2024
! Port assignment regex: !\s*Touchstone port\s*([0-9]+)\s*=\s*(CST MWS port|CST DES external port|CST DES block port)\s*(.+)\s* \(\"(.*)\"\)(\s*mode\s*([0-9]+))?.*
! Touchstone port assignment:
! Touchstone port 1 = CST DES external port 1 ("")
# GHz S MA R 50
7                    0.994320128     -12.3886857
7.002                0.994272907      -12.403466
7.004                0.994225575      -12.418245
7.006                0.994178133     -12.4330228
7.008                0.994130584     -12.4477993
7.01                 0.994137972     -12.4618275
7.012                0.994145411     -12.4758561
7.014                0.994152901     -12.4898853
7.016                0.994160446     -12.5039151
7.018                0.994213764     -12.5198866
7.02                 0.994267251      -12.535859
7.022                0.994320907     -12.5518324
7.024                0.994374732     -12.5678067
7.026                0.994433253     -12.5870792
7.028                0.994491971     -12.6063523
7.03                 0.994550887     -12.6256255
7.032                    0.99461     -12.6448989
7.034                0.994629727     -12.6665746
7.036                0.994649532       -12.68825
7.038                0.994669415     -12.7099251
7.04                 0.994689376     -12.7315998
7.042                0.994653326     -12.7531597
7.044                 0.99461715     -12.7747187
7.046                0.994580848     -12.7962768
7.048                0.994544418     -12.8178339
7.05                 0.994474806     -12.8368783
7.052                0.994404968      -12.855921
7.054                0.994334903      -12.874962
7.056                0.994264611     -12.8940013
7.058                0.994207664     -12.9099704
7.06                 0.994150573     -12.9259378
7.062                0.994093337     -12.9419038
7.064                0.994035956     -12.9578685
7.066                0.994028804     -12.9724575
7.068                0.994021667     -12.9870466
7.07                 0.994014543      -13.001636
7.072                 0.99400743     -13.0162257
7.074                0.994051457     -13.0321537
7.076                0.994095628     -13.0480829
7.078                0.994139941      -13.064013
7.08                 0.994184398     -13.0799443
7.082                0.994244995     -13.0990169
7.084                 0.99430579       -13.11809
7.086                0.994366784     -13.1371635
7.088                0.994427973     -13.1562378
7.09                  0.99445925     -13.1781121
7.092                0.994490644     -13.1999862
7.094                0.994522155     -13.2218603
7.096                0.994553784     -13.2437342
7.098                0.994530276      -13.266178
7.1                  0.994506686     -13.2886214
7.102                0.994483019      -13.311064
7.104                0.994459277      -13.333506
7.106                0.994393819     -13.3539285
7.108                0.994328146     -13.3743494
7.11                 0.994262259     -13.3947689
7.112                0.994196161     -13.4151869
7.114                0.994131469     -13.4324791
7.116                0.994066604     -13.4497699
7.118                0.994001565     -13.4670592
7.12                 0.993936354      -13.484347
7.122                0.993914625     -13.4996969
7.124                0.993892868     -13.5150467
7.126                0.993871082     -13.5303966
7.128                0.993849273     -13.5457466
7.13                 0.993881795     -13.5617818
7.132                0.993914429      -13.577818
7.134                0.993947174     -13.5938553
7.136                0.993980031     -13.6098937
7.138                0.994039728     -13.6287878
7.14                 0.994099618     -13.6476828
7.142                0.994159699     -13.6665786
7.144                0.994219971     -13.6854751
7.146                0.994261015     -13.7074534
7.148                0.994302207     -13.7294319
7.15                 0.994343546     -13.7514104
7.152                0.994385032      -13.773389
7.154                0.994374638      -13.796591
7.156                0.994364217     -13.8197924
7.158                0.994353771     -13.8429935
7.16                 0.994343295      -13.866194
7.162                0.994284557     -13.8879522
7.164                 0.99422563     -13.9097093
7.166                0.994166514     -13.9314651
7.168                 0.99410721     -13.9532198
7.17                 0.994037475     -13.9719395
7.172                0.993967546     -13.9906575
7.174                0.993897423      -14.009374
7.176                0.993827106     -14.0280892
7.178                0.993791691     -14.0444038
7.18                 0.993756211      -14.060718
7.182                0.993720664      -14.077032
7.184                0.993685049     -14.0933457
7.186                0.993704588     -14.1096672
7.188                0.993724205     -14.1259897
7.19                 0.993743901     -14.1423132
7.192                0.993763676     -14.1586379
7.194                0.993819748     -14.1774217
7.196                0.993875998     -14.1962064
7.198                0.993932425     -14.2149921
7.2                  0.993989029      -14.233779
7.202                 0.99403783      -14.255796
7.204                0.994086801     -14.2778132
7.206                 0.99413594     -14.2998307
7.208                0.994185249     -14.3218485
7.21                 0.994188175     -14.3456907
7.212                0.994191119     -14.3695327
7.214                0.994194086     -14.3933745
7.216                0.994197075     -14.4172161
7.218                0.994147446     -14.4402585
7.22                  0.99409766     -14.4632999
7.222                0.994047717     -14.4863403
7.224                0.993997618     -14.5093797
7.226                0.993925872     -14.5296139
7.228                0.993853923     -14.5498466
7.23                 0.993781769      -14.570078
7.232                0.993709412     -14.5903078
7.234                0.993661908     -14.6077924
7.236                0.993614301     -14.6252766
7.238                0.993566589     -14.6427604
7.24                  0.99351878     -14.6602436
7.242                0.993524449     -14.6770732
7.244                 0.99353016     -14.6939036
7.246                0.993535915      -14.710735
7.248                0.993541712     -14.7275672
7.25                 0.993591557     -14.7463618
7.252                0.993641564     -14.7651577
7.254                0.993691729     -14.7839546
7.256                0.993742053     -14.8027526
7.258                0.993796147     -14.8248005
7.26                 0.993850424      -14.846849
7.262                0.993904883     -14.8688979
7.264                0.993959524     -14.8909475
7.266                0.993975082     -14.9153447
7.268                0.993990708     -14.9397419
7.27                 0.994006399      -14.964139
7.272                0.994022153      -14.988536
7.274                0.993983197     -15.0128011
7.276                0.993944123     -15.0370655
7.278                0.993904932      -15.061329
7.28                 0.993865623     -15.0855918
7.282                0.993794454     -15.1074018
7.284                0.993723076     -15.1292102
7.286                0.993651492     -15.1510173
7.288                0.993579703     -15.1728231
7.29                 0.993521717     -15.1916614
7.292                0.993463596      -15.210499
7.294                0.993405337     -15.2293359
7.296                0.993346943     -15.2481722
7.298                  0.9933381     -15.2657296
7.3                  0.993329263     -15.2832877
7.302                0.993320432     -15.3008466
7.304                0.993311609     -15.3184063
7.306                0.993352726     -15.3373533
7.308                0.993393978     -15.3563016
7.31                 0.993435365      -15.375251
7.312                0.993476887      -15.394202
7.314                0.993533576     -15.4162901
7.316                0.993590452      -15.438379
7.318                0.993647516     -15.4604685
7.32                 0.993704767     -15.4825588
7.322                0.993731879      -15.507427
7.324                0.993759094     -15.5322955
7.326                0.993786414      -15.557164
7.328                 0.99381384     -15.5820327
7.33                 0.993786729     -15.6074505
7.332                0.993759542     -15.6328677
7.334                 0.99373228     -15.6582843
7.336                0.993704943     -15.6837002
7.338                0.993636854     -15.7071213
7.34                 0.993568569     -15.7305412
7.342                0.993500086     -15.7539599
7.344                0.993431406     -15.7773771
7.346                0.993364818     -15.7977366
7.348                0.993298065     -15.8180952
7.35                 0.993231148      -15.838453
7.352                0.993164067     -15.8588099
7.354                0.993140391     -15.8773154
7.356                0.993116688     -15.8958213
7.358                0.993092952     -15.9143276
7.36                 0.993069183     -15.9328345
7.362                 0.99309913     -15.9520917
7.364                0.993129186     -15.9713501
7.366                0.993159347     -15.9906098
7.368                0.993189613     -16.0098708
7.37                 0.993245958     -16.0320222
7.372                0.993302487     -16.0541746
7.374                0.993359199     -16.0763279
7.376                0.993416095     -16.0984822
7.378                0.993453249     -16.1237273
7.38                 0.993490539     -16.1489727
7.382                0.993527967     -16.1742183
7.384                0.993565527     -16.1994643
7.386                0.993551228     -16.2259252
7.388                0.993536899     -16.2523857
7.39                  0.99352254     -16.2788458
7.392                0.993508153     -16.3053055
7.394                0.993446073     -16.3303292
7.396                0.993383809     -16.3553516
7.398                0.993321367     -16.3803729
7.4                  0.993258747     -16.4053931
7.402                0.993186454     -16.4274185
7.404                0.993113976     -16.4494428
7.406                0.993041313      -16.471466
7.408                0.992968466     -16.4934883
7.41                 0.992930974     -16.5131798
7.412                0.992893412     -16.5328715
7.414                 0.99285578     -16.5525636
7.416                0.992818081     -16.5722559
7.418                0.992835471     -16.5920415
7.42                 0.992852933     -16.6118284
7.422                0.992870469     -16.6316164
7.424                0.992888082      -16.651406
7.426                0.992941466     -16.6737251
7.428                0.992995024     -16.6960453
7.43                 0.993048755     -16.7183665
7.432                0.993102661     -16.7406888
7.434                0.993147907     -16.7662975
7.436                0.993193314     -16.7919069
7.438                0.993238883     -16.8175167
7.44                 0.993284613      -16.843127
7.442                0.993283204     -16.8705746
7.444                 0.99328181      -16.898022
7.446                 0.99328043     -16.9254691
7.448                0.993279065     -16.9529159
7.45                 0.993224858     -16.9795527
7.452                0.993170498     -17.0061883
7.454                0.993115985     -17.0328229
7.456                0.993061317     -17.0594562
7.458                0.992985486     -17.0832748
7.46                 0.992909457     -17.1070922
7.462                0.992833229     -17.1309085
7.464                0.992756803     -17.1547236
7.466                0.992706073     -17.1758255
7.468                0.992655239      -17.196927
7.47                 0.992604299     -17.2180285
7.472                0.992553252       -17.23913
7.474                0.992556449     -17.2596511
7.476                0.992559687     -17.2801733
7.478                0.992562963     -17.3006966
7.48                 0.992566276     -17.3212211
7.482                0.992613829     -17.3438061
7.484                0.992661538     -17.3663923
7.486                0.992709405     -17.3889796
7.488                0.992757429     -17.4115683
7.49                 0.992808603     -17.4375106
7.492                0.992859956     -17.4634535
7.494                0.992911488     -17.4893969
7.496                0.992963195     -17.5153411
7.498                0.992974654     -17.5436869
7.5                  0.992986173     -17.5720325
7.502                0.992997752     -17.6003779
7.504                 0.99300939     -17.6287232
7.506                0.992965313     -17.6569449
7.508                0.992921111     -17.6851656
7.51                  0.99287679     -17.7133853
7.512                 0.99283235     -17.7416041
7.514                0.992755902       -17.76734
7.516                0.992679249     -17.7930745
7.518                0.992602393     -17.8188078
7.52                 0.992525334     -17.8445397
7.522                0.992462903     -17.8672944
7.524                0.992400333     -17.8900488
7.526                0.992337623     -17.9128029
7.528                0.992274776     -17.9355566
7.53                 0.992262728     -17.9570755
7.532                0.992250679     -17.9785954
7.534                0.992238631     -18.0001164
7.536                0.992226587     -18.0216385
7.538                0.992265366     -18.0446529
7.54                 0.992304279     -18.0676687
7.542                0.992343326     -18.0906857
7.544                0.992382506     -18.1137039
7.546                0.992436658     -18.1399991
7.548                0.992490998     -18.1662952
7.55                 0.992545525     -18.1925921
7.552                 0.99260024     -18.2188897
7.554                0.992623519     -18.2480626
7.556                0.992646897     -18.2772357
7.558                0.992670374     -18.3064087
7.56                 0.992693949     -18.3355817
7.562                0.992661395     -18.3653327
7.564                0.992628761     -18.3950828
7.566                0.992596047     -18.4248321
7.568                 0.99256325     -18.4545802
7.57                 0.992488999     -18.4822935
7.572                 0.99241455     -18.5100053
7.574                0.992339902     -18.5377158
7.576                0.992265056     -18.5654249
7.578                0.992193002      -18.590037
7.58                  0.99212078     -18.6146481
7.582                0.992048389     -18.6392586
7.584                0.991975829     -18.6638685
7.586                0.991948453     -18.6866462
7.588                0.991921041     -18.7094247
7.59                  0.99189359      -18.732204
7.592                0.991866099     -18.7549841
7.594                0.991893951     -18.7786288
7.596                0.991921909     -18.8022748
7.598                0.991949972     -18.8259222
7.6                  0.991978141      -18.849571
7.602                0.992032689      -18.876292
7.604                0.992087425     -18.9030139
7.606                0.992142348     -18.9297366
7.608                0.992197458     -18.9564604
7.61                 0.992231325     -18.9864369
7.612                0.992265327     -19.0164134
7.614                0.992299464     -19.0463901
7.616                0.992333736      -19.076367
7.618                0.992313697     -19.1076275
7.62                 0.992293615     -19.1388874
7.622                0.992273497     -19.1701465
7.624                0.992253341     -19.2014048
7.626                 0.99218369     -19.2311837
7.628                0.992113852     -19.2609611
7.63                 0.992043828     -19.2907369
7.632                0.991973618     -19.3205112
7.634                0.991893792     -19.3471959
7.636                0.991813773     -19.3738797
7.638                 0.99173356     -19.4005624
7.64                 0.991653157      -19.427244
7.642                0.991610081      -19.451557
7.644                0.991566925     -19.4758704
7.646                0.991523689     -19.5001844
7.648                0.991480381     -19.5244989
7.65                 0.991494731     -19.5489877
7.652                0.991509152     -19.5734779
7.654                0.991523645     -19.5979694
7.656                0.991538209     -19.6224621
7.658                0.991589903     -19.6496865
7.66                 0.991641779     -19.6769121
7.662                0.991693836     -19.7041386
7.664                0.991746072      -19.731366
7.666                0.991788717     -19.7620989
7.668                0.991831525      -19.792832
7.67                 0.991874497     -19.8235654
7.672                0.991917631     -19.8542991
7.674                0.991910896     -19.8870011
7.676                0.991904169     -19.9197024
7.678                0.991897451      -19.952403
7.68                 0.991890737     -19.9851029
7.682                0.991828504     -20.0169775
7.684                0.991766108     -20.0488505
7.686                0.991703549     -20.0807218
7.688                0.991640826     -20.1125916
7.69                 0.991556175     -20.1415434
7.692                0.991471312     -20.1704935
7.694                0.991386238     -20.1994422
7.696                0.991300955     -20.2283895
7.698                0.991243167     -20.2545383
7.7                  0.991185261     -20.2806871
7.702                0.991127236     -20.3068361
7.704                0.991069094     -20.3329851
7.706                0.991068301     -20.3586036
7.708                0.991067541     -20.3842233
7.71                 0.991066815     -20.4098443
7.712                0.991066125     -20.4354665
7.714                0.991111927     -20.4633559
7.716                0.991157893     -20.4912463
7.718                0.991204024     -20.5191378
7.72                 0.991250319     -20.5470306
7.722                0.991299385     -20.5785458
7.724                0.991348636     -20.6100613
7.726                0.991398073     -20.6415771
7.728                0.991447695     -20.6730933
7.73                 0.991454113     -20.7072111
7.732                0.991460582     -20.7413286
7.734                0.991467106     -20.7754454
7.736                0.991473683     -20.8095616
7.738                0.991420935     -20.8435732
7.74                 0.991368052     -20.8775831
7.742                0.991315035     -20.9115913
7.744                0.991261885     -20.9455978
7.746                   0.991175     -20.9769978
7.748                0.991087895     -21.0083959
7.75                 0.991000571     -21.0397923
7.752                0.990913029     -21.0711867
7.754                0.990841511     -21.0994658
7.756                0.990769837     -21.1277445
7.758                0.990698007     -21.1560228
7.76                 0.990626021     -21.1843007
7.762                0.990608568     -21.2113476
7.764                0.990591114     -21.2383953
7.766                0.990573651      -21.265444
7.768                 0.99055618     -21.2924938
7.77                 0.990592927     -21.3212386
7.772                0.990629818     -21.3499846
7.774                 0.99066685     -21.3787317
7.776                0.990704023     -21.4074797
7.778                0.990756754     -21.4398265
7.78                 0.990809683     -21.4721737
7.782                0.990862811     -21.5045212
7.784                0.990916136     -21.5368692
7.786                0.990935133     -21.5723706
7.788                0.990954228     -21.6078714
7.79                  0.99097342     -21.6433716
7.792                0.990992706     -21.6788714
