! TOUCHSTONE file generated by CST DESIGN STUDIO
! Date and time: Mon Feb 10 16:48:56 2025
! Project name: C:\Work\MatlabApps\UnitCellType2OptimizationMatlab\CST\unitcell.cst
! Tree item: Tasks\Sweep1\SPara1\S-Parameters
! Header version: 2024
! Port assignment regex: !\s*Touchstone port\s*([0-9]+)\s*=\s*(CST MWS port|CST DES external port|CST DES block port)\s*(.+)\s* \(\"(.*)\"\)(\s*mode\s*([0-9]+))?.*
! Touchstone port assignment:
! Touchstone port 1 = CST DES external port 1 ("")
# GHz S MA R 50
7                    0.995215455     -13.3803958
7.002                0.995170795      -13.394816
7.004                0.995126055     -13.4092356
7.006                0.995081237     -13.4236545
7.008                0.995036344     -13.4380727
7.01                 0.995059025     -13.4523387
7.012                0.995081782     -13.4666056
7.014                0.995104616     -13.4808733
7.016                0.995127532     -13.4951421
7.018                0.995196687     -13.5122886
7.02                 0.995266049     -13.5294361
7.022                0.995335617     -13.5465847
7.024                0.995405392     -13.5637342
7.026                0.995468055     -13.5848153
7.028                0.995530932     -13.6058978
7.03                 0.995594024     -13.6269812
7.032                0.995657329     -13.6480656
7.034                0.995665422     -13.6714558
7.036                0.995673549     -13.6948469
7.038                0.995681712     -13.7182386
7.04                  0.99568991      -13.741631
7.042                0.995633316     -13.7641563
7.044                0.995576544     -13.7866807
7.046                0.995519593     -13.8092044
7.048                0.995462462     -13.8317269
7.05                 0.995376649     -13.8508676
7.052                0.995290608     -13.8700062
7.054                0.995204341     -13.8891429
7.056                0.995117846     -13.9082774
7.058                0.995059201     -13.9239852
7.06                 0.995000443     -13.9396916
7.062                0.994941568     -13.9553969
7.064                0.994882577     -13.9711012
7.066                0.994887931     -13.9858396
7.068                0.994893327     -14.0005786
7.07                 0.994898761     -14.0153183
7.072                0.994904232     -14.0300587
7.074                  0.9949647     -14.0470192
7.076                0.995025346     -14.0639808
7.078                 0.99508617     -14.0809437
7.08                 0.995147173     -14.0979079
7.082                0.995215418     -14.1187579
7.084                0.995283887      -14.139609
7.086                0.995352582     -14.1604612
7.088                0.995421499     -14.1813149
7.09                 0.995445112     -14.2050722
7.092                0.995468815     -14.2288305
7.094                0.995492609     -14.2525898
7.096                0.995516492       -14.27635
7.098                0.995474086     -14.3000792
7.1                   0.99543154     -14.3238082
7.102                0.995388862     -14.3475368
7.104                 0.99534605     -14.3712651
7.106                0.995262495     -14.3920975
7.108                0.995178708     -14.4129281
7.11                 0.995094689     -14.4337568
7.112                0.995010439     -14.4545837
7.114                0.994939982     -14.4717675
7.116                0.994869372       -14.48895
7.118                 0.99479861     -14.5061312
7.12                 0.994727699      -14.523311
7.122                0.994715159     -14.5387676
7.124                0.994702617     -14.5542246
7.126                0.994690071     -14.5696822
7.128                 0.99467753     -14.5851403
7.13                 0.994726225     -14.6020749
7.132                0.994775064     -14.6190108
7.134                0.994824049     -14.6359481
7.136                0.994873178     -14.6528867
7.138                0.994943411     -14.6734986
7.14                  0.99501387     -14.6941122
7.142                0.995084553     -14.7147271
7.144                0.995155461     -14.7353433
7.146                0.995192852     -14.7593309
7.148                0.995230378     -14.7833198
7.15                  0.99526804     -14.8073098
7.152                0.995305835     -14.8313011
7.154                0.995278861     -14.8560856
7.156                0.995251807     -14.8808703
7.158                 0.99522467     -14.9056552
7.16                 0.995197449     -14.9304401
7.162                0.995119555     -14.9529411
7.164                0.995041439     -14.9754407
7.166                0.994963101     -14.9979388
7.168                0.994884539     -15.0204354
7.17                 0.994805336     -15.0392526
7.172                0.994725949     -15.0580679
7.174                0.994646379     -15.0768817
7.176                0.994566627     -15.0956939
7.178                0.994536717     -15.1121253
7.18                 0.994506767     -15.1285567
7.182                0.994476774     -15.1449883
7.184                0.994446738       -15.16142
7.186                0.994481352     -15.1785288
7.188                0.994516076     -15.1956389
7.19                 0.994550909     -15.2127504
7.192                0.994585853     -15.2298634
7.194                0.994654633     -15.2502874
7.196                0.994723626     -15.2707128
7.198                0.994792835     -15.2911398
7.2                  0.994862255     -15.3115687
7.202                0.994911282     -15.3356813
7.204                 0.99496048     -15.3597952
7.206                 0.99500985     -15.3839106
7.208                0.995059392     -15.4080274
7.21                   0.9950486     -15.4337215
7.212                0.995037777     -15.4594163
7.214                0.995026928     -15.4851117
7.216                0.995016053     -15.5108078
7.218                0.994947042     -15.5349362
7.22                 0.994877827     -15.5590636
7.222                0.994808409       -15.58319
7.224                 0.99473879     -15.6073152
7.226                0.994654381     -15.6278998
7.228                0.994569766     -15.6484828
7.23                 0.994484944     -15.6690641
7.232                0.994399919     -15.6896437
7.234                0.994354047     -15.7073111
7.236                0.994308093     -15.7249783
7.238                0.994262057     -15.7426453
7.24                 0.994215946     -15.7603121
7.242                0.994234862      -15.777848
7.244                0.994253851     -15.7953851
7.246                0.994272912     -15.8129236
7.248                0.994292045     -15.8304634
7.25                 0.994356013     -15.8508126
7.252                0.994420181     -15.8711638
7.254                0.994484546     -15.8915167
7.256                0.994549108     -15.9118713
7.258                0.994607032      -15.936068
7.26                 0.994665154     -15.9602665
7.262                0.994723474     -15.9844665
7.264                0.994781989     -16.0086682
7.266                0.994787077     -16.0351579
7.268                0.994792194     -16.0616486
7.27                 0.994797339     -16.0881403
7.272                0.994802507     -16.1146329
7.274                0.994744716     -16.1403307
7.276                0.994686753      -16.166028
7.278                0.994628619     -16.1917248
7.28                 0.994570314     -16.2174209
7.282                0.994483864     -16.2398766
7.284                0.994397189     -16.2623304
7.286                0.994310292     -16.2847827
7.288                0.994223174     -16.3072333
7.29                 0.994162881     -16.3263773
7.292                 0.99410247     -16.3455205
7.294                0.994041938     -16.3646632
7.296                0.993981285     -16.3838053
7.298                0.993983209     -16.4020266
7.3                  0.993985167     -16.4202491
7.302                0.993987158     -16.4384727
7.304                0.993989185     -16.4566976
7.306                0.994045052     -16.4771152
7.308                0.994101092     -16.4975347
7.31                 0.994157305     -16.5179561
7.312                0.994213692     -16.5383797
7.314                0.994277421     -16.5626414
7.316                0.994341362     -16.5869049
7.318                0.994405516     -16.6111703
7.32                 0.994469882     -16.6354375
7.322                0.994490035     -16.6626081
7.324                0.994510264     -16.6897803
7.326                0.994530573     -16.7169538
7.328                0.994550961     -16.7441287
7.33                 0.994506286     -16.7713238
7.332                0.994461477     -16.7985188
7.334                0.994416537     -16.8257137
7.336                0.994371465     -16.8529085
7.338                0.994286132     -16.8773076
7.34                 0.994200571     -16.9017052
7.342                0.994114782     -16.9261014
7.344                0.994028766     -16.9504959
7.346                0.993956004     -16.9713424
7.348                0.993883085     -16.9921881
7.35                 0.993810009     -17.0130329
7.352                0.993736776     -17.0338769
7.354                0.993720799       -17.05305
7.356                0.993704821     -17.0722239
7.358                0.993688835     -17.0913986
7.36                 0.993672842     -17.1105743
7.362                0.993717329     -17.1312285
7.364                0.993761963     -17.1518848
7.366                 0.99380674      -17.172543
7.368                0.993851659     -17.1932032
7.37                 0.993917712     -17.2175297
7.372                0.993983982     -17.2418583
7.374                0.994050469     -17.2661891
7.376                0.994117172      -17.290522
7.378                0.994150968      -17.318246
7.38                 0.994184889     -17.3459717
7.382                0.994218936      -17.373699
7.384                0.994253102     -17.4014282
7.386                0.994223172     -17.4299994
7.388                0.994193157     -17.4585711
7.39                 0.994163059     -17.4871432
7.392                0.994132875     -17.5157156
7.394                0.994052324     -17.5420775
7.396                0.993971546     -17.5684379
7.398                0.993890545     -17.5947973
7.4                  0.993809322     -17.6211555
7.402                0.993727265     -17.6439059
7.404                 0.99364502      -17.666655
7.406                0.993562587     -17.6894031
7.408                0.993479966     -17.7121502
7.41                 0.993446713      -17.732566
7.412                0.993413411     -17.7529824
7.414                 0.99338006     -17.7733994
7.416                0.993346664     -17.7938172
7.418                0.993377627      -17.814949
7.42                   0.9934087     -17.8360829
7.422                0.993439881     -17.8572188
7.424                0.993471176      -17.878357
7.426                0.993536344     -17.9028402
7.428                0.993601724     -17.9273257
7.43                 0.993667316     -17.9518136
7.432                0.993733121     -17.9763038
7.434                0.993778579     -18.0045406
7.436                0.993824198     -18.0327798
7.438                0.993869981      -18.061021
7.44                 0.993915928     -18.0892642
7.442                0.993901365     -18.1191434
7.444                0.993886766     -18.1490234
7.446                0.993872135     -18.1789044
7.448                0.993857469     -18.2087863
7.45                 0.993784292     -18.2371461
7.452                0.993710909     -18.2655051
7.454                0.993637319     -18.2938633
7.456                0.993563521     -18.3222205
7.458                0.993474669     -18.3470578
7.46                 0.993385601     -18.3718938
7.462                0.993296319     -18.3967286
7.464                0.993206821     -18.4215622
7.466                 0.99315655     -18.4435036
7.468                0.993106191     -18.4654449
7.47                 0.993055742     -18.4873866
7.472                0.993005201     -18.5093285
7.474                0.993020234     -18.5311758
7.476                0.993035341      -18.553025
7.478                0.993050521     -18.5748762
7.48                 0.993065771     -18.5967293
7.482                0.993126482      -18.621462
7.484                0.993187392     -18.6461973
7.486                0.993248501     -18.6709351
7.488                0.993309809     -18.6956756
7.49                 0.993364589     -18.7243688
7.492                0.993419564     -18.7530644
7.494                0.993474732     -18.7817624
7.496                0.993530089     -18.8104629
7.498                0.993531325      -18.841544
7.5                  0.993532582     -18.8726265
7.502                0.993533859     -18.9037103
7.504                0.993535158     -18.9347956
7.506                0.993472371     -18.9651433
7.508                0.993409398     -18.9954907
7.51                 0.993346246     -19.0258377
7.512                0.993282914     -19.0561843
7.514                0.993190676     -19.0832871
7.516                0.993098202     -19.1103885
7.518                0.993005494     -19.1374887
7.52                 0.992912552     -19.1645876
7.522                0.992846633     -19.1883618
7.524                 0.99278058     -19.2121359
7.526                0.992714394     -19.2359099
7.528                0.992648079     -19.2596838
7.53                 0.992645415     -19.2825515
7.532                0.992642781     -19.3054211
7.534                0.992640178     -19.3282924
7.536                 0.99263761     -19.3511659
7.538                 0.99269014     -19.3763171
7.54                 0.992742848     -19.4014711
7.542                0.992795732     -19.4266279
7.544                0.992848794     -19.4517874
7.546                0.992909608     -19.4809352
7.548                0.992970636     -19.5100859
7.55                 0.993031878     -19.5392394
7.552                0.993093332     -19.5683956
7.554                0.993109624     -19.6005893
7.556                0.993125987     -19.6327849
7.558                0.993142424     -19.6649823
7.56                 0.993158931     -19.6971817
7.562                0.993108634     -19.7294725
7.564                0.993058195     -19.7617635
7.566                0.993007613     -19.7940546
7.568                0.992956884     -19.8263456
7.57                 0.992864654     -19.8558226
7.572                0.992772181     -19.8852984
7.574                0.992679463     -19.9147731
7.576                0.992586502     -19.9442466
7.578                   0.992507      -19.970125
7.58                 0.992427326     -19.9960026
7.582                0.992347478     -20.0218798
7.584                0.992267456     -20.0477565
7.586                0.992246397     -20.0719582
7.588                0.992225326     -20.0961613
7.59                 0.992204242      -20.120366
7.592                0.992183144     -20.1445723
7.594                0.992224555     -20.1703599
7.596                0.992266115     -20.1961505
7.598                0.992307824     -20.2219439
7.6                  0.992349684     -20.2477405
7.602                0.992413501     -20.2774027
7.604                0.992477541     -20.3070681
7.606                0.992541805     -20.3367365
7.608                0.992606289     -20.3664083
7.61                 0.992636589     -20.3996734
7.612                 0.99266701     -20.4329407
7.614                0.992697554     -20.4662105
7.616                0.992728219     -20.4994826
7.618                0.992692063     -20.5337057
7.62                 0.992655803     -20.5679296
7.622                0.992619445     -20.6021541
7.624                0.992582989     -20.6363794
7.626                  0.9924938     -20.6683665
7.628                0.992404365     -20.7003527
7.63                 0.992314686     -20.7323379
7.632                0.992224763      -20.764322
7.634                0.992133618     -20.7925904
7.636                0.992042262     -20.8208582
7.638                0.991950693     -20.8491251
7.64                 0.991858916     -20.8773913
7.642                0.991818534     -20.9032642
7.644                 0.99177809     -20.9291384
7.646                0.991737585     -20.9550139
7.648                0.991697027     -20.9808907
7.65                  0.99172389     -21.0075558
7.652                0.991750867     -21.0342238
7.654                0.991777958     -21.0608948
7.656                0.991805163     -21.0875688
7.658                0.991868152      -21.117816
7.66                 0.991931366      -21.148067
7.662                0.991994804     -21.1783214
7.664                0.992058466     -21.2085793
7.666                0.992100998     -21.2428507
7.668                0.992143695      -21.277125
7.67                 0.992186557     -21.3114022
7.672                0.992229583     -21.3456823
7.674                 0.99220897     -21.3817723
7.676                0.992188311     -21.4178636
7.678                0.992167606     -21.4539562
7.68                 0.992146849     -21.4900498
7.682                0.992064245     -21.5246198
7.684                 0.99198141     -21.5591891
7.686                0.991898342     -21.5937577
7.688                0.991815043     -21.6283258
7.69                 0.991715476     -21.6592521
7.692                0.991615662     -21.6901771
7.694                0.991515605     -21.7211012
7.696                0.991415303     -21.7520244
7.698                0.991356173     -21.7799421
7.7                  0.991296935     -21.8078604
7.702                0.991237587     -21.8357797
7.704                0.991178129     -21.8636998
7.706                0.991187983     -21.8915701
7.708                 0.99119791     -21.9194434
7.71                  0.99120791     -21.9473196
7.712                0.991217985     -21.9751989
7.714                 0.99127641     -22.0061986
7.716                0.991335049     -22.0372022
7.718                  0.9913939     -22.0682095
7.72                 0.991452964     -22.0992211
7.722                0.991505247     -22.1345128
7.724                0.991557731     -22.1698078
7.726                0.991610416     -22.2051062
7.728                0.991663303      -22.240408
7.73                  0.99165858     -22.2783424
7.732                0.991653863     -22.3162788
7.734                0.991649155     -22.3542171
7.736                0.991644456     -22.3921572
7.738                0.991571214     -22.4293918
7.74                 0.991497761     -22.4666262
7.742                  0.9914241     -22.5038603
7.744                0.991350231     -22.5410941
7.746                  0.9912452     -22.5749346
7.748                0.991139898      -22.608774
7.75                 0.991034327     -22.6426124
7.752                0.990928488     -22.6764495
7.754                 0.99085127     -22.7067869
7.756                0.990773892     -22.7371248
7.758                0.990696353     -22.7674631
7.76                 0.990618654     -22.7978018
7.762                0.990609142     -22.8272309
7.764                0.990599665     -22.8566626
7.766                0.990590213     -22.8860971
7.768                0.990580787     -22.9155344
7.77                  0.99063068     -22.9474932
7.772                 0.99068077     -22.9794562
7.774                0.990731054     -23.0114235
7.776                0.990781531     -23.0433948
7.778                0.990840529     -23.0797493
7.78                 0.990899757     -23.1161079
7.782                0.990959212     -23.1524703
7.784                0.991018893      -23.188837
7.786                0.991029856     -23.2285836
7.788                0.991040885     -23.2683328
7.79                 0.991051981     -23.3080844
7.792                0.991063137     -23.3478385
