! TOUCHSTONE file generated by CST DESIGN STUDIO
! Date and time: Mon Feb 10 16:49:01 2025
! Project name: C:\Work\MatlabApps\UnitCellType2OptimizationMatlab\CST\unitcell.cst
! Tree item: Tasks\Sweep1\SPara1\S-Parameters
! Header version: 2024
! Port assignment regex: !\s*Touchstone port\s*([0-9]+)\s*=\s*(CST MWS port|CST DES external port|CST DES block port)\s*(.+)\s* \(\"(.*)\"\)(\s*mode\s*([0-9]+))?.*
! Touchstone port assignment:
! Touchstone port 1 = CST DES external port 1 ("")
# GHz S MA R 50
7                    0.993674504     -11.7530089
7.002                0.993627536     -11.7682849
7.004                0.993580406     -11.7835581
7.006                0.993533114     -11.7988286
7.008                0.993485662     -11.8140963
7.01                 0.993485314     -11.8283073
7.012                0.993485002     -11.8425172
7.014                0.993484726     -11.8567259
7.016                0.993484489     -11.8709335
7.018                0.993528936     -11.8865408
7.02                 0.993573544     -11.9021489
7.022                0.993618315     -11.9177576
7.024                0.993663247     -11.9333671
7.026                0.993719178     -11.9518734
7.028                0.993775291     -11.9703801
7.03                 0.993831582      -11.988887
7.032                0.993888054     -12.0073941
7.034                0.993914389     -12.0283149
7.036                0.993940822     -12.0492342
7.038                0.993967352     -12.0701521
7.04                 0.993993981     -12.0910684
7.042                0.993970286     -12.1122812
7.044                0.993946511     -12.1334922
7.046                0.993922657     -12.1547016
7.048                0.993898719      -12.175909
7.05                 0.993839728      -12.195119
7.052                0.993780508     -12.2143272
7.054                0.993721057     -12.2335335
7.056                0.993661377     -12.2527381
7.058                 0.99360703     -12.2691198
7.06                 0.993552493     -12.2854988
7.062                0.993497764     -12.3018755
7.064                0.993442845     -12.3182499
7.066                0.993429737     -12.3330537
7.068                 0.99341662     -12.3478559
7.07                 0.993403492     -12.3626568
7.072                0.993390353     -12.3774564
7.074                 0.99342541     -12.3930992
7.076                0.993460605     -12.4087425
7.078                0.993495938     -12.4243864
7.08                 0.993531408     -12.4400308
7.082                 0.99358751     -12.4583648
7.084                0.993643793     -12.4766995
7.086                0.993700256     -12.4950348
7.088                0.993756899     -12.5133709
7.09                  0.99379237     -12.5344061
7.092                0.993827964     -12.5554405
7.094                0.993863681     -12.5764739
7.096                0.993899521     -12.5975064
7.098                0.993887075     -12.6194236
7.1                   0.99387459     -12.6413394
7.102                0.993862071     -12.6632535
7.104                0.993849519     -12.6851661
7.106                0.993795385      -12.705563
7.108                0.993741052     -12.7259583
7.11                  0.99368652      -12.746352
7.112                 0.99363179     -12.7667442
7.114                0.993571854     -12.7843394
7.116                0.993511709     -12.8019327
7.118                0.993451354     -12.8195241
7.12                 0.993390793     -12.8371133
7.122                0.993365114     -12.8526835
7.124                0.993339377     -12.8682522
7.126                0.993313582     -12.8838195
7.128                0.993287735     -12.8993854
7.13                 0.993311676      -12.915206
7.132                0.993335723     -12.9310269
7.134                0.993359876     -12.9468479
7.136                0.993384135     -12.9626693
7.138                0.993437841     -12.9808672
7.14                 0.993491725     -12.9990662
7.142                0.993545786     -13.0172661
7.144                0.993600024     -13.0354667
7.146                0.993642918      -13.056548
7.148                0.993685954      -13.077629
7.15                 0.993729133     -13.0987096
7.152                0.993772454     -13.1197899
7.154                 0.99377152     -13.1423045
7.156                0.993770594     -13.1648177
7.158                0.993769677     -13.1873296
7.16                 0.993768764       -13.20984
7.162                0.993721584     -13.2313784
7.164                0.993674242     -13.2529153
7.166                0.993626739     -13.2744509
7.168                0.993579074      -13.295985
7.17                 0.993515972     -13.3148737
7.172                0.993452652     -13.3337604
7.174                0.993389116     -13.3526455
7.176                0.993325365     -13.3715289
7.178                0.993288133     -13.3880401
7.18                 0.993250803     -13.4045498
7.182                0.993213373     -13.4210581
7.184                0.993175843      -13.437565
7.186                0.993187637     -13.4537285
7.188                0.993199501      -13.469892
7.19                 0.993211433     -13.4860554
7.192                0.993223437      -13.502219
7.194                0.993272471     -13.5203575
7.196                0.993321672     -13.5384969
7.198                0.993371039     -13.5566372
7.2                  0.993420573     -13.5747786
7.202                0.993469034     -13.5958643
7.204                0.993517653     -13.6169501
7.206                 0.99356643     -13.6380359
7.208                0.993615364     -13.6591219
7.21                 0.993625919     -13.6821368
7.212                0.993636517     -13.7051507
7.214                0.993647161     -13.7281636
7.216                 0.99365785     -13.7511754
7.218                0.993619563      -13.773805
7.22                 0.993581153     -13.7964333
7.222                0.993542621     -13.8190602
7.224                0.993503968     -13.8416858
7.226                0.993440387     -13.8619342
7.228                0.993376596     -13.8821811
7.23                 0.993312594     -13.9024267
7.232                0.993248382     -13.9226706
7.234                0.993201215     -13.9402986
7.236                0.993153912     -13.9579252
7.238                0.993106474     -13.9755506
7.24                 0.993058907     -13.9931747
7.242                0.993058036     -14.0098835
7.244                0.993057194     -14.0265922
7.246                0.993056381     -14.0433006
7.248                0.993055597     -14.0600089
7.25                 0.993097807     -14.0782112
7.252                0.993140171     -14.0964145
7.254                0.993182685     -14.1146186
7.256                0.993225349     -14.1328235
7.258                 0.99327714     -14.1539248
7.26                 0.993329099     -14.1750266
7.262                0.993381225     -14.1961289
7.264                0.993433518     -14.2172316
7.266                0.993454738     -14.2406818
7.268                0.993476036     -14.2641312
7.27                 0.993497413     -14.2875798
7.272                0.993518865     -14.3110276
7.274                0.993490637     -14.3346919
7.276                0.993462327     -14.3583549
7.278                0.993433937     -14.3820166
7.28                 0.993405466      -14.405677
7.282                0.993343635     -14.4273292
7.284                0.993281603       -14.44898
7.286                0.993219374     -14.4706295
7.288                0.993156947     -14.4922777
7.29                  0.99310141     -14.5111772
7.292                 0.99304571     -14.5300753
7.294                0.992989847     -14.5489724
7.296                0.992933821     -14.5678683
7.298                0.992919955     -14.5853199
7.3                  0.992906076     -14.6027712
7.302                0.992892185     -14.6202221
7.304                0.992878283     -14.6376728
7.306                0.992911619     -14.6560778
7.308                0.992945082     -14.6744836
7.31                 0.992978672       -14.69289
7.312                0.993012392     -14.7112975
7.314                0.993065093     -14.7324393
7.316                0.993117967     -14.7535818
7.318                0.993171012      -14.774725
7.32                 0.993224231     -14.7958689
7.322                0.993254965     -14.8196902
7.324                0.993285803     -14.8435113
7.326                0.993316748      -14.867332
7.328                  0.9933478     -14.8911523
7.33                 0.993330449     -14.9157884
7.332                0.993313054     -14.9404234
7.334                0.993295618     -14.9650571
7.336                0.993278139     -14.9896896
7.338                 0.99322018     -15.0127672
7.34                 0.993162045     -15.0358436
7.342                0.993103732     -15.0589188
7.344                0.993045243     -15.0819925
7.346                0.992983103     -15.1023021
7.348                0.992920781     -15.1226107
7.35                 0.992858277     -15.1429183
7.352                0.992795591     -15.1632248
7.354                0.992768672     -15.1816139
7.356                0.992741704     -15.2000024
7.358                0.992714681     -15.2183905
7.36                 0.992687604     -15.2367782
7.362                 0.99271008      -15.255536
7.364                0.992732657     -15.2742943
7.366                0.992755331     -15.2930532
7.368                0.992778104     -15.3118127
7.37                 0.992829123     -15.3330304
7.372                0.992880314     -15.3542489
7.374                0.992931676     -15.3754682
7.376                0.992983208     -15.3966885
7.378                0.993021965      -15.420808
7.38                 0.993060852     -15.4449275
7.382                 0.99309987     -15.4690468
7.384                0.993139014     -15.4931662
7.386                0.993133193     -15.5186768
7.388                0.993127369     -15.5441863
7.39                 0.993121541     -15.5696948
7.392                 0.99311571     -15.5952021
7.394                0.993064139      -15.619688
7.396                0.993012413     -15.6441725
7.398                0.992960538     -15.6686557
7.4                  0.992908513     -15.6931377
7.402                0.992842451     -15.7149761
7.404                0.992776197     -15.7368135
7.406                0.992709752     -15.7586498
7.408                0.992643114     -15.7804852
7.41                 0.992604305     -15.8000214
7.412                0.992565402     -15.8195573
7.414                0.992526407     -15.8390927
7.416                0.992487323     -15.8586276
7.418                0.992497945     -15.8779426
7.42                 0.992508631     -15.8972579
7.422                 0.99251938     -15.9165737
7.424                0.992530197       -15.93589
7.426                0.992577278     -15.9572937
7.428                0.992624523     -15.9786983
7.43                 0.992671931     -16.0001037
7.432                0.992719502     -16.0215099
7.434                0.992764417     -16.0459308
7.436                0.992809482     -16.0703522
7.438                0.992854696     -16.0947738
7.44                  0.99290006     -16.1191956
7.442                0.992905611     -16.1455356
7.444                0.992911193     -16.1718746
7.446                0.992916808     -16.1982128
7.448                0.992922454       -16.22455
7.45                 0.992878748     -16.2504477
7.452                0.992834922     -16.2763441
7.454                0.992790977     -16.3022391
7.456                 0.99274691     -16.3281326
7.458                0.992678859     -16.3516022
7.46                 0.992610615     -16.3750707
7.462                0.992542178     -16.3985382
7.464                0.992473548     -16.4220046
7.466                0.992423528     -16.4428825
7.468                0.992373383     -16.4637597
7.47                 0.992323111     -16.4846364
7.472                0.992272713     -16.5055127
7.474                0.992270234     -16.5255743
7.476                0.992267782     -16.5456361
7.478                0.992265356     -16.5656982
7.48                 0.992262955     -16.5857605
7.482                 0.99230363     -16.6074506
7.484                0.992344455     -16.6291414
7.486                0.992385429     -16.6508329
7.488                0.992426552     -16.6725254
7.49                 0.992475613     -16.6972333
7.492                0.992524838     -16.7219417
7.494                0.992574227     -16.7466505
7.496                0.992623779     -16.7713599
7.498                0.992640495     -16.7984545
7.5                  0.992657277     -16.8255482
7.502                0.992674125     -16.8526413
7.504                 0.99269104     -16.8797337
7.506                0.992657067     -16.9070121
7.508                0.992623002     -16.9342891
7.51                 0.992588852     -16.9615647
7.512                0.992554615     -16.9888389
7.514                0.992487192     -17.0140405
7.516                0.992419582     -17.0392407
7.518                0.992351785     -17.0644398
7.52                 0.992283802     -17.0896377
7.522                0.992224128     -17.1120679
7.524                0.992164299     -17.1344976
7.526                0.992104316     -17.1569268
7.528                 0.99204418     -17.1793554
7.53                 0.992027885     -17.2004029
7.532                0.992011574     -17.2214505
7.534                0.991995247     -17.2424983
7.536                 0.99197891     -17.2635463
7.538                 0.99201067     -17.2856824
7.54                 0.992042557     -17.3078191
7.542                0.992074571     -17.3299565
7.544                0.992106711     -17.3520944
7.546                0.992157202      -17.377121
7.548                0.992207868     -17.4021483
7.55                 0.992258706     -17.4271761
7.552                0.992309718     -17.4522045
7.554                0.992336447     -17.4799966
7.556                0.992363273     -17.5077883
7.558                0.992390196     -17.5355795
7.56                 0.992417213     -17.5633702
7.562                 0.99239402     -17.5919745
7.564                0.992370774     -17.6205773
7.566                0.992347477     -17.6491787
7.568                0.992324126     -17.6777784
7.57                 0.992259809     -17.7047526
7.572                 0.99219532     -17.7317254
7.574                0.992130658     -17.7586968
7.576                0.992065825     -17.7856667
7.578                0.991998509     -17.8098221
7.58                 0.991931019     -17.8339765
7.582                0.991863352     -17.8581303
7.584                0.991795511     -17.8822834
7.586                0.991765591     -17.9045505
7.588                0.991735616     -17.9268175
7.59                 0.991705585     -17.9490846
7.592                0.991675499     -17.9713517
7.594                0.991696603      -17.994125
7.596                0.991717805     -18.0168986
7.598                0.991739107     -18.0396727
7.6                  0.991760508     -18.0624473
7.602                0.991810128     -18.0878731
7.604                0.991859924     -18.1132993
7.606                0.991909897      -18.138726
7.608                0.991960045     -18.1641534
7.61                 0.991995518     -18.1926322
7.612                0.992031117     -18.2211106
7.614                0.992066841     -18.2495887
7.616                 0.99210269     -18.2780665
7.618                0.992090957     -18.3079784
7.62                 0.992079203     -18.3378889
7.622                0.992067433      -18.367798
7.624                0.992055645     -18.3977056
7.626                0.991996489     -18.4265226
7.628                0.991937178     -18.4553379
7.63                 0.991877713     -18.4841515
7.632                0.991818095     -18.5129634
7.634                0.991744879     -18.5390269
7.636                0.991671473     -18.5650895
7.638                0.991597879     -18.5911511
7.64                 0.991524098     -18.6172117
7.642                0.991480407     -18.6409442
7.644                 0.99143662     -18.6646765
7.646                0.991392739     -18.6884088
7.648                0.991348768      -18.712141
7.65                 0.991357074     -18.7357506
7.652                0.991365445     -18.7593604
7.654                0.991373878     -18.7829705
7.656                0.991382375     -18.8065809
7.658                0.991428215     -18.8324876
7.66                 0.991474228     -18.8583948
7.662                0.991520413     -18.8843024
7.664                 0.99156677     -18.9102103
7.666                0.991609215     -18.9393412
7.668                0.991651809      -18.968472
7.67                 0.991694553     -18.9976027
7.672                0.991737445     -19.0267332
7.674                0.991737686     -19.0578893
7.676                0.991737945      -19.089044
7.678                0.991738223     -19.1201972
7.68                 0.991738516      -19.151349
7.682                0.991686953      -19.182024
7.684                0.991635261     -19.2126971
7.686                 0.99158344     -19.2433681
7.688                 0.99153149     -19.2740372
7.69                 0.991455119     -19.3021707
7.692                 0.99137855     -19.3303027
7.694                0.991301787     -19.3584334
7.696                 0.99122483     -19.3865628
7.698                0.991168503      -19.412026
7.7                  0.991112045     -19.4374887
7.702                0.991055458     -19.4629511
7.704                 0.99099874     -19.4884133
7.706                0.990993007     -19.5131229
7.708                0.990987297     -19.5378327
7.71                 0.990981612     -19.5625425
7.712                0.990975953     -19.5872525
7.714                 0.99101536     -19.6137992
7.716                0.991054926      -19.640346
7.718                 0.99109465     -19.6668929
7.72                 0.991134535     -19.6934403
7.722                0.991181714     -19.7232585
7.724                0.991229062     -19.7530765
7.726                0.991276581     -19.7828944
7.728                0.991324269     -19.8127122
7.73                 0.991336123     -19.8450912
7.732                0.991348028     -19.8774691
7.734                0.991359987     -19.9098456
7.736                0.991371999     -19.9422208
7.738                0.991329738     -19.9747821
7.74                 0.991287373     -20.0073411
7.742                0.991244906     -20.0398977
7.744                0.991202336      -20.072452
7.746                0.991125162     -20.1028049
7.748                0.991047793      -20.133156
7.75                 0.990970232     -20.1635053
7.752                0.990892477     -20.1938526
7.754                0.990824589     -20.2213029
7.756                0.990756541     -20.2487527
7.758                0.990688331     -20.2762018
7.76                  0.99061996     -20.3036504
7.762                 0.99059906     -20.3297315
7.764                0.990578147     -20.3558124
7.766                0.990557215     -20.3818931
7.768                0.990536264     -20.4079738
7.77                 0.990566502     -20.4353433
7.772                0.990596882     -20.4627127
7.774                  0.9906274     -20.4900818
7.776                0.990658056     -20.5174508
7.778                0.990707402     -20.5480118
7.78                 0.990756933     -20.5785725
7.782                0.990806649     -20.6091329
7.784                 0.99085655     -20.6396931
7.786                0.990879303     -20.6732685
7.788                0.990902144     -20.7068425
7.79                 0.990925073     -20.7404154
7.792                0.990948085     -20.7739871
