! TOUCHSTONE file generated by CST DESIGN STUDIO
! Date and time: Mon Feb 10 16:41:34 2025
! Project name: C:\Work\MatlabApps\UnitCellType2OptimizationMatlab\CST\unitcell.cst
! Tree item: Tasks\Sweep1\SPara1\S-Parameters
! Header version: 2024
! Port assignment regex: !\s*Touchstone port\s*([0-9]+)\s*=\s*(CST MWS port|CST DES external port|CST DES block port)\s*(.+)\s* \(\"(.*)\"\)(\s*mode\s*([0-9]+))?.*
! Touchstone port assignment:
! Touchstone port 1 = CST DES external port 1 ("")
# GHz S MA R 50
7                    0.991098249     -11.3978353
7.002                0.991070311     -11.4138621
7.004                0.991042201     -11.4298877
7.006                0.991013917     -11.4459121
7.008                0.990985461     -11.4619354
7.01                 0.990964593     -11.4778507
7.012                0.990943712     -11.4937604
7.014                0.990922818     -11.5096645
7.016                0.990901911     -11.5255632
7.018                0.990888608     -11.5414259
7.02                 0.990875356      -11.557287
7.022                0.990862154     -11.5731466
7.024                0.990849003     -11.5890046
7.026                0.990843781     -11.6048927
7.028                0.990838452     -11.6207832
7.03                 0.990833016      -11.636676
7.032                0.990827474     -11.6525712
7.034                 0.99083013     -11.6685731
7.036                0.990832666     -11.6845734
7.038                0.990835081     -11.7005719
7.04                 0.990837377     -11.7165686
7.042                0.990847417       -11.73276
7.044                0.990857495     -11.7489482
7.046                0.990867612      -11.765133
7.048                0.990877767     -11.7813146
7.05                 0.990894947     -11.7977609
7.052                0.990912176     -11.8142078
7.054                0.990929452     -11.8306554
7.056                0.990946777     -11.8471036
7.058                0.990970441     -11.8638869
7.06                 0.990994082     -11.8806702
7.062                0.991017698     -11.8974536
7.064                0.991041291     -11.9142371
7.066                0.991070295     -11.9314147
7.068                0.991099366      -11.948588
7.07                 0.991128504      -11.965757
7.072                0.991157708     -11.9829218
7.074                0.991190981     -12.0005315
7.076                0.991224401     -12.0181383
7.078                0.991257971     -12.0357421
7.08                 0.991291688     -12.0533431
7.082                0.991328473     -12.0714143
7.084                0.991365272     -12.0894862
7.086                0.991402086     -12.1075588
7.088                0.991438915     -12.1256321
7.09                 0.991478006     -12.1441971
7.092                0.991517039     -12.1627594
7.094                0.991556014     -12.1813191
7.096                0.991594932      -12.199876
7.098                0.991634865     -12.2189512
7.1                  0.991674879     -12.2380205
7.102                0.991714974     -12.2570839
7.104                0.991755152     -12.2761415
7.106                 0.99179487     -12.2957214
7.108                0.991834731     -12.3152988
7.11                 0.991874733     -12.3348735
7.112                0.991914879     -12.3544458
7.114                 0.99195336     -12.3745296
7.116                0.991991902     -12.3946125
7.118                0.992030504     -12.4146944
7.12                 0.992069166     -12.4347754
7.122                 0.99210504     -12.4553535
7.124                0.992140999     -12.4759271
7.126                 0.99217704     -12.4964965
7.128                0.992213165     -12.5170616
7.13                   0.9922452      -12.538095
7.132                0.992277412     -12.5591237
7.134                0.992309799     -12.5801479
7.136                0.992342362     -12.6011675
7.138                0.992369852      -12.622611
7.14                 0.992397433     -12.6440538
7.142                0.992425105      -12.665496
7.144                0.992452867     -12.6869375
7.146                0.992475069     -12.7087437
7.148                0.992497243     -12.7305484
7.15                  0.99251939     -12.7523517
7.152                0.992541508     -12.7741534
7.154                0.992557492     -12.7962767
7.156                0.992573521     -12.8183953
7.158                0.992589597     -12.8405092
7.16                 0.992605719     -12.8626186
7.162                 0.99261505     -12.8849884
7.164                0.992624497      -12.907356
7.166                0.992634061     -12.9297213
7.168                 0.99264374     -12.9520843
7.17                 0.992646303     -12.9746462
7.172                0.992648893     -12.9972086
7.174                0.992651512     -13.0197716
7.176                 0.99265416     -13.0423352
7.178                0.992649696     -13.0650313
7.18                 0.992645223     -13.0877254
7.182                 0.99264074     -13.1104177
7.184                0.992636247      -13.133108
7.186                0.992624527     -13.1558742
7.188                 0.99261288     -13.1786368
7.19                 0.992601307     -13.2013958
7.192                0.992589806     -13.2241512
7.194                 0.99257122     -13.2469114
7.196                0.992552669     -13.2696718
7.198                0.992534151     -13.2924325
7.2                  0.992515667     -13.3151935
7.202                 0.99249081     -13.3378849
7.204                0.992465835     -13.3605783
7.206                 0.99244074     -13.3832738
7.208                0.992415527     -13.4059714
7.21                 0.992384788     -13.4285479
7.212                0.992353924     -13.4511239
7.214                0.992322937     -13.4736993
7.216                0.992291826     -13.4962742
7.218                0.992255855      -13.518681
7.22                  0.99221983     -13.5410878
7.222                0.992183752     -13.5634944
7.224                0.992147622      -13.585901
7.226                0.992107487     -13.6081004
7.228                0.992067248     -13.6303018
7.23                 0.992026904     -13.6525055
7.232                0.991986456     -13.6747114
7.234                0.991943084      -13.696676
7.236                 0.99189956     -13.7186403
7.238                0.991855885     -13.7406043
7.24                 0.991812058     -13.7625679
7.242                0.991766217     -13.7842792
7.244                0.991720317     -13.8059866
7.246                0.991674357     -13.8276903
7.248                0.991628337     -13.8493902
7.25                  0.99158118     -13.8708259
7.252                0.991533989     -13.8922604
7.254                0.991486764     -13.9136938
7.256                0.991439504     -13.9351261
7.258                0.991392361     -13.9562802
7.26                 0.991345045     -13.9774368
7.262                0.991297555     -13.9985959
7.264                0.991249892     -14.0197574
7.266                  0.9912038     -14.0406409
7.268                0.991157486     -14.0615251
7.27                 0.991110951       -14.08241
7.272                0.991064195     -14.1032955
7.274                0.991020006     -14.1239307
7.276                0.990975691     -14.1445656
7.278                 0.99093125        -14.1652
7.28                 0.990886684     -14.1858341
7.282                0.990845552     -14.2062461
7.284                0.990804324     -14.2266596
7.286                0.990762999     -14.2470745
7.288                0.990721578     -14.2674908
7.29                 0.990684428     -14.2877254
7.292                0.990647168       -14.30796
7.294                0.990609797     -14.3281944
7.296                0.990572317     -14.3484288
7.298                0.990539723     -14.3685373
7.3                  0.990507117     -14.3886418
7.302                0.990474498     -14.4087424
7.304                0.990441865      -14.428839
7.306                0.990414438     -14.4488698
7.308                 0.99038707     -14.4688981
7.31                  0.99035976     -14.4889237
7.312                0.990332509     -14.5089468
7.314                0.990311014     -14.5289433
7.316                 0.99028946     -14.5489416
7.318                0.990267844     -14.5689417
7.32                 0.990246169     -14.5889436
7.322                0.990230833     -14.6089803
7.324                0.990215346     -14.6290181
7.326                0.990199706     -14.6490571
7.328                0.990183914     -14.6690971
7.33                 0.990174619     -14.6892358
7.332                0.990165263     -14.7093736
7.334                0.990155847     -14.7295104
7.336                0.990146371     -14.7496463
7.338                0.990143082     -14.7699467
7.34                 0.990139818     -14.7902478
7.342                0.990136579     -14.8105494
7.344                0.990133365     -14.8308516
7.346                0.990135999     -14.8513768
7.348                 0.99013866     -14.8719028
7.35                 0.990141349     -14.8924295
7.352                0.990144066      -14.912957
7.354                0.990152069      -14.933773
7.356                0.990160165     -14.9545864
7.358                0.990168353     -14.9753973
7.36                 0.990176632     -14.9962056
7.362                0.990189394     -15.0173626
7.364                0.990202325     -15.0385169
7.366                0.990215425     -15.0596683
7.368                0.990228692      -15.080817
7.37                 0.990245764     -15.1023503
7.372                0.990262905     -15.1238845
7.374                0.990280116     -15.1454197
7.376                0.990297395     -15.1669559
7.378                0.990318016      -15.188909
7.38                 0.990338571      -15.210863
7.382                0.990359059      -15.232818
7.384                 0.99037948     -15.2547738
7.386                0.990402507     -15.2771772
7.388                0.990425519     -15.2995787
7.39                 0.990448516     -15.3219781
7.392                  0.9904715     -15.3443757
7.394                0.990495941     -15.3672486
7.396                0.990520475     -15.3901204
7.398                0.990545103     -15.4129912
7.4                  0.990569824     -15.4358608
7.402                0.990594868     -15.4592137
7.404                0.990620014      -15.482567
7.406                0.990645263     -15.5059205
7.408                0.990670615     -15.5292744
7.41                 0.990695261     -15.5531177
7.412                0.990720033      -15.576959
7.414                0.990744929     -15.6007981
7.416                 0.99076995     -15.6246352
7.418                0.990793106     -15.6489632
7.42                  0.99081646     -15.6732876
7.422                0.990840012     -15.6976084
7.424                0.990863761     -15.7219257
7.426                0.990884691     -15.7467139
7.428                0.990905756     -15.7715017
7.43                 0.990926957     -15.7962891
7.432                0.990948292      -15.821076
7.434                0.990966244     -15.8463041
7.436                0.990984166     -15.8715333
7.438                0.991002059     -15.8967637
7.44                 0.991019923     -15.9219951
7.442                0.991033904      -15.947635
7.444                0.991047841     -15.9732737
7.446                0.991061734     -15.9989111
7.448                0.991075583     -16.0245473
7.45                 0.991084781     -16.0505566
7.452                0.991094028     -16.0765648
7.454                0.991103324     -16.1025719
7.456                0.991112669     -16.1285779
7.458                0.991116655     -16.1549106
7.46                 0.991120701     -16.1812441
7.462                0.991124807     -16.2075783
7.464                0.991128974     -16.2339133
7.466                0.991127399     -16.2605297
7.468                0.991125872     -16.2871452
7.47                 0.991124394     -16.3137596
7.472                0.991122965      -16.340373
7.474                0.991115431     -16.3672232
7.476                 0.99110801     -16.3940697
7.478                0.991100704     -16.4209125
7.48                  0.99109351     -16.4477515
7.482                0.991079997     -16.4747761
7.484                0.991066577     -16.5017994
7.486                0.991053251     -16.5288215
7.488                0.991040018     -16.5558423
7.49                 0.991020801     -16.5829864
7.492                0.991001497      -16.610133
7.494                0.990982107     -16.6372818
7.496                0.990962629     -16.6644331
7.498                0.990937783     -16.6916486
7.5                  0.990912754     -16.7188656
7.502                0.990887542     -16.7460842
7.504                0.990862147     -16.7733041
7.506                0.990831789     -16.8005443
7.508                0.990801309      -16.827785
7.51                 0.990770707     -16.8550263
7.512                0.990739985     -16.8822683
7.514                0.990704668     -16.9094849
7.516                0.990669265     -16.9367032
7.518                0.990633776     -16.9639232
7.52                 0.990598202     -16.9911448
7.522                0.990558609     -17.0183035
7.524                0.990518929     -17.0454617
7.526                0.990479163     -17.0726195
7.528                 0.99043931     -17.0997769
7.53                 0.990396031     -17.1268522
7.532                0.990352746     -17.1539227
7.534                0.990309455     -17.1809885
7.536                0.990266157     -17.2080495
7.538                0.990220052     -17.2350054
7.54                 0.990173981     -17.2619574
7.542                0.990127943     -17.2889057
7.544                0.990081937     -17.3158501
7.546                0.990034154     -17.3426678
7.548                0.989986242     -17.3694867
7.55                 0.989938199     -17.3963068
7.552                0.989890027     -17.4231282
7.554                0.989841437     -17.4498025
7.556                0.989792562      -17.476479
7.558                0.989743402     -17.5031576
7.56                 0.989693956     -17.5298385
7.562                0.989645194     -17.5563731
7.564                0.989596191     -17.5829083
7.566                0.989546948     -17.6094442
7.568                0.989497464     -17.6359808
7.57                 0.989449391     -17.6623807
7.572                0.989401177     -17.6887814
7.574                0.989352821      -17.715183
7.576                0.989304325     -17.7415855
7.578                0.989257903     -17.7678733
7.58                 0.989211399     -17.7941603
7.582                0.989164813     -17.8204463
7.584                0.989118146     -17.8467315
7.586                0.989074128     -17.8729397
7.588                0.989030142     -17.8991422
7.59                 0.988986189      -17.925339
7.592                0.988942268     -17.9515301
7.594                0.988901443     -17.9776885
7.596                0.988860744     -18.0038406
7.598                 0.98882017     -18.0299863
7.6                  0.988779722     -18.0561258
7.602                0.988743035     -18.0822671
7.604                0.988706336     -18.1084076
7.606                0.988669625     -18.1345474
7.608                0.988632902     -18.1606865
7.61                 0.988600964     -18.1868605
7.612                  0.9885688     -18.2130365
7.614                0.988536409     -18.2392145
7.616                0.988503793     -18.2653944
7.618                0.988476605     -18.2916617
7.62                 0.988449198     -18.3179294
7.622                 0.98842157     -18.3441973
7.624                0.988393721     -18.3704654
7.626                0.988371311     -18.3968751
7.628                 0.98834883     -18.4232849
7.63                 0.988326277     -18.4496947
7.632                0.988303652     -18.4761045
7.634                0.988286177      -18.502709
7.636                0.988268748     -18.5293129
7.638                0.988251364     -18.5559163
7.64                 0.988234027     -18.5825192
7.642                0.988221387     -18.6093799
7.644                0.988208918     -18.6362361
7.646                 0.98819662     -18.6630877
7.648                0.988184493     -18.6899348
7.65                  0.98817654     -18.7171027
7.652                0.988168869     -18.7442641
7.654                0.988161481     -18.7714189
7.656                0.988154375      -18.798567
7.658                 0.98815107     -18.8260889
7.66                 0.988147928     -18.8536089
7.662                0.988144949      -18.881127
7.664                0.988142131     -18.9086432
7.666                0.988143204     -18.9365636
7.668                 0.98814416     -18.9644859
7.67                 0.988144997     -18.9924101
7.672                0.988145717     -19.0203362
7.674                0.988150237     -19.0487031
7.676                0.988154563     -19.0770702
7.678                0.988158694     -19.1054374
7.68                 0.988162629     -19.1338048
7.682                0.988169551     -19.1626505
7.684                 0.98817643     -19.1914954
7.686                0.988183265     -19.2203393
7.688                0.988190059     -19.2491825
7.69                 0.988198622     -19.2785331
7.692                  0.9882073     -19.3078832
7.694                0.988216094     -19.3372326
7.696                0.988225002     -19.3665814
7.698                0.988234438     -19.3964613
7.7                  0.988244116     -19.4263374
7.702                0.988254037     -19.4562097
7.704                0.988264201     -19.4860781
7.706                0.988273743     -19.5165005
7.708                 0.98828365     -19.5469157
7.71                 0.988293922     -19.5773235
7.712                0.988304558      -19.607724
7.714                 0.98831359     -19.6386861
7.716                0.988322906     -19.6696441
7.718                0.988332505     -19.7005979
7.72                 0.988342386     -19.7315475
7.722                 0.98835044     -19.7630411
7.724                0.988358446      -19.794536
7.726                0.988366406     -19.8260321
7.728                0.988374317     -19.8575296
7.73                  0.98838033     -19.8895578
7.732                0.988386091     -19.9215874
7.734                  0.9883916     -19.9536182
7.736                0.988396856     -19.9856502
7.738                0.988399563     -20.0181899
7.74                 0.988402111     -20.0507294
7.742                0.988404501     -20.0832688
7.744                0.988406733     -20.1158081
7.746                0.988405294      -20.148831
7.748                 0.98840388     -20.1818536
7.75                 0.988402489     -20.2148759
7.752                0.988401121     -20.2478979
7.754                0.988395022     -20.2813729
7.756                0.988389103      -20.314844
7.758                0.988383364     -20.3483112
7.76                 0.988377805     -20.3817745
7.762                0.988366583     -20.4156711
7.764                0.988355702     -20.4495583
7.766                0.988345162     -20.4834358
7.768                0.988334962     -20.5173035
7.77                 0.988318539     -20.5515696
7.772                0.988302446     -20.5858273
7.774                0.988286683     -20.6200763
7.776                0.988271251     -20.6543166
7.778                0.988249923     -20.6889036
7.78                 0.988228557     -20.7234903
7.782                0.988207154     -20.7580766
7.784                0.988185714     -20.7926626
7.786                0.988159389     -20.8275316
7.788                0.988132639     -20.8624051
7.79                 0.988105463     -20.8972829
7.792                 0.98807786     -20.9321649
