! TOUCHSTONE file generated by CST DESIGN STUDIO
! Date and time: Mon Feb 10 16:41:25 2025
! Project name: C:\Work\MatlabApps\UnitCellType2OptimizationMatlab\CST\unitcell.cst
! Tree item: Tasks\Sweep1\SPara1\S-Parameters
! Header version: 2024
! Port assignment regex: !\s*Touchstone port\s*([0-9]+)\s*=\s*(CST MWS port|CST DES external port|CST DES block port)\s*(.+)\s* \(\"(.*)\"\)(\s*mode\s*([0-9]+))?.*
! Touchstone port assignment:
! Touchstone port 1 = CST DES external port 1 ("")
# GHz S MA R 50
7                    0.994309468     -14.6037009
7.002                0.994262161     -14.6243948
7.004                0.994214743     -14.6450913
7.006                0.994167213     -14.6657905
7.008                0.994119572     -14.6864922
7.01                 0.994074186     -14.7069762
7.012                0.994028697     -14.7274631
7.014                0.993983105     -14.7479527
7.016                0.993937411     -14.7684451
7.018                0.993894906     -14.7887423
7.02                 0.993852302     -14.8090424
7.022                0.993809597     -14.8293453
7.024                0.993766794     -14.8496511
7.026                0.993728041     -14.8698014
7.028                0.993689191     -14.8899539
7.03                 0.993650242     -14.9101087
7.032                0.993611195     -14.9302657
7.034                0.993576955     -14.9503125
7.036                 0.99354263     -14.9703612
7.038                0.993508219     -14.9904117
7.04                 0.993473724     -15.0104641
7.042                0.993444581     -15.0304591
7.044                0.993415369     -15.0504561
7.046                0.993386088     -15.0704551
7.048                0.993356738     -15.0904563
7.05                 0.993333138     -15.1104535
7.052                0.993309479     -15.1304526
7.054                 0.99328576     -15.1504537
7.056                0.993261982     -15.1704568
7.058                0.993244133     -15.1905233
7.06                 0.993226238     -15.2105914
7.062                0.993208297      -15.230661
7.064                0.993190309      -15.250732
7.066                0.993178303     -15.2709187
7.068                0.993166272     -15.2911069
7.07                 0.993154215     -15.3112966
7.072                0.993142133     -15.3314878
7.074                0.993135901     -15.3518542
7.076                0.993129659     -15.3722224
7.078                0.993123407     -15.3925921
7.08                 0.993117147     -15.4129634
7.082                0.993116516     -15.4335678
7.084                0.993115884     -15.4541733
7.086                0.993115253     -15.4747799
7.088                0.993114621     -15.4953876
7.09                 0.993119252      -15.516284
7.092                  0.9931239      -15.537181
7.094                0.993128564     -15.5580787
7.096                0.993133245     -15.5789771
7.098                0.993142626     -15.6002182
7.1                  0.993152045     -15.6214603
7.102                  0.9931615     -15.6427034
7.104                0.993170993     -15.6639475
7.106                0.993184491     -15.6855784
7.108                0.993198038     -15.7072105
7.11                 0.993211633     -15.7288438
7.112                0.993225277     -15.7504782
7.114                0.993242104     -15.7725404
7.116                0.993258988     -15.7946034
7.118                0.993275928     -15.8166674
7.12                 0.993292925     -15.8387323
7.122                0.993312195     -15.8612555
7.124                0.993331535     -15.8837796
7.126                0.993350945     -15.9063046
7.128                0.993370425     -15.9288306
7.13                 0.993391218     -15.9518306
7.132                0.993412092      -15.974832
7.134                0.993433045     -15.9978346
7.136                0.993454078     -16.0208384
7.138                0.993475501     -16.0443318
7.14                 0.993497003     -16.0678263
7.142                0.993518584     -16.0913219
7.144                0.993540244     -16.1148187
7.146                0.993561366     -16.1388038
7.148                0.993582567     -16.1627898
7.15                 0.993603849     -16.1867766
7.152                 0.99362521     -16.2107642
7.154                0.993645104     -16.2352425
7.156                0.993665085      -16.259722
7.158                0.993685151     -16.2842026
7.16                 0.993705302     -16.3086845
7.162                 0.99372309     -16.3336378
7.164                0.993740961     -16.3585928
7.166                0.993758914     -16.3835496
7.168                0.993776951     -16.4085082
7.17                 0.993791775     -16.4339238
7.172                0.993806672     -16.4593413
7.174                0.993821641     -16.4847606
7.176                0.993836684     -16.5101817
7.178                0.993847734      -16.536027
7.18                 0.993858853     -16.5618743
7.182                0.993870039     -16.5877234
7.184                0.993881293     -16.6135745
7.186                0.993887878     -16.6398153
7.188                0.993894526     -16.6660586
7.19                 0.993901238     -16.6923045
7.192                0.993908012      -16.718553
7.194                0.993909598      -16.745145
7.196                0.993911231       -16.77174
7.198                 0.99391291     -16.7983379
7.2                  0.993914636     -16.8249387
7.202                0.993910838     -16.8518341
7.204                0.993907067     -16.8787323
7.206                0.993903324     -16.9056333
7.208                0.993899609     -16.9325371
7.21                 0.993890157     -16.9596929
7.212                0.993880721     -16.9868518
7.214                0.993871302     -17.0140138
7.216                  0.9938619      -17.041179
7.218                0.993846663     -17.0685439
7.22                 0.993831429     -17.0959127
7.222                0.993816198     -17.1232853
7.224                0.993800972     -17.1506618
7.226                0.993779966     -17.1781919
7.228                0.993758944     -17.2057261
7.23                 0.993737906     -17.2332644
7.232                0.993716851     -17.2608069
7.234                0.993690181     -17.2884478
7.236                 0.99366348     -17.3160928
7.238                0.993636749     -17.3437421
7.24                 0.993609986     -17.3713955
7.242                0.993577907     -17.3991008
7.244                0.993545789     -17.4268107
7.246                0.993513632     -17.4545255
7.248                0.993481437      -17.482245
7.25                 0.993444402     -17.5099718
7.252                0.993407311     -17.5377037
7.254                0.993370162     -17.5654409
7.256                0.993332957     -17.5931833
7.258                 0.99329153     -17.6208921
7.26                 0.993250022     -17.6486058
7.262                0.993208432     -17.6763244
7.264                0.993166762     -17.7040479
7.266                0.993121644     -17.7317002
7.268                0.993076433     -17.7593572
7.27                 0.993031128      -17.787019
7.272                0.992985729     -17.8146854
7.274                0.992937687     -17.8422605
7.276                0.992889544     -17.8698408
7.278                  0.9928413     -17.8974262
7.28                 0.992792956     -17.9250168
7.282                0.992742844     -17.9524957
7.284                0.992692619     -17.9799798
7.286                0.992642283     -18.0074693
7.288                0.992591835     -18.0349641
7.29                  0.99254049     -18.0623388
7.292                0.992489028     -18.0897187
7.294                0.992437448     -18.1171036
7.296                0.992385749     -18.1444937
7.298                0.992334047     -18.1717616
7.3                   0.99228223     -18.1990348
7.302                  0.9922303     -18.2263133
7.304                0.992178257      -18.253597
7.306                0.992127103     -18.2807693
7.308                0.992075833      -18.307947
7.31                 0.992024448     -18.3351302
7.312                0.991972948     -18.3623189
7.314                0.991923253     -18.3894007
7.316                0.991873432     -18.4164874
7.318                0.991823483     -18.4435789
7.32                 0.991773407     -18.4706752
7.322                0.991725983      -18.497701
7.324                0.991678431     -18.5247308
7.326                0.991630753     -18.5517646
7.328                0.991582947     -18.5788025
7.33                 0.991538562     -18.6057998
7.332                0.991494062     -18.6328012
7.334                0.991449447     -18.6598068
7.336                0.991404718     -18.6868165
7.338                0.991364032     -18.7138278
7.34                  0.99132324     -18.7408434
7.342                0.991282342     -18.7678634
7.344                0.991241338     -18.7948878
7.346                0.991204901     -18.8219558
7.348                0.991168368     -18.8490279
7.35                 0.991131737     -18.8761041
7.352                0.991095009     -18.9031844
7.354                0.991063173     -18.9303616
7.356                0.991031261     -18.9575429
7.358                0.990999271     -18.9847282
7.36                 0.990967204     -19.0119176
7.362                0.990940235      -19.039258
7.364                0.990913207     -19.0666027
7.366                0.990886119     -19.0939516
7.368                 0.99085897     -19.1213048
7.37                 0.990837026      -19.148859
7.372                0.990815025     -19.1764168
7.374                0.990792966     -19.2039783
7.376                 0.99077085     -19.2315434
7.378                0.990753907     -19.2593682
7.38                 0.990736915     -19.2871957
7.382                0.990719873      -19.315026
7.384                0.990702782     -19.3428589
7.386                0.990690685      -19.371004
7.388                0.990678562     -19.3991519
7.39                 0.990666412     -19.4273026
7.392                0.990654234     -19.4554559
7.394                0.990646709     -19.4839787
7.396                0.990639177     -19.5125048
7.398                0.990631636     -19.5410342
7.4                  0.990624088      -19.569567
7.402                0.990620715     -19.5985157
7.404                0.990617347     -19.6274679
7.406                0.990613983     -19.6564235
7.408                0.990610623     -19.6853825
7.41                 0.990610835     -19.7148024
7.412                 0.99061107     -19.7442257
7.414                0.990611328     -19.7736524
7.416                0.990611609     -19.8030826
7.418                0.990614709     -19.8330125
7.42                  0.99061785     -19.8629462
7.422                0.990621034     -19.8928838
7.424                0.990624261     -19.9228253
7.426                0.990629537     -19.9532946
7.428                0.990634858     -19.9837676
7.43                 0.990640221     -20.0142445
7.432                0.990645629     -20.0447251
7.434                0.990652268     -20.0757615
7.436                0.990658947      -20.106801
7.438                0.990665668     -20.1378435
7.44                 0.990672429     -20.1688889
7.442                0.990679587     -20.2005054
7.444                0.990686797     -20.2321249
7.446                0.990694058     -20.2637474
7.448                0.990701369     -20.2953729
7.45                 0.990708191      -20.327578
7.452                0.990715073     -20.3597869
7.454                0.990722017     -20.3919998
7.456                0.990729021     -20.4242167
7.458                0.990734659     -20.4570121
7.46                 0.990740357      -20.489812
7.462                0.990746116     -20.5226165
7.464                0.990751935     -20.5554254
7.466                 0.99075553     -20.5888075
7.468                0.990759188     -20.6221944
7.47                 0.990762909     -20.6555861
7.472                0.990766694     -20.6889825
7.474                0.990767438     -20.7229356
7.476                0.990768253     -20.7568943
7.478                0.990769138     -20.7908585
7.48                 0.990770094     -20.8248284
7.482                0.990767233     -20.8593318
7.484                0.990764431     -20.8938413
7.486                0.990761688      -20.928357
7.488                0.990759004     -20.9628789
7.49                 0.990751921     -20.9979063
7.492                 0.99074487     -21.0329394
7.494                0.990737852     -21.0679783
7.496                0.990730867     -21.1030228
7.498                0.990718976     -21.1385368
7.5                  0.990707104     -21.1740563
7.502                 0.99069525     -21.2095814
7.504                0.990683414      -21.245112
7.506                0.990666294     -21.2810781
7.508                0.990649185     -21.3170509
7.51                 0.990632088     -21.3530303
7.512                0.990615003     -21.3890163
7.514                0.990592336     -21.4253925
7.516                0.990569666     -21.4617763
7.518                0.990546994     -21.4981677
7.52                 0.990524319     -21.5345667
7.522                0.990495923     -21.5713115
7.524                0.990467513     -21.6080644
7.526                 0.99043909     -21.6448254
7.528                0.990410652     -21.6815945
7.53                 0.990376435     -21.7186669
7.532                0.990342203     -21.7557482
7.534                0.990307955     -21.7928386
7.536                0.990273691      -21.829938
7.538                0.990233735     -21.8672887
7.54                 0.990193745     -21.9046493
7.542                0.990153722     -21.9420198
7.544                0.990113666     -21.9794002
7.546                0.990068219     -22.0169951
7.548                0.990022694     -22.0545995
7.55                 0.989977094     -22.0922133
7.552                0.989931418     -22.1298366
7.554                0.989880796     -22.1676324
7.556                0.989830065     -22.2054369
7.558                0.989779224     -22.2432499
7.56                 0.989728273     -22.2810715
7.562                0.989672942     -22.3190309
7.564                0.989617489     -22.3569993
7.566                0.989561914     -22.3949768
7.568                0.989506217     -22.4329633
7.57                  0.98944678     -22.4710536
7.572                0.989387211     -22.5091539
7.574                0.989327508     -22.5472643
7.576                0.989267673     -22.5853848
7.578                0.989204817     -22.6235855
7.58                 0.989141819     -22.6617966
7.582                0.989078681     -22.7000183
7.584                0.989015401     -22.7382504
7.586                0.988949858     -22.7765455
7.588                 0.98888418     -22.8148516
7.59                 0.988818367     -22.8531688
7.592                 0.98875242      -22.891497
7.594                 0.98868502     -22.9298777
7.596                0.988617482     -22.9682701
7.598                0.988549806     -23.0066743
7.6                  0.988481993     -23.0450902
7.602                0.988413588     -23.0835572
7.604                0.988345009      -23.122035
7.606                0.988276256     -23.1605235
7.608                0.988207328     -23.1990229
7.61                 0.988138776     -23.2375822
7.612                0.988070017     -23.2761503
7.614                0.988001051     -23.3147272
7.616                0.987931876     -23.3533128
7.618                 0.98786395      -23.391983
7.62                 0.987795817     -23.4306616
7.622                0.987727477     -23.4693485
7.624                0.987658929     -23.5080437
7.626                0.987592446     -23.5468431
7.628                0.987525769     -23.5856519
7.63                 0.987458896       -23.62447
7.632                0.987391828     -23.6632975
7.634                0.987327564     -23.7022565
7.636                0.987263118     -23.7412257
7.638                0.987198492     -23.7802049
7.64                 0.987133683     -23.8191942
7.642                0.987072272     -23.8583543
7.644                0.987010707      -23.897525
7.646                0.986948989     -23.9367062
7.648                0.986887118     -23.9758982
7.65                 0.986829146     -24.0153038
7.652                0.986771045     -24.0547206
7.654                0.986712815     -24.0941487
7.656                0.986654457      -24.133588
7.658                0.986600427     -24.1733006
7.66                 0.986546254     -24.2130235
7.662                0.986491937     -24.2527565
7.664                0.986437477     -24.2924997
7.666                0.986387709     -24.3325717
7.668                0.986337771     -24.3726512
7.67                 0.986287663     -24.4127381
7.672                0.986237385     -24.4528324
7.674                0.986192001     -24.4933169
7.676                0.986146458     -24.5338076
7.678                0.986100756     -24.5743045
7.68                 0.986054896     -24.6148077
7.682                0.986013933      -24.655759
7.684                0.985972845      -24.696718
7.686                0.985931631     -24.7376845
7.688                0.985890292     -24.7786587
7.69                 0.985853668     -24.8201402
7.692                0.985816951      -24.861631
7.694                 0.98578014     -24.9031311
7.696                0.985743235     -24.9446405
7.698                0.985710742       -24.98671
7.7                  0.985678195     -25.0287899
7.702                0.985645596     -25.0708802
7.704                0.985612943     -25.1129811
7.706                 0.98558424     -25.1556975
7.708                0.985555525     -25.1984255
7.71                 0.985526798      -25.241165
7.712                0.985498062     -25.2839163
7.714                0.985472639     -25.3273359
7.716                0.985447202     -25.3707668
7.718                0.985421751     -25.4142089
7.72                 0.985396288     -25.4576625
7.722                 0.98537359     -25.5018347
7.724                 0.98535084     -25.5460153
7.726                0.985328038     -25.5902043
7.728                0.985305181     -25.6344018
7.73                 0.985284433     -25.6793744
7.732                0.985263623     -25.7243536
7.734                0.985242751     -25.7693391
7.736                0.985221817     -25.8143311
7.738                0.985202145     -25.8601261
7.74                 0.985182439      -25.905929
7.742                0.985162698     -25.9517398
7.744                0.985142921     -25.9975585
7.746                 0.98512347     -26.0442044
7.748                0.985104016      -26.090861
7.75                 0.985084558     -26.1375284
7.752                0.985065097     -26.1842065
7.754                0.985045035     -26.2317212
7.756                0.985025009     -26.2792488
7.758                0.985005019     -26.3267895
7.76                 0.984985065     -26.3743433
7.762                  0.9849635     -26.4227463
7.764                0.984942016     -26.4711647
7.766                0.984920614     -26.5195984
7.768                0.984899296     -26.5680475
7.77                 0.984875375     -26.6173447
7.772                0.984851533     -26.6666582
7.774                0.984827772     -26.7159882
7.776                0.984804092     -26.7653346
7.778                0.984777031     -26.8155346
7.78                 0.984749973     -26.8657485
7.782                0.984722917     -26.9159761
7.784                0.984695863     -26.9662177
7.786                0.984664801     -27.0173121
7.788                0.984633669     -27.0684171
7.79                 0.984602466     -27.1195326
7.792                0.984571191     -27.1706585
