! TOUCHSTONE file generated by CST DESIGN STUDIO
! Date and time: Mon Feb 10 16:41:27 2025
! Project name: C:\Work\MatlabApps\UnitCellType2OptimizationMatlab\CST\unitcell.cst
! Tree item: Tasks\Sweep1\SPara1\S-Parameters
! Header version: 2024
! Port assignment regex: !\s*Touchstone port\s*([0-9]+)\s*=\s*(CST MWS port|CST DES external port|CST DES block port)\s*(.+)\s* \(\"(.*)\"\)(\s*mode\s*([0-9]+))?.*
! Touchstone port assignment:
! Touchstone port 1 = CST DES external port 1 ("")
# GHz S MA R 50
7                    0.993874326     -14.1360685
7.002                0.993828818      -14.155707
7.004                0.993783209     -14.1753476
7.006                0.993737501       -14.19499
7.008                0.993691693     -14.2146344
7.01                 0.993649003     -14.2340688
7.012                0.993606217     -14.2535051
7.014                0.993563337     -14.2729434
7.016                0.993520362     -14.2923835
7.018                0.993481369     -14.3116449
7.02                 0.993442289     -14.3309081
7.022                0.993403121     -14.3501731
7.024                0.993363866     -14.3694398
7.026                0.993329346     -14.3885742
7.028                0.993294751     -14.4077101
7.03                 0.993260081     -14.4268477
7.032                0.993225335     -14.4459868
7.034                0.993195962     -14.4650439
7.036                0.993166527     -14.4841025
7.038                0.993137028     -14.5031626
7.04                 0.993107467     -14.5222243
7.042                0.993083716     -14.5412619
7.044                0.993059913     -14.5603011
7.046                0.993036058     -14.5793417
7.048                0.993012151     -14.5983838
7.05                 0.992994321     -14.6174603
7.052                0.992976453     -14.6365381
7.054                0.992958546     -14.6556172
7.056                0.992940601     -14.6746976
7.058                 0.99292875     -14.6938821
7.06                 0.992916876     -14.7130678
7.062                 0.99290498     -14.7322547
7.064                0.992893061     -14.7514428
7.066                0.992887138     -14.7707881
7.068                0.992881206     -14.7901346
7.07                 0.992875265     -14.8094822
7.072                0.992869315      -14.828831
7.074                0.992869079     -14.8483963
7.076                0.992868847     -14.8679627
7.078                 0.99286862     -14.8875301
7.08                 0.992868396     -14.9070985
7.082                0.992873511     -14.9269385
7.084                0.992878645     -14.9467794
7.086                0.992883799     -14.9666211
7.088                0.992888974     -14.9864637
7.09                 0.992898972     -15.0066285
7.092                0.992909006     -15.0267941
7.094                0.992919075     -15.0469605
7.096                0.992929178     -15.0671276
7.098                 0.99294344     -15.0876659
7.1                  0.992957749     -15.1082049
7.102                0.992972104     -15.1287448
7.104                0.992986505     -15.1492855
7.106                0.993004281     -15.1702364
7.108                0.993022115     -15.1911881
7.11                 0.993040005     -15.2121405
7.112                0.993057952     -15.2330937
7.114                0.993078358     -15.2544915
7.116                0.993098831       -15.27589
7.118                0.993119372     -15.2972891
7.12                  0.99313998     -15.3186888
7.122                0.993162066     -15.3405561
7.124                0.993184228     -15.3624241
7.126                0.993206465     -15.3842928
7.128                0.993228777     -15.4061622
7.13                 0.993251571     -15.4285073
7.132                0.993274444     -15.4508532
7.134                0.993297397     -15.4731998
7.136                0.993320428     -15.4955471
7.138                0.993342988     -15.5183768
7.14                 0.993365631     -15.5412073
7.142                0.993388357     -15.5640386
7.144                0.993411165     -15.5868705
7.146                0.993432566     -15.6101741
7.148                0.993454052     -15.6334785
7.15                 0.993475623     -15.6567838
7.152                0.993497278     -15.6800898
7.154                0.993516633     -15.7038605
7.156                 0.99353607     -15.7276323
7.158                0.993555589     -15.7514051
7.16                 0.993575189     -15.7751789
7.162                0.993591665      -15.799391
7.164                0.993608217     -15.8236043
7.166                0.993624845     -15.8478189
7.168                0.993641547     -15.8720347
7.17                 0.993654346     -15.8966672
7.172                0.993667213     -15.9213012
7.174                0.993680148     -15.9459366
7.176                0.993693152     -15.9705733
7.178                0.993701562     -15.9955871
7.18                 0.993710032     -16.0206026
7.182                0.993718561     -16.0456197
7.184                0.993727149     -16.0706385
7.186                 0.99373058     -16.0959941
7.188                0.993734058     -16.1213517
7.19                 0.993737581     -16.1467113
7.192                0.993741149     -16.1720728
7.194                0.993739169     -16.1977208
7.196                 0.99373722      -16.223371
7.198                0.993735303     -16.2490234
7.2                  0.993733417     -16.2746779
7.202                0.993725763     -16.3005657
7.204                0.993718128     -16.3264558
7.206                0.993710511     -16.3523482
7.208                0.993702913     -16.3782429
7.21                 0.993689473      -16.404325
7.212                0.993676035     -16.4304096
7.214                  0.9936626     -16.4564968
7.216                0.993649169     -16.4825867
7.218                 0.99362996     -16.5088111
7.22                 0.993610736     -16.5350384
7.222                0.993591497     -16.5612686
7.224                0.993572244     -16.5875017
7.226                0.993547422     -16.6138242
7.228                0.993522568     -16.6401498
7.23                 0.993497685     -16.6664784
7.232                 0.99347277       -16.69281
7.234                0.993442589     -16.7191781
7.236                0.993412362     -16.7455493
7.238                0.993382091     -16.7719237
7.24                 0.993351774     -16.7983013
7.242                0.993316631     -16.8246722
7.244                0.993281428     -16.8510464
7.246                0.993246165     -16.8774242
7.248                0.993210841     -16.9038053
7.25                 0.993171292     -16.9301401
7.252                0.993131668     -16.9564784
7.254                0.993091969     -16.9828202
7.256                0.993052197     -17.0091655
7.258                0.993008895      -17.035429
7.26                 0.992965509     -17.0616959
7.262                0.992922038     -17.0879662
7.264                0.992878483     -17.1142399
7.266                0.992832241     -17.1403999
7.268                0.992785907     -17.1665632
7.27                 0.992739481       -17.19273
7.272                0.992692962     -17.2189001
7.274                0.992644625     -17.2449433
7.276                0.992596187       -17.27099
7.278                0.992547649     -17.2970402
7.28                  0.99249901     -17.3230938
7.282                 0.99244948     -17.3490088
7.284                0.992399844     -17.3749272
7.286                0.992350101     -17.4008489
7.288                0.992300252     -17.4267741
7.29                 0.992250395     -17.4525608
7.292                 0.99220043     -17.4783507
7.294                0.992150357      -17.504144
7.296                0.992100177     -17.5299405
7.298                0.992050878      -17.555605
7.3                  0.992001472     -17.5812729
7.302                0.991951957     -17.6069441
7.304                0.991902334     -17.6326186
7.306                0.991854458     -17.6581805
7.308                0.991806474     -17.6837455
7.31                 0.991758383     -17.7093139
7.312                0.991710185     -17.7348855
7.314                 0.99166457      -17.760357
7.316                0.991618852     -17.7858315
7.318                0.991573033      -17.811309
7.32                 0.991527112     -17.8367894
7.322                0.991484502     -17.8622111
7.324                0.991441798     -17.8876355
7.326                0.991399001     -17.9130627
7.328                0.991356111     -17.9384926
7.33                 0.991317201     -17.9638993
7.332                0.991278205     -17.9893088
7.334                0.991239124     -18.0147209
7.336                0.991199957     -18.0401358
7.338                 0.99116529     -18.0655753
7.34                 0.991130547     -18.0910174
7.342                0.991095726     -18.1164621
7.344                0.991060828     -18.1419095
7.346                0.991030827     -18.1674282
7.348                 0.99100076     -18.1929494
7.35                 0.990970627     -18.2184731
7.352                0.990940428     -18.2439993
7.354                0.990915318     -18.2696525
7.356                0.990890154     -18.2953082
7.358                0.990864938     -18.3209663
7.36                 0.990839667      -18.346627
7.362                0.990819561     -18.3724703
7.364                0.990799414     -18.3983161
7.366                0.990779225     -18.4241643
7.368                0.990758994      -18.450015
7.37                 0.990743871      -18.476098
7.372                0.990728721     -18.5021832
7.374                0.990713544     -18.5282705
7.376                0.990698338     -18.5543601
7.378                 0.99068803     -18.5807369
7.38                  0.99067771     -18.6071157
7.382                0.990667378     -18.6334964
7.384                0.990657036      -18.659879
7.386                0.990651272      -18.686597
7.388                0.990645509      -18.713317
7.39                  0.99063975     -18.7400389
7.392                0.990633992     -18.7667628
7.394                0.990632368     -18.7938749
7.396                0.990630758     -18.8209891
7.398                0.990629161     -18.8481053
7.4                  0.990627577     -18.8752236
7.402                0.990629551     -18.9027717
7.404                0.990631551     -18.9303219
7.406                0.990633575     -18.9578741
7.408                0.990635624     -18.9854283
7.41                 0.990640544     -19.0134506
7.412                  0.9906455     -19.0414749
7.414                0.990650492     -19.0695013
7.416                0.990655521     -19.0975299
7.418                0.990662616     -19.1260579
7.42                 0.990669756     -19.1545883
7.422                0.990676941     -19.1831208
7.424                0.990684171     -19.2116557
7.426                 0.99069265     -19.2407103
7.428                 0.99070118     -19.2697671
7.43                 0.990709762     -19.2988261
7.432                0.990718396     -19.3278873
7.434                0.990727399     -19.3574862
7.436                0.990736462     -19.3870871
7.438                0.990745583     -19.4166901
7.44                 0.990754764     -19.4462951
7.442                0.990763463     -19.4764427
7.444                0.990772224     -19.5065925
7.446                 0.99078105     -19.5367446
7.448                0.990789938     -19.5668989
7.45                   0.9907975     -19.5975954
7.452                0.990805124     -19.6282945
7.454                 0.99081281     -19.6589961
7.456                0.990820558     -19.6897004
7.458                 0.99082616     -19.7209385
7.46                 0.990831822     -19.7521793
7.462                0.990837543     -19.7834229
7.464                0.990843323     -19.8146694
7.466                0.990846182     -19.8464361
7.468                0.990849097     -19.8782059
7.47                 0.990852067     -19.9099789
7.472                0.990855093      -19.941755
7.474                0.990854494     -19.9740275
7.476                0.990853943     -20.0063036
7.478                0.990853441     -20.0385833
7.48                 0.990852987     -20.0708665
7.482                0.990848256     -20.1036172
7.484                0.990843564     -20.1363717
7.486                0.990838909     -20.1691301
7.488                0.990834293     -20.2018923
7.49                 0.990824906     -20.2350878
7.492                0.990815547     -20.2682872
7.494                0.990806216     -20.3014903
7.496                0.990796913     -20.3346973
7.498                 0.99078244     -20.3682955
7.5                  0.990767984     -20.4018978
7.502                0.990753544      -20.435504
7.504                0.990739121     -20.4691143
7.506                0.990719297     -20.5030781
7.508                0.990699474     -20.5370464
7.51                 0.990679652     -20.5710192
7.512                0.990659831     -20.6049966
7.514                0.990634486     -20.6392817
7.516                0.990609125     -20.6735717
7.518                0.990583748     -20.7078666
7.52                 0.990558355     -20.7421665
7.522                0.990527464     -20.7767299
7.524                0.990496541     -20.8112985
7.526                0.990465587     -20.8458724
7.528                0.990434602     -20.8804515
7.53                 0.990398243     -20.9152531
7.532                0.990361838     -20.9500604
7.534                0.990325385     -20.9848735
7.536                0.990288885     -21.0196923
7.538                 0.99024727     -21.0546858
7.54                  0.99020559     -21.0896852
7.542                0.990163845     -21.1246907
7.544                0.990122036     -21.1597022
7.546                0.990075508     -21.1948552
7.548                0.990028899     -21.2300139
7.55                 0.989982208     -21.2651784
7.552                0.989935438     -21.3003487
7.554                0.989884445     -21.3356221
7.556                0.989833358     -21.3709011
7.558                0.989782177     -21.4061856
7.56                 0.989730903     -21.4414758
7.562                0.989676047     -21.4768393
7.564                0.989621083     -21.5122086
7.566                0.989566012     -21.5475836
7.568                0.989510835     -21.5829644
7.57                 0.989452808     -21.6183928
7.572                0.989394662     -21.6538272
7.574                0.989336394     -21.6892675
7.576                0.989278006     -21.7247138
7.578                 0.98921756      -21.760193
7.58                 0.989156983     -21.7956782
7.582                0.989096276     -21.8311695
7.584                0.989035439      -21.866667
7.586                0.988973363     -21.9021888
7.588                0.988911151      -21.937717
7.59                 0.988848803     -21.9732516
7.592                0.988786319     -22.0087925
7.594                0.988723444     -22.0443571
7.596                0.988660428     -22.0799281
7.598                0.988597269     -22.1155056
7.6                  0.988533967     -22.1510896
7.602                 0.98847108     -22.1867046
7.604                0.988408046     -22.2223255
7.606                0.988344867     -22.2579524
7.608                 0.98828154     -22.2935852
7.61                 0.988219448     -22.3292637
7.612                 0.98815721     -22.3649474
7.614                0.988094829     -22.4006362
7.616                0.988032302     -22.4363303
7.618                0.987971751     -22.4720992
7.62                 0.987911058     -22.5078731
7.622                0.987850225     -22.5436521
7.624                0.987789251     -22.5794361
7.626                 0.98773098     -22.6153222
7.628                0.987672572     -22.6512135
7.63                 0.987614025       -22.68711
7.632                0.987555339     -22.7230118
7.634                 0.98750001     -22.7590504
7.636                0.987444547     -22.7950943
7.638                0.987388952     -22.8311435
7.64                 0.987333223     -22.8671982
7.642                0.987281348     -22.9034341
7.644                 0.98722935     -22.9396757
7.646                0.987177229     -22.9759228
7.648                0.987124984     -23.0121756
7.65                 0.987077004     -23.0486567
7.652                0.987028911     -23.0851436
7.654                0.986980706     -23.1216363
7.656                0.986932387     -23.1581347
7.658                0.986888584     -23.1949217
7.66                 0.986844678     -23.2317139
7.662                0.986800671     -23.2685114
7.664                0.986756561     -23.3053141
7.666                0.986717067     -23.3424573
7.668                0.986677487     -23.3796048
7.67                 0.986637818     -23.4167565
7.672                0.986598062     -23.4539125
7.674                0.986562887     -23.4914642
7.676                0.986527642     -23.5290199
7.678                0.986492325     -23.5665795
7.68                 0.986456938     -23.6041431
7.682                0.986425993     -23.6421566
7.684                0.986394991     -23.6801744
7.686                 0.98636393     -23.7181965
7.688                0.986332811     -23.7562231
7.69                 0.986305867     -23.7947555
7.692                0.986278877     -23.8332928
7.694                 0.98625184     -23.8718349
7.696                0.986224755     -23.9103819
7.698                0.986201468     -23.9494833
7.7                  0.986178149       -23.98859
7.702                0.986154797      -24.027702
7.704                0.986131413     -24.0668194
7.706                0.986111337     -24.1065397
7.708                0.986091244     -24.1462659
7.71                 0.986071132      -24.185998
7.712                0.986051003      -24.225736
7.714                0.986033476      -24.266121
7.716                 0.98601594     -24.3065116
7.718                0.985998397      -24.346908
7.72                 0.985980847     -24.3873102
7.722                0.985965186     -24.4283964
7.724                0.985949528     -24.4694872
7.726                0.985933873     -24.5105828
7.728                0.985918221     -24.5516831
7.73                  0.98590364     -24.5935072
7.732                0.985889074     -24.6353356
7.734                0.985874523     -24.6771683
7.736                0.985859986     -24.7190051
7.738                0.985845651     -24.7615813
7.74                 0.985831337     -24.8041624
7.742                0.985817043     -24.8467483
7.744                 0.98580277     -24.8893391
7.746                0.985787846     -24.9326847
7.748                0.985772943     -24.9760362
7.75                 0.985758062     -25.0193936
7.752                0.985743201     -25.0627569
7.754                0.985726898     -25.1068769
7.756                0.985710618     -25.1510038
7.758                0.985694362     -25.1951377
7.76                 0.985678129     -25.2392785
7.762                0.985659632     -25.2841797
7.764                0.985641159     -25.3290891
7.766                0.985622711     -25.3740067
7.768                 0.98560429     -25.4189324
7.77                 0.985582788     -25.4646087
7.772                0.985561305     -25.5102937
7.774                0.985539842     -25.5559873
7.776                  0.9855184     -25.6016895
7.778                0.985493124      -25.648136
7.78                 0.985467857     -25.6945901
7.782                0.985442599     -25.7410519
7.784                0.985417348     -25.7875213
7.786                0.985387584     -25.8347192
7.788                0.985357817     -25.8819237
7.79                 0.985328049     -25.9291348
7.792                0.985298279     -25.9763526
