! TOUCHSTONE file generated by CST DESIGN STUDIO
! Date and time: Mon Feb 10 16:41:35 2025
! Project name: C:\Work\MatlabApps\UnitCellType2OptimizationMatlab\CST\unitcell.cst
! Tree item: Tasks\Sweep1\SPara1\S-Parameters
! Header version: 2024
! Port assignment regex: !\s*Touchstone port\s*([0-9]+)\s*=\s*(CST MWS port|CST DES external port|CST DES block port)\s*(.+)\s* \(\"(.*)\"\)(\s*mode\s*([0-9]+))?.*
! Touchstone port assignment:
! Touchstone port 1 = CST DES external port 1 ("")
# GHz S MA R 50
7                    0.990033431     -10.4374772
7.002                0.990014711     -10.4532744
7.004                0.989995722     -10.4690672
7.006                0.989976467     -10.4848557
7.008                0.989956947       -10.50064
7.01                  0.98994634     -10.5163723
7.012                0.989935753      -10.532093
7.014                0.989925185     -10.5478022
7.016                0.989914637     -10.5634999
7.018                0.989912551     -10.5792277
7.02                 0.989910582     -10.5949514
7.022                0.989908729     -10.6106709
7.024                0.989906991     -10.6263864
7.026                0.989913975     -10.6421973
7.028                 0.98992077     -10.6580102
7.03                 0.989927375     -10.6738249
7.032                 0.98993379     -10.6896414
7.034                0.989949199     -10.7056377
7.036                0.989964386     -10.7216283
7.038                0.989979355     -10.7376129
7.04                 0.989994106     -10.7535917
7.042                0.990016991      -10.769848
7.044                0.990039936     -10.7860962
7.046                0.990062942     -10.8023366
7.048                0.990086008     -10.8185692
7.05                 0.990116065     -10.8351468
7.052                0.990146183     -10.8517235
7.054                0.990176362     -10.8682994
7.056                0.990206603     -10.8848744
7.058                0.990242997     -10.9018603
7.06                 0.990279313     -10.9188437
7.062                0.990315551     -10.9358248
7.064                0.990351711     -10.9528036
7.066                0.990392827     -10.9702544
7.068                 0.99043403     -10.9876954
7.07                 0.990475318     -11.0051266
7.072                0.990516691     -11.0225481
7.074                 0.99056124     -11.0404874
7.076                0.990606013     -11.0584198
7.078                0.990651009     -11.0763454
7.08                 0.990696228     -11.0942642
7.082                0.990743516     -11.1127107
7.084                0.990790773     -11.1311561
7.086                0.990837998     -11.1496004
7.088                0.990885194     -11.1680437
7.09                 0.990933761     -11.1870259
7.092                0.990982165     -11.2060007
7.094                0.991030409      -11.224968
7.096                0.991078494     -11.2439279
7.098                0.991126509     -11.2634484
7.1                  0.991174612     -11.2829567
7.102                0.991222805     -11.3024526
7.104                0.991271088     -11.3219364
7.106                0.991317524     -11.3419707
7.108                0.991364148     -11.3619991
7.11                  0.99141096     -11.3820215
7.112                0.991457961     -11.4020382
7.114                0.991501902     -11.4225764
7.116                0.991545879     -11.4431112
7.118                0.991589891     -11.4636427
7.12                 0.991633938     -11.4841709
7.122                0.991673848     -11.5051958
7.124                0.991713839     -11.5262114
7.126                0.991753911     -11.5472179
7.128                0.991794064     -11.5682153
7.13                 0.991828637     -11.5896708
7.132                0.991863458     -11.6111173
7.134                0.991898526     -11.6325548
7.136                 0.99193384     -11.6539832
7.138                 0.99196263     -11.6758076
7.14                 0.991991511     -11.6976296
7.142                0.992020484      -11.719449
7.144                0.992049547      -11.741266
7.146                0.992071923     -11.7634055
7.148                0.992094184     -11.7855404
7.15                 0.992116331     -11.8076707
7.152                0.992138366     -11.8297963
7.154                0.992153286     -11.8521949
7.156                0.992168235     -11.8745837
7.158                0.992183215     -11.8969627
7.16                 0.992198225     -11.9193319
7.162                0.992205431     -11.9419037
7.164                0.992212795     -11.9644702
7.166                0.992220318     -11.9870316
7.168                0.992227999      -12.009588
7.17                 0.992227725     -12.0322715
7.172                0.992227459     -12.0549545
7.174                0.992227202     -12.0776368
7.176                0.992226954     -12.1003185
7.178                0.992219051     -12.1230564
7.18                 0.992211107      -12.145789
7.182                0.992203122     -12.1685163
7.184                0.992195095     -12.1912385
7.186                0.992179378       -12.21396
7.188                0.992163784     -12.2366738
7.19                 0.992148312       -12.25938
7.192                0.992132961     -12.2820784
7.194                 0.99211018     -12.3046994
7.196                 0.99208746     -12.3273194
7.198                  0.9920648     -12.3499384
7.2                  0.992042199     -12.3725564
7.202                0.992013282     -12.3950161
7.204                0.991984166     -12.4174772
7.206                0.991954852     -12.4399398
7.208                0.991925341     -12.4624037
7.21                 0.991890709     -12.4846608
7.212                0.991855889     -12.5069146
7.214                0.991820882     -12.5291652
7.216                0.991785688     -12.5514127
7.218                0.991746131      -12.573411
7.22                 0.991706524     -12.5954075
7.222                0.991666867     -12.6174022
7.224                 0.99162716     -12.6393953
7.226                0.991584095     -12.6611016
7.228                0.991540896       -12.68281
7.23                 0.991497563     -12.7045206
7.232                0.991454097     -12.7262332
7.234                0.991408608     -12.7476339
7.236                0.991362918     -12.7690321
7.238                0.991317024      -12.790428
7.24                 0.991270929     -12.8118214
7.242                0.991223769     -12.8329064
7.244                0.991176582     -12.8539837
7.246                0.991129367     -12.8750532
7.248                0.991082123      -12.896115
7.25                 0.991034648     -12.9168654
7.252                 0.99098719      -12.937613
7.254                0.990939748     -12.9583579
7.256                0.990892322     -12.9791001
7.258                0.990846139      -12.999521
7.26                 0.990799723     -13.0199448
7.262                0.990753073     -13.0403715
7.264                0.990706191      -13.060801
7.266                0.990662283     -13.0809198
7.268                0.990618059     -13.1010383
7.27                 0.990573521     -13.1211565
7.272                0.990528669     -13.1412741
7.274                0.990487752     -13.1611227
7.276                0.990446687     -13.1809696
7.278                0.990405473     -13.2008148
7.28                 0.990364111     -13.2206585
7.282                0.990327422     -13.2402716
7.284                0.990290627     -13.2598864
7.286                0.990253725     -13.2795029
7.288                0.990216716     -13.2991212
7.29                 0.990185172     -13.3185604
7.292                0.990153492     -13.3379985
7.294                0.990121676     -13.3574357
7.296                0.990089725     -13.3768718
7.298                0.990063682     -13.3962012
7.3                  0.990037672     -13.4155233
7.302                0.990011695     -13.4348382
7.304                0.989985751     -13.4541459
7.306                 0.98996574     -13.4734178
7.308                0.989945874     -13.4926852
7.31                 0.989926154     -13.5119482
7.312                0.989906578     -13.5312066
7.314                0.989893444     -13.5504715
7.316                 0.98988023     -13.5697388
7.318                0.989866937     -13.5890082
7.32                 0.989853564     -13.6082798
7.322                0.989847324     -13.6276232
7.324                0.989840837      -13.646967
7.326                0.989834101     -13.6663111
7.328                0.989827118     -13.6856553
7.33                 0.989827275     -13.7051437
7.332                0.989827337     -13.7246292
7.334                0.989827305     -13.7441117
7.336                0.989827178     -13.7635914
7.338                0.989833534      -13.783283
7.34                 0.989839931     -13.8029747
7.342                 0.98984637     -13.8226667
7.344                0.989852849     -13.8423588
7.346                0.989865225     -13.8623207
7.348                0.989877636     -13.8822829
7.35                 0.989890083     -13.9022455
7.352                0.989902566     -13.9222085
7.354                0.989920139      -13.942509
7.356                0.989937857     -13.9628044
7.358                 0.98995572     -13.9830948
7.36                 0.989973726     -14.0033801
7.362                0.989995693     -14.0240635
7.364                0.990017929     -14.0447418
7.366                0.990040435      -14.065415
7.368                 0.99006321     -14.0860832
7.37                 0.990089148     -14.1071775
7.372                0.990115169     -14.1282725
7.374                0.990141273     -14.1493682
7.376                 0.99016746     -14.1704646
7.378                0.990196481     -14.1920115
7.38                 0.990225344     -14.2135581
7.382                0.990254049     -14.2351044
7.384                0.990282598     -14.2566504
7.386                0.990313212     -14.2786739
7.388                0.990343757     -14.3006925
7.39                 0.990374236     -14.3227062
7.392                0.990404648      -14.344715
7.394                0.990435711      -14.367221
7.396                0.990466886     -14.3897242
7.398                0.990498174     -14.4122247
7.4                  0.990529574     -14.4347224
7.402                0.990560304     -14.4577125
7.404                0.990591156     -14.4807023
7.406                 0.99062213     -14.5036919
7.408                0.990653226     -14.5266813
7.41                 0.990682547     -14.5501603
7.412                 0.99071203     -14.5736351
7.414                0.990741676     -14.5971057
7.416                0.990771483     -14.6205722
7.418                0.990798221      -14.644523
7.42                 0.990825249     -14.6684677
7.422                0.990852565     -14.6924061
7.424                0.990880169     -14.7163383
7.426                0.990903745     -14.7407231
7.428                0.990927497     -14.7651067
7.43                 0.990951426      -14.789489
7.432                 0.99097553     -14.8138702
7.434                0.990995318      -14.838661
7.436                0.991014998     -14.8634524
7.438                0.991034573     -14.8882441
7.44                 0.991054041     -14.9130362
7.442                0.991068931     -14.9381984
7.444                0.991083696      -14.963357
7.446                0.991098337      -14.988512
7.448                0.991112856     -15.0136634
7.45                 0.991122005     -15.0391418
7.452                0.991131195     -15.0646174
7.454                0.991140427     -15.0900903
7.456                0.991149701     -15.1155605
7.458                0.991152873     -15.1413002
7.46                  0.99115611     -15.1670404
7.462                0.991159412     -15.1927812
7.464                0.991162778     -15.2185226
7.466                0.991159767     -15.2444815
7.468                0.991156813     -15.2704379
7.47                 0.991153917     -15.2963918
7.472                0.991151077     -15.3223432
7.474                0.991141534     -15.3484658
7.476                0.991132174     -15.3745819
7.478                0.991122998     -15.4006914
7.48                 0.991114004     -15.4267942
7.482                0.991098166     -15.4530127
7.484                0.991082484     -15.4792287
7.486                0.991066955     -15.5054423
7.488                0.991051581     -15.5316535
7.49                 0.991030051     -15.5579105
7.492                0.991008372     -15.5841702
7.494                0.990986545     -15.6104326
7.496                 0.99096457     -15.6366977
7.498                0.990937488     -15.6629479
7.5                  0.990910107     -15.6891988
7.502                0.990882427     -15.7154504
7.504                0.990854449     -15.7417027
7.506                0.990821924     -15.7678976
7.508                0.990789218     -15.7940922
7.51                 0.990756333     -15.8202866
7.512                0.990723269     -15.8464808
7.514                0.990686059     -15.8725726
7.516                0.990648739     -15.8986665
7.518                 0.99061131     -15.9247623
7.52                 0.990573771     -15.9508602
7.522                0.990532743     -15.9768214
7.524                0.990491618     -16.0027813
7.526                0.990450395     -16.0287399
7.528                0.990409074     -16.0546972
7.53                 0.990364873     -16.0805089
7.532                0.990320728     -16.1063128
7.534                0.990276639     -16.1321088
7.536                0.990232605     -16.1578969
7.538                0.990186277     -16.1835247
7.54                 0.990140076     -16.2091468
7.542                0.990094002     -16.2347631
7.544                0.990048054     -16.2603734
7.546                 0.99000107     -16.2858035
7.548                0.989953931     -16.3112353
7.55                 0.989906636      -16.336669
7.552                0.989859186     -16.3621045
7.554                0.989812476     -16.3873442
7.556                0.989765348     -16.4125864
7.558                0.989717802     -16.4378312
7.56                 0.989669836     -16.4630784
7.562                 0.98962387     -16.4881407
7.564                0.989577564     -16.5132033
7.566                0.989530919     -16.5382662
7.568                0.989483935     -16.5633293
7.57                  0.98943955     -16.5882258
7.572                0.989394992     -16.6131237
7.574                 0.98935026     -16.6380231
7.576                0.989305355     -16.6629239
7.578                0.989263549     -16.6876887
7.58                  0.98922167     -16.7124525
7.582                0.989179718     -16.7372152
7.584                0.989137692     -16.7619769
7.586                0.989099125     -16.7866539
7.588                0.989060683     -16.8113226
7.59                 0.989022366      -16.835983
7.592                0.988984171      -16.860635
7.594                0.988949614     -16.8852586
7.596                0.988915333     -16.9098736
7.598                0.988881327     -16.9344798
7.6                  0.988847597     -16.9590773
7.602                0.988818171     -16.9836845
7.604                0.988788769     -17.0082913
7.606                0.988759391     -17.0328978
7.608                0.988730038      -17.057504
7.61                 0.988706313     -17.0821552
7.612                0.988682239     -17.1068091
7.614                0.988657813     -17.1314656
7.616                0.988633037     -17.1561246
7.618                0.988614649     -17.1808879
7.62                 0.988595915      -17.205651
7.622                0.988576835     -17.2304136
7.624                0.988557409     -17.2551758
7.626                0.988544102     -17.2801015
7.628                 0.98853069     -17.3050274
7.63                 0.988517174     -17.3299535
7.632                0.988503554     -17.3548797
7.634                0.988495365      -17.380023
7.636                0.988487261     -17.4051662
7.638                0.988479242     -17.4303094
7.64                 0.988471308     -17.4554526
7.642                0.988467965     -17.4808794
7.644                0.988464917     -17.5063001
7.646                0.988462163     -17.5317148
7.648                0.988459704     -17.5571235
7.65                 0.988460931     -17.5828824
7.652                0.988462635     -17.6086326
7.654                0.988464816     -17.6343741
7.656                0.988467474     -17.6601067
7.658                0.988473333     -17.6862378
7.66                 0.988479451     -17.7123671
7.662                0.988485826     -17.7384945
7.664                0.988492459     -17.7646199
7.666                0.988502692     -17.7911671
7.668                  0.9885127     -17.8177167
7.67                 0.988522481     -17.8442687
7.672                0.988532036     -17.8708228
7.674                0.988545357     -17.8978327
7.676                 0.98855832     -17.9248415
7.678                0.988570925     -17.9518491
7.68                 0.988583172     -17.9788554
7.682                0.988598182     -18.0063508
7.684                0.988613084     -18.0338445
7.686                 0.98862788     -18.0613363
7.688                0.988642569     -18.0888262
7.69                  0.98865841     -18.1168242
7.692                0.988674402     -18.1448219
7.694                0.988690545     -18.1728192
7.696                 0.98870684     -18.2008163
7.698                0.988722681     -18.2293368
7.7                  0.988738889     -18.2578527
7.702                0.988755465      -18.286364
7.704                0.988772407     -18.3148705
7.706                0.988787439     -18.3439182
7.708                0.988803047     -18.3729565
7.71                 0.988819231     -18.4019852
7.712                 0.98883599     -18.4310042
7.714                0.988849797     -18.4605633
7.716                0.988864036     -18.4901175
7.718                0.988878707     -18.5196669
7.72                 0.988893809     -18.5492114
7.722                0.988906172      -18.579265
7.724                0.988918405     -18.6093206
7.726                0.988930508      -18.639378
7.728                0.988942481     -18.6694373
7.73                 0.988952206     -18.6999838
7.732                0.988961461      -18.730531
7.734                0.988970248     -18.7610786
7.736                0.988978566     -18.7916263
7.738                0.988984119     -18.8226323
7.74                 0.988989367     -18.8536373
7.742                0.988994309     -18.8846411
7.744                0.988998946     -18.9156437
7.746                0.988999465     -18.9470701
7.748                0.988999986     -18.9784965
7.75                  0.98900051      -19.009923
7.752                0.989001037     -19.0413496
7.754                0.988996098      -19.073161
7.756                0.988991435     -19.1049678
7.758                0.988987049       -19.13677
7.76                 0.988982939     -19.1685677
7.762                0.988972172     -19.2007285
7.764                 0.98896197     -19.2328767
7.766                0.988952332     -19.2650122
7.768                0.988943257     -19.2971347
7.77                 0.988926903     -19.3295822
7.772                0.988911102     -19.3620191
7.774                0.988895856      -19.394445
7.776                0.988881162     -19.4268598
7.778                 0.98886003     -19.4595378
7.78                 0.988838833     -19.4922161
7.782                0.988817571     -19.5248948
7.784                0.988796245     -19.5575737
7.786                 0.98877039     -19.5904439
7.788                0.988743828     -19.6233196
7.79                 0.988716558     -19.6562007
7.792                0.988688579      -19.689087
