! TOUCHSTONE file generated by CST DESIGN STUDIO
! Date and time: Mon Feb 10 16:41:40 2025
! Project name: C:\Work\MatlabApps\UnitCellType2OptimizationMatlab\CST\unitcell.cst
! Tree item: Tasks\Sweep1\SPara1\S-Parameters
! Header version: 2024
! Port assignment regex: !\s*Touchstone port\s*([0-9]+)\s*=\s*(CST MWS port|CST DES external port|CST DES block port)\s*(.+)\s* \(\"(.*)\"\)(\s*mode\s*([0-9]+))?.*
! Touchstone port assignment:
! Touchstone port 1 = CST DES external port 1 ("")
# GHz S MA R 50
7                    0.985169198     -6.48846427
7.002                0.985206984     -6.50895191
7.004                0.985243609     -6.52938641
7.006                0.985279083     -6.54976853
7.008                0.985313417     -6.57009902
7.01                 0.985360731     -6.59069431
7.012                0.985408103     -6.61120982
7.014                0.985455528     -6.63164636
7.016                0.985503007     -6.65200474
7.018                0.985560242     -6.67272757
7.02                 0.985617854      -6.6934035
7.022                0.985675839     -6.71403292
7.024                0.985734194     -6.73461623
7.026                0.985802778     -6.75558501
7.028                0.985870377     -6.77652603
7.03                 0.985936999     -6.79743931
7.032                0.986002652     -6.81832489
7.034                0.986079508     -6.83970212
7.036                0.986155265     -6.86101813
7.038                0.986229937     -6.88227323
7.04                  0.98630354     -6.90346775
7.042                0.986385404      -6.9252882
7.044                0.986467318     -6.94704337
7.046                0.986549286     -6.96873421
7.048                0.986631312     -6.99036165
7.05                 0.986718354     -7.01264074
7.052                0.986805393      -7.0348842
7.054                0.986892431      -7.0570924
7.056                0.986979468     -7.07926565
7.058                0.987070561     -7.10211477
7.06                 0.987161076     -7.12491991
7.062                0.987251018     -7.14768154
7.064                0.987340394     -7.17040018
7.066                0.987431667     -7.19386602
7.068                0.987523059     -7.21726164
7.07                 0.987614568     -7.24058775
7.072                0.987706191     -7.26384509
7.074                0.987795886     -7.28786554
7.076                0.987886227      -7.3118317
7.078                0.987977206     -7.33574397
7.08                 0.988068818     -7.35960281
7.082                0.988157497     -7.38414938
7.084                0.988245765     -7.40866175
7.086                0.988333627     -7.43314011
7.088                0.988421087     -7.45758474
7.09                 0.988506316     -7.48268765
7.092                0.988590647     -7.50773049
7.094                0.988674092     -7.53271357
7.096                0.988756663     -7.55763718
7.098                0.988834831     -7.58323718
7.1                   0.98891311     -7.60876382
7.102                0.988991503     -7.63421788
7.104                0.989070014     -7.65960025
7.106                0.989140835     -7.68558302
7.108                 0.98921212     -7.71152111
7.11                 0.989283864     -7.73741497
7.112                0.989356066     -7.76326503
7.114                0.989419753     -7.78960328
7.116                0.989483292     -7.81590579
7.118                0.989546684     -7.84217289
7.12                 0.989609931     -7.86840493
7.122                 0.98966417      -7.8950721
7.124                0.989718475     -7.92168304
7.126                0.989772843     -7.94823837
7.128                0.989827271     -7.97473871
7.13                  0.98987054     -8.00161051
7.132                0.989914515     -8.02843107
7.134                0.989959192     -8.05520067
7.136                0.990004562     -8.08191958
7.138                0.990038183     -8.10887712
7.14                 0.990071891     -8.13580684
7.142                0.990105688      -8.1627089
7.144                0.990139573     -8.18958346
7.146                0.990163539     -8.21657657
7.148                0.990186845     -8.24353111
7.15                 0.990209499     -8.27044723
7.152                0.990231507     -8.29732508
7.154                0.990243909     -8.32427275
7.156                 0.99025625     -8.35116528
7.158                0.990268534     -8.37800319
7.16                 0.990280765     -8.40478701
7.162                0.990282171     -8.43154305
7.164                0.990284011     -8.45826441
7.166                0.990286283     -8.48495146
7.168                0.990288984     -8.51160457
7.17                  0.99028146     -8.53810288
7.172                0.990273827     -8.56458159
7.174                0.990266086     -8.59104087
7.176                0.990258239     -8.61748088
7.178                 0.99024185     -8.64369305
7.18                 0.990225236     -8.66986778
7.182                  0.9902084     -8.69600554
7.184                0.990191341      -8.7221068
7.186                0.990165726     -8.74794507
7.188                0.990140556     -8.77374058
7.19                 0.990115827     -8.79949354
7.192                0.990091534     -8.82520414
7.194                0.990059127     -8.85055698
7.196                0.990026955     -8.87589136
7.198                0.989995015     -8.90120736
7.2                  0.989963304     -8.92650502
7.202                0.989926474     -8.95134189
7.204                0.989888973     -8.97616553
7.206                0.989850805     -9.00097596
7.208                0.989811974      -9.0257732
7.21                 0.989770724     -9.05008869
7.212                0.989728914     -9.07437506
7.214                 0.98968655     -9.09863255
7.216                0.989643635     -9.12286132
7.218                0.989598976     -9.14659474
7.22                  0.98955429     -9.17030736
7.222                 0.98950958     -9.19399947
7.224                0.989464845     -9.21767131
7.226                 0.98941966     -9.24081568
7.228                0.989374164     -9.26395277
7.23                 0.989328358     -9.28708264
7.232                0.989282244     -9.31020532
7.234                0.989237975     -9.33281611
7.236                0.989193199      -9.3554029
7.238                0.989147919     -9.37796604
7.24                 0.989102135     -9.40050579
7.242                0.989058927     -9.42260744
7.244                0.989015879     -9.44467012
7.246                0.988972989     -9.46669406
7.248                0.988930252     -9.48867946
7.25                 0.988890258     -9.51025569
7.252                0.988850558      -9.5318124
7.254                0.988811149     -9.55334966
7.256                0.988772029     -9.57486753
7.258                 0.98873809     -9.59596932
7.26                  0.98870353     -9.61706755
7.262                0.988668353     -9.63816221
7.264                0.988632561     -9.65925326
7.266                 0.98860499     -9.67997776
7.268                0.988576518     -9.70068624
7.27                 0.988547149     -9.72137864
7.272                0.988516891     -9.74205489
7.274                0.988495411     -9.76245842
7.276                0.988473597     -9.78284443
7.278                 0.98845145     -9.80321311
7.28                 0.988428975     -9.82356463
7.282                 0.98841515     -9.84370927
7.284                0.988401091     -9.86384875
7.286                0.988386798     -9.88398313
7.288                0.988372271     -9.90411243
7.29                 0.988366908     -9.92411983
7.292                0.988361193     -9.94411173
7.294                0.988355127     -9.96408832
7.296                0.988348712     -9.98404979
7.298                0.988350994     -10.0040241
7.3                    0.9883535     -10.0239643
7.302                0.988356227     -10.0438706
7.304                0.988359174     -10.0637431
7.306                0.988369377     -10.0837309
7.308                0.988380132     -10.1036954
7.31                 0.988391438     -10.1236368
7.312                 0.98840329     -10.1435551
7.314                0.988422937     -10.1636227
7.316                0.988442299     -10.1836853
7.318                 0.98846138     -10.2037429
7.32                  0.98848018     -10.2237957
7.322                0.988508404     -10.2440681
7.324                0.988535755     -10.2643256
7.326                0.988562236      -10.284568
7.328                0.988587854     -10.3047952
7.33                 0.988622412      -10.325342
7.332                0.988656599     -10.3458651
7.334                0.988690419     -10.3663647
7.336                0.988723876     -10.3868409
7.338                0.988764092     -10.4076985
7.34                  0.98880435     -10.4285447
7.342                 0.98884465     -10.4493795
7.344                0.988884991     -10.4702032
7.346                0.988930583     -10.4914502
7.348                0.988976173     -10.5126859
7.35                 0.989021762     -10.5339104
7.352                0.989067349     -10.5551238
7.354                0.989116489     -10.5768342
7.356                0.989165994     -10.5985172
7.358                 0.98921586     -10.6201728
7.36                 0.989266086     -10.6418013
7.362                0.989317426     -10.6639848
7.364                0.989369521      -10.686143
7.366                0.989422368     -10.7082761
7.368                0.989475961     -10.7303842
7.37                  0.98952971     -10.7530368
7.372                0.989583555       -10.77568
7.374                0.989637496     -10.7983137
7.376                0.989691532      -10.820938
7.378                0.989746542     -10.8441002
7.38                 0.989800855     -10.8672458
7.382                0.989854476     -10.8903746
7.384                0.989907409     -10.9134868
7.386                0.989960743     -10.9371582
7.388                0.990013689     -10.9607998
7.39                 0.990066254     -10.9844118
7.392                0.990118441     -11.0079943
7.394                0.990168526     -11.0321259
7.396                 0.99021879     -11.0562382
7.398                0.990269233     -11.0803314
7.4                  0.990319855     -11.1044056
7.402                0.990366369     -11.1289724
7.404                0.990413076     -11.1535287
7.406                0.990459974     -11.1780746
7.408                0.990507063     -11.2026102
7.41                 0.990548753     -11.2276082
7.412                0.990590785     -11.2525842
7.414                0.990633156     -11.2775386
7.416                0.990675863     -11.3024715
7.418                 0.99071133     -11.3278465
7.42                 0.990747556     -11.3531958
7.422                0.990784536     -11.3785196
7.424                0.990822266     -11.4038178
7.426                0.990851886     -11.4294864
7.428                0.990881886     -11.4551439
7.43                 0.990912262     -11.4807904
7.432                0.990943014     -11.5064259
7.434                0.990966866     -11.5323486
7.436                0.990990205     -11.5582611
7.438                0.991013034     -11.5841633
7.44                 0.991035355     -11.6100553
7.442                0.991051696      -11.636185
7.444                0.991067507     -11.6622918
7.446                0.991082793     -11.6883759
7.448                 0.99109756     -11.7144372
7.45                 0.991105334     -11.7406757
7.452                0.991113119     -11.7668972
7.454                0.991120915     -11.7931019
7.456                0.991128724     -11.8192901
7.458                0.991128562     -11.8455603
7.46                 0.991128492     -11.8718249
7.462                0.991128514      -11.898084
7.464                0.991128628     -11.9243376
7.466                0.991120821     -11.9506062
7.468                0.991113129     -11.9768599
7.47                 0.991105551     -12.0030988
7.472                0.991098086     -12.0293231
7.474                0.991082302     -12.0555236
7.476                0.991067079     -12.0816995
7.478                0.991052412     -12.1078505
7.48                 0.991038298     -12.1339769
7.482                0.991015812     -12.1600151
7.484                0.990993809     -12.1860416
7.486                0.990972287     -12.2120563
7.488                0.990951244     -12.2380593
7.49                  0.99092399     -12.2638806
7.492                0.990896295     -12.2897015
7.494                0.990868161      -12.315522
7.496                0.990839589      -12.341342
7.498                 0.99080767     -12.3669232
7.5                  0.990774897     -12.3924962
7.502                0.990741271     -12.4180608
7.504                0.990706796     -12.4436168
7.506                 0.99066995      -12.468906
7.508                0.990632654     -12.4941867
7.51                  0.99059491     -12.5194589
7.512                 0.99055672     -12.5447227
7.514                0.990516357     -12.5696771
7.516                0.990475778     -12.5946316
7.518                0.990434982     -12.6195865
7.52                 0.990393972     -12.6445416
7.522                0.990351496      -12.669168
7.524                0.990308882     -12.6937855
7.526                 0.99026613      -12.718394
7.528                0.990223239     -12.7429937
7.53                   0.9901792     -12.7672998
7.532                0.990135542     -12.7915806
7.534                0.990092261     -12.8158361
7.536                0.990049353     -12.8400663
7.538                 0.99000541     -12.8640181
7.54                 0.989962061     -12.8879528
7.542                0.989919303     -12.9118703
7.544                0.989877133     -12.9357705
7.546                0.989836058     -12.9593713
7.548                0.989794694     -12.9829736
7.55                  0.98975304     -13.0065775
7.552                0.989711097     -13.0301831
7.554                0.989673833     -13.0534882
7.556                0.989635488     -13.0767933
7.558                0.989596065     -13.1000981
7.56                 0.989555567     -13.1234023
7.562                 0.98952158      -13.146452
7.564                0.989486755     -13.1694965
7.566                0.989451095     -13.1925358
7.568                0.989414603     -13.2155698
7.57                 0.989384478     -13.2383906
7.572                0.989353992     -13.2612127
7.574                0.989323144      -13.284036
7.576                0.989291935     -13.3068605
7.578                0.989266732      -13.329525
7.58                 0.989241458     -13.3521852
7.582                0.989216113      -13.374841
7.584                0.989190697     -13.3974924
7.586                0.989170584     -13.4200802
7.588                0.989150997     -13.4426454
7.59                 0.989131934     -13.4651882
7.592                 0.98911339     -13.4877086
7.594                0.989099081     -13.5102579
7.596                0.989085715     -13.5327863
7.598                0.989073288     -13.5552935
7.6                  0.989061798     -13.5777795
7.602                0.989055332     -13.6003328
7.604                0.989048998     -13.6228847
7.606                0.989042794     -13.6454353
7.608                0.989036722     -13.6679846
7.61                 0.989038587     -13.6906364
7.612                0.989039449      -13.713289
7.614                0.989039308      -13.735942
7.616                0.989038167     -13.7585951
7.618                0.989046448     -13.7814315
7.62                 0.989053728     -13.8042595
7.622                0.989060009     -13.8270788
7.624                0.989065297     -13.8498891
7.626                0.989078661     -13.8729515
7.628                0.989091697     -13.8960103
7.63                 0.989104406     -13.9190656
7.632                0.989116789     -13.9421174
7.634                 0.98913497     -13.9654654
7.636                0.989153344     -13.9888121
7.638                 0.98917191     -14.0121575
7.64                 0.989190668     -14.0355017
7.642                0.989212864     -14.0592143
7.644                0.989235861     -14.0829115
7.646                0.989259658     -14.1065935
7.648                0.989284252     -14.1302603
7.65                 0.989309893     -14.1543713
7.652                0.989336847     -14.1784623
7.654                 0.98936511      -14.202533
7.656                0.989394678     -14.2265834
7.658                0.989424617     -14.2511057
7.66                 0.989455185     -14.2756234
7.662                0.989486379     -14.3001364
7.664                  0.9895182     -14.3246448
7.666                0.989552521     -14.3496224
7.668                0.989586056     -14.3745992
7.67                 0.989618806     -14.3995749
7.672                0.989650774     -14.4245494
7.674                0.989686842     -14.4500248
7.676                0.989721757     -14.4754872
7.678                0.989755523     -14.5009364
7.68                 0.989788145     -14.5263718
7.682                0.989823262     -14.5523304
7.684                0.989857932     -14.5782781
7.686                0.989892158     -14.6042151
7.688                0.989925942     -14.6301413
7.69                 0.989959062     -14.6565704
7.692                0.989992449     -14.6829974
7.694                0.990026103     -14.7094223
7.696                0.990060024     -14.7358452
7.698                0.990090258     -14.7627589
7.7                  0.990121382     -14.7896624
7.702                0.990153395     -14.8165554
7.704                0.990186295     -14.8434381
7.706                0.990212806     -14.8708173
7.708                0.990240813     -14.8981767
7.71                  0.99027031     -14.9255158
7.712                0.990301293     -14.9528344
7.714                0.990324708      -14.980624
7.716                0.990349192     -15.0084046
7.718                0.990374744      -15.036176
7.72                  0.99040136      -15.063938
7.722                0.990422649      -15.092103
7.724                0.990443418     -15.1202687
7.726                0.990463666      -15.148435
7.728                0.990483396     -15.1766019
7.73                 0.990500813     -15.2051353
7.732                 0.99051679     -15.2336606
7.734                0.990531331     -15.2621773
7.736                 0.99054444      -15.290685
7.738                0.990555293     -15.3195214
7.74                 0.990565183     -15.3483485
7.742                0.990574114     -15.3771661
7.744                0.990582089     -15.4059739
7.746                0.990585376     -15.4350439
7.748                0.990588568     -15.4641132
7.75                 0.990591663     -15.4931819
7.752                0.990594663       -15.52225
7.754                0.990590283     -15.5515171
7.756                0.990586604     -15.5807762
7.758                0.990583624     -15.6100271
7.76                 0.990581341     -15.6392697
7.762                0.990569197     -15.6686927
7.764                0.990558606     -15.6980911
7.766                0.990549565     -15.7274644
7.768                0.990542068     -15.7568121
7.77                 0.990523627     -15.7862993
7.772                0.990506725     -15.8157676
7.774                0.990491357     -15.8452165
7.776                 0.99047752     -15.8746455
7.778                0.990455618     -15.9041248
7.78                  0.99043354      -15.933606
7.782                0.990411288      -15.963089
7.784                 0.99038886      -15.992574
7.786                0.990363939     -16.0220204
7.788                0.990337104     -16.0514733
7.79                 0.990308357     -16.0809322
7.792                0.990277699     -16.1103962
