! TOUCHSTONE file generated by CST DESIGN STUDIO
! Date and time: Mon Feb 10 16:41:28 2025
! Project name: C:\Work\MatlabApps\UnitCellType2OptimizationMatlab\CST\unitcell.cst
! Tree item: Tasks\Sweep1\SPara1\S-Parameters
! Header version: 2024
! Port assignment regex: !\s*Touchstone port\s*([0-9]+)\s*=\s*(CST MWS port|CST DES external port|CST DES block port)\s*(.+)\s* \(\"(.*)\"\)(\s*mode\s*([0-9]+))?.*
! Touchstone port assignment:
! Touchstone port 1 = CST DES external port 1 ("")
# GHz S MA R 50
7                    0.993350077     -13.5882991
7.002                0.993307103     -13.6068643
7.004                0.993264036     -13.6254309
7.006                0.993220873     -13.6439989
7.008                0.993177617     -13.6625684
7.01                 0.993138453     -13.6809406
7.012                0.993099207     -13.6993138
7.014                0.993059877      -13.717688
7.016                0.993020465     -13.7360631
7.018                0.992985899     -13.7542819
7.02                 0.992951265     -13.7725017
7.022                0.992916563     -13.7907224
7.024                0.992881793      -13.808944
7.026                0.992852507     -13.8270623
7.028                0.992823164     -13.8451818
7.03                 0.992793762     -13.8633028
7.032                0.992764301      -13.881425
7.034                0.992740845        -13.8995
7.036                 0.99271734     -13.9175762
7.038                0.992693788     -13.9356536
7.04                 0.992670186     -13.9537324
7.042                0.992652882      -13.971828
7.044                0.992635546     -13.9899246
7.046                0.992618179      -14.008022
7.048                 0.99260078     -14.0261204
7.05                 0.992589776     -14.0442987
7.052                0.992578757      -14.062478
7.054                0.992567723     -14.0806582
7.056                0.992556672     -14.0988395
7.058                0.992551862     -14.1171721
7.06                 0.992547047     -14.1355059
7.062                0.992542228     -14.1538407
7.064                0.992537404     -14.1721766
7.066                 0.99253855     -14.1907183
7.068                0.992539705     -14.2092607
7.07                 0.992540868     -14.2278038
7.072                 0.99254204     -14.2463476
7.074                 0.99254871     -14.2651557
7.076                0.992555406     -14.2839643
7.078                0.992562125     -14.3027735
7.08                  0.99256887     -14.3215831
7.082                0.992580571      -14.340708
7.084                0.992592308     -14.3598336
7.086                 0.99260408     -14.3789601
7.088                0.992615888     -14.3980875
7.09                 0.992632006     -14.4175748
7.092                0.992648167     -14.4370629
7.094                 0.99266437     -14.4565518
7.096                0.992680617     -14.4760416
7.098                0.992700389     -14.4959346
7.1                  0.992720216     -14.5158281
7.102                0.992740099     -14.5357219
7.104                0.992760038     -14.5556162
7.106                0.992782603     -14.5759467
7.108                0.992805237     -14.5962776
7.11                  0.99282794     -14.6166088
7.112                0.992850711     -14.6369403
7.114                  0.9928751     -14.6577344
7.116                0.992899564      -14.678529
7.118                0.992924103      -14.699324
7.12                 0.992948717     -14.7201196
7.122                0.992973904     -14.7413921
7.124                0.992999171      -14.762665
7.126                0.993024517     -14.7839382
7.128                0.993049942     -14.8052118
7.13                 0.993074895     -14.8269619
7.132                0.993099933     -14.8487122
7.134                0.993125056     -14.8704627
7.136                0.993150263     -14.8922133
7.138                 0.99317402      -14.914437
7.14                 0.993197863     -14.9366612
7.142                0.993221792     -14.9588859
7.144                0.993245806      -14.981111
7.146                0.993267459     -15.0037878
7.148                0.993289193     -15.0264654
7.15                 0.993311007     -15.0491438
7.152                0.993332902      -15.071823
7.154                0.993351592     -15.0949371
7.156                0.993370357      -15.118052
7.158                0.993389199     -15.1411675
7.16                 0.993408116     -15.1642838
7.162                0.993423074     -15.1878007
7.164                0.993438104     -15.2113183
7.166                0.993453206     -15.2348367
7.168                0.993468381     -15.2583558
7.17                 0.993478899     -15.2822459
7.172                0.993489479     -15.3061371
7.174                0.993500121     -15.3300295
7.176                0.993510826      -15.353923
7.178                0.993516303     -15.3781407
7.18                 0.993521828     -15.4023598
7.182                  0.9935274     -15.4265802
7.184                0.993533021     -15.4508019
7.186                0.993532968     -15.4753021
7.188                 0.99353295     -15.4998036
7.19                 0.993532967     -15.5243063
7.192                0.993533018     -15.5488103
7.194                0.993527138     -15.5735378
7.196                0.993521279     -15.5982668
7.198                0.993515441     -15.6229974
7.2                  0.993509623     -15.6477296
7.202                 0.99349781     -15.6726274
7.204                0.993485999     -15.6975272
7.206                 0.99347419     -15.7224291
7.208                0.993462383     -15.7473331
7.21                 0.993444678     -15.7723536
7.212                0.993426956     -15.7973764
7.214                0.993409219     -15.8224012
7.216                0.993391465     -15.8474282
7.218                0.993368044     -15.8725191
7.22                 0.993344592     -15.8976121
7.222                 0.99332111     -15.9227072
7.224                0.993297597     -15.9478044
7.226                0.993268785     -15.9729217
7.228                0.993239927     -15.9980412
7.23                 0.993211023     -16.0231631
7.232                0.993182074     -16.0482872
7.234                0.993148288     -16.0733814
7.236                 0.99311444     -16.0984778
7.238                0.993080529     -16.1235767
7.24                 0.993046555     -16.1486779
7.242                0.993008327     -16.1737108
7.244                0.992970024     -16.1987458
7.246                0.992931645     -16.2237829
7.248                0.992893191      -16.248822
7.25                 0.992851195     -16.2737591
7.252                0.992809116     -16.2986983
7.254                0.992766952     -16.3236395
7.256                0.992724705     -16.3485827
7.258                0.992679713     -16.3733941
7.26                 0.992634628     -16.3982079
7.262                0.992589451     -16.4230241
7.264                0.992544181     -16.4478427
7.266                0.992497105     -16.4725039
7.268                0.992449928     -16.4971676
7.27                 0.992402651     -16.5218336
7.272                0.992355274     -16.5465021
7.274                0.992307017     -16.5710083
7.276                0.992258659     -16.5955166
7.278                0.992210198     -16.6200271
7.28                 0.992161635     -16.6445397
7.282                0.992113153     -16.6688878
7.284                 0.99206457      -16.693238
7.286                0.992015886     -16.7175901
7.288                0.991967102     -16.7419443
7.29                 0.991919286     -16.7661433
7.292                 0.99187137     -16.7903442
7.294                0.991823354     -16.8145471
7.296                0.991775238      -16.838752
7.298                0.991728959     -16.8628181
7.3                  0.991682583     -16.8868859
7.302                0.991636111     -16.9109552
7.304                0.991589542     -16.9350262
7.306                0.991545611     -16.9589873
7.308                0.991501592     -16.9829498
7.31                 0.991457485     -17.0069137
7.312                0.991413289     -17.0308791
7.314                0.991372487     -17.0547551
7.316                0.991331604     -17.0786329
7.318                0.991290642     -17.1025124
7.32                   0.9912496     -17.1263937
7.322                0.991212582     -17.1502323
7.324                0.991175492     -17.1740727
7.326                0.991138328      -17.197915
7.328                0.991101092     -17.2217593
7.33                 0.991068436     -17.2456026
7.332                0.991035718     -17.2694476
7.334                0.991002938     -17.2932941
7.336                0.990970096     -17.3171424
7.338                0.990942216      -17.341043
7.34                 0.990914289      -17.364945
7.342                0.990886313     -17.3888485
7.344                0.990858288     -17.4127534
7.346                0.990835474     -17.4367618
7.348                0.990812624     -17.4607716
7.35                 0.990789737     -17.4847829
7.352                0.990766814     -17.5087955
7.354                0.990749137     -17.5329697
7.356                0.990731436     -17.5571451
7.358                0.990713709     -17.5813216
7.36                 0.990695957     -17.6054994
7.362                0.990683363     -17.6298959
7.364                0.990670758     -17.6542934
7.366                0.990658141     -17.6786919
7.368                0.990645512     -17.7030913
7.37                 0.990637819     -17.7277578
7.372                0.990630127     -17.7524255
7.374                0.990622436     -17.7770945
7.376                0.990614747     -17.8017647
7.378                0.990611633     -17.8267526
7.38                  0.99060853     -17.8517419
7.382                0.990605439     -17.8767328
7.384                0.990602359     -17.9017252
7.386                0.990603403     -17.9270787
7.388                0.990604468     -17.9524335
7.39                 0.990605554     -17.9777896
7.392                0.990606663     -18.0031471
7.394                 0.99061132     -18.0289133
7.396                0.990616012     -18.0546807
7.398                0.990620739     -18.0804492
7.4                  0.990625501     -18.1062187
7.402                0.990633121     -18.1324326
7.404                0.990640788     -18.1586476
7.406                0.990648499     -18.1848637
7.408                0.990656255     -18.2110808
7.41                 0.990666098     -18.2377731
7.412                0.990675992     -18.2644664
7.414                0.990685938     -18.2911607
7.416                0.990695937     -18.3178561
7.418                0.990707152     -18.3450504
7.42                 0.990718427     -18.3722455
7.422                0.990729759     -18.3994415
7.424                 0.99074115     -18.4266384
7.426                0.990752893     -18.4543456
7.428                  0.9907647     -18.4820539
7.43                 0.990776571     -18.5097633
7.432                0.990788506     -18.5374737
7.434                0.990799896     -18.5657013
7.436                0.990811351     -18.5939305
7.438                0.990822871     -18.6221612
7.44                 0.990834456     -18.6503934
7.442                 0.99084466     -18.6791374
7.444                0.990854927      -18.707883
7.446                0.990865258     -18.7366302
7.448                0.990875651      -18.765379
7.45                 0.990883857     -18.7946302
7.452                0.990892124      -18.823883
7.454                0.990900454     -18.8531372
7.456                0.990908844     -18.8823931
7.458                0.990914279     -18.9121344
7.46                 0.990919771     -18.9418774
7.462                0.990925322      -18.971622
7.464                 0.99093093     -19.0013683
7.466                0.990932898     -19.0315783
7.468                0.990934915     -19.0617902
7.47                 0.990936981     -19.0920039
7.472                0.990939097     -19.1222194
7.474                0.990936974      -19.152868
7.476                0.990934889     -19.1835184
7.478                0.990932843     -19.2141706
7.48                 0.990930836     -19.2448245
7.482                 0.99092406     -19.2758766
7.484                0.990917313     -19.3069307
7.486                0.990910594     -19.3379869
7.488                0.990903903      -19.369045
7.49                 0.990892082     -19.4004606
7.492                0.990880276     -19.4318787
7.494                0.990868486     -19.4632994
7.496                0.990856711     -19.4947228
7.498                0.990839565      -19.526456
7.5                  0.990822419     -19.5581921
7.502                0.990805272     -19.5899312
7.504                0.990788124     -19.6216732
7.506                 0.99076553     -19.6536842
7.508                 0.99074292     -19.6856981
7.51                 0.990720294     -19.7177149
7.512                0.990697652     -19.7497347
7.514                0.990669603     -19.7819775
7.516                0.990641524     -19.8142233
7.518                0.990613414     -19.8464721
7.52                 0.990585274     -19.8787238
7.522                0.990551915      -19.911155
7.524                0.990518507     -19.9435892
7.526                0.990485053     -19.9760264
7.528                0.990451551     -20.0084666
7.53                 0.990413119     -20.0410481
7.532                0.990374624     -20.0736325
7.534                0.990336063     -20.1062197
7.536                0.990297438     -20.1388097
7.538                0.990254292     -20.1714981
7.54                 0.990211068     -20.2041892
7.542                0.990167767     -20.2368831
7.544                0.990124388     -20.2695798
7.546                0.990077003      -20.302345
7.548                0.990029531     -20.3351134
7.55                 0.989981971     -20.3678851
7.552                0.989934323     -20.4006599
7.554                0.989883275     -20.4334689
7.556                0.989832128     -20.4662815
7.558                0.989780883     -20.4990976
7.56                 0.989729539     -20.5319172
7.562                0.989675526     -20.5647476
7.564                0.989621404     -20.5975814
7.566                0.989567175     -20.6304185
7.568                0.989512839     -20.6632589
7.57                 0.989456629     -20.6960931
7.572                0.989400305     -20.7289302
7.574                0.989343869     -20.7617705
7.576                0.989287319     -20.7946138
7.578                0.989229724     -20.8274451
7.58                 0.989172011     -20.8602793
7.582                0.989114179     -20.8931163
7.584                 0.98905623     -20.9259562
7.586                0.988998077     -20.9587858
7.588                0.988939801     -20.9916178
7.59                 0.988881402     -21.0244523
7.592                0.988822882     -21.0572893
7.594                0.988764996     -21.0901256
7.596                0.988706989     -21.1229642
7.598                 0.98864886     -21.1558049
7.6                   0.98859061     -21.1886478
7.602                0.988533746     -21.2215058
7.604                0.988476767     -21.2543662
7.606                0.988419673     -21.2872291
7.608                0.988362463     -21.3200944
7.61                 0.988307378      -21.352995
7.612                0.988252183     -21.3858986
7.614                0.988196879      -21.418805
7.616                0.988141466     -21.4517142
7.618                0.988088821     -21.4846932
7.62                 0.988036073      -21.517675
7.622                0.987983221     -21.5506595
7.624                0.987930266     -21.5836468
7.626                0.987880686     -21.6167385
7.628                0.987831011     -21.6498326
7.63                 0.987781241     -21.6829291
7.632                0.987731376      -21.716028
7.634                0.987685397     -21.7492726
7.636                0.987639333     -21.7825192
7.638                0.987593183     -21.8157679
7.64                 0.987546948     -21.8490187
7.642                0.987504947      -21.882465
7.644                0.987462869     -21.9159131
7.646                0.987420713     -21.9493629
7.648                 0.98737848     -21.9828144
7.65                 0.987340746     -22.0165126
7.652                0.987302944     -22.0502122
7.654                0.987265075     -22.0839133
7.656                0.987227139     -22.1176158
7.658                0.987193777     -22.1516249
7.66                 0.987160364     -22.1856357
7.662                0.987126899     -22.2196482
7.664                0.987093381     -22.2536624
7.666                0.987064364      -22.288031
7.668                 0.98703531     -22.3224019
7.67                  0.98700622     -22.3567751
7.672                0.986977093     -22.3911506
7.674                0.986952268       -22.42593
7.676                0.986927419     -22.4607118
7.678                0.986902544     -22.4954962
7.68                 0.986877644      -22.530283
7.682                0.986856754     -22.5655237
7.684                 0.98683585     -22.6007665
7.686                0.986814932     -22.6360114
7.688                   0.986794     -22.6712585
7.69                 0.986776667      -22.707011
7.692                0.986759332     -22.7427653
7.694                0.986741994     -22.7785214
7.696                0.986724654     -22.8142792
7.698                0.986710406      -22.850586
7.7                  0.986696164     -22.8868942
7.702                0.986681927     -22.9232039
7.704                0.986667696     -22.9595152
7.706                0.986655989     -22.9964169
7.708                0.986644295       -23.03332
7.71                 0.986632613     -23.0702242
7.712                0.986620943     -23.1071298
7.714                0.986611017     -23.1446609
7.716                0.986601114     -23.1821935
7.718                0.986591234     -23.2197275
7.72                 0.986581376     -23.2572632
7.722                0.986572488     -23.2954476
7.724                0.986563635     -23.3336343
7.726                0.986554815     -23.3718233
7.728                0.986546028     -23.4100146
7.73                  0.98653736     -23.4488788
7.732                0.986528731     -23.4877459
7.734                 0.98652014     -23.5266159
7.736                0.986511588     -23.5654887
7.738                0.986502292     -23.6050383
7.74                 0.986493033     -23.6445906
7.742                0.986483814     -23.6841457
7.744                0.986474632     -23.7237035
7.746                0.986463884     -23.7639444
7.748                0.986453172     -23.8041877
7.75                 0.986442496     -23.8444335
7.752                0.986431856     -23.8846819
7.754                 0.98641892     -23.9256071
7.756                0.986406012     -23.9665347
7.758                0.986393134     -24.0074646
7.76                 0.986380285     -24.0483968
7.762                0.986364428     -24.0900017
7.764                0.986348588     -24.1316089
7.766                0.986332767     -24.1732182
7.768                0.986316963     -24.2148297
7.77                 0.986297473     -24.2570962
7.772                0.986277992     -24.2993651
7.774                0.986258522     -24.3416363
7.776                0.986239061     -24.3839099
7.778                 0.98621528     -24.4268202
7.78                 0.986191507     -24.4697337
7.782                0.986167741     -24.5126505
7.784                0.986143983     -24.5555707
7.786                0.986115351     -24.5990975
7.788                 0.98608672     -24.6426286
7.79                  0.98605809      -24.686164
7.792                0.986029461     -24.7297037
