! TOUCHSTONE file generated by CST DESIGN STUDIO
! Date and time: Mon Feb 10 16:41:32 2025
! Project name: C:\Work\MatlabApps\UnitCellType2OptimizationMatlab\CST\unitcell.cst
! Tree item: Tasks\Sweep1\SPara1\S-Parameters
! Header version: 2024
! Port assignment regex: !\s*Touchstone port\s*([0-9]+)\s*=\s*(CST MWS port|CST DES external port|CST DES block port)\s*(.+)\s* \(\"(.*)\"\)(\s*mode\s*([0-9]+))?.*
! Touchstone port assignment:
! Touchstone port 1 = CST DES external port 1 ("")
# GHz S MA R 50
7                    0.991983951      -12.231049
7.002                 0.99194934      -12.247711
7.004                0.991914607     -12.2643731
7.006                0.991879751     -12.2810355
7.008                0.991844774     -12.2976982
7.01                 0.991816131     -12.3142122
7.012                0.991787447      -12.330724
7.014                 0.99175872     -12.3472335
7.016                0.991729952     -12.3637409
7.018                 0.99170787     -12.3801612
7.02                 0.991685788      -12.396581
7.022                0.991663704     -12.4130005
7.024                 0.99164162     -12.4294196
7.026                0.991626638      -12.445815
7.028                0.991611591     -12.4622125
7.03                 0.991596478     -12.4786119
7.032                0.991581299     -12.4950133
7.034                0.991573547     -12.5114604
7.036                0.991565726     -12.5279077
7.038                0.991557837     -12.5443551
7.04                  0.99154988     -12.5608026
7.042                 0.99154921      -12.577375
7.044                0.991548554     -12.5939463
7.046                0.991547912     -12.6105167
7.048                0.991547286     -12.6270862
7.05                 0.991553563       -12.64385
7.052                 0.99155987     -12.6606147
7.054                0.991566206     -12.6773804
7.056                0.991572571      -12.694147
7.058                0.991585327     -12.7111802
7.06                 0.991598083     -12.7282144
7.062                 0.99161084     -12.7452495
7.064                0.991623598     -12.7622855
7.066                0.991642061     -12.7796454
7.068                0.991660571     -12.7970039
7.07                 0.991679129     -12.8143609
7.072                0.991697733     -12.8317166
7.074                0.991721052     -12.8494506
7.076                0.991744465     -12.8671836
7.078                0.991767971     -12.8849156
7.08                  0.99179157     -12.9026466
7.082                0.991819022     -12.9207927
7.084                0.991846511     -12.9389399
7.086                0.991874037     -12.9570882
7.088                  0.9919016     -12.9752376
7.09                 0.991932202     -12.9938324
7.092                0.991962808     -13.0124268
7.094                0.991993418     -13.0310208
7.096                0.992024033     -13.0496144
7.098                0.992056611     -13.0686854
7.1                  0.992089262      -13.087754
7.102                0.992121987     -13.1068203
7.104                0.992154785     -13.1258842
7.106                0.992188313     -13.1454413
7.108                0.992221951     -13.1649974
7.11                 0.992255698     -13.1845526
7.112                0.992289554     -13.2041068
7.114                0.992322978     -13.2241584
7.116                0.992356476     -13.2442099
7.118                0.992390048     -13.2642616
7.12                 0.992423692     -13.2843132
7.122                0.992455781     -13.3048577
7.124                0.992487953     -13.3254004
7.126                0.992520208     -13.3459414
7.128                0.992552547     -13.3664808
7.13                 0.992582137      -13.387494
7.132                0.992611855     -13.4085051
7.134                0.992641702      -13.429514
7.136                0.992671678     -13.4505209
7.138                0.992697906     -13.4719727
7.14                 0.992724224     -13.4934246
7.142                0.992750632     -13.5148766
7.144                0.992777129     -13.5363287
7.146                0.992799174     -13.5581799
7.148                0.992821248     -13.5800311
7.15                 0.992843352     -13.6018824
7.152                0.992865484     -13.6237337
7.154                0.992882474      -13.645949
7.156                0.992899523     -13.6681626
7.158                0.992916631     -13.6903745
7.16                 0.992933797     -13.7125847
7.162                0.992945159     -13.7351072
7.164                0.992956611      -13.757629
7.166                0.992968152       -13.78015
7.168                0.992979783     -13.8026704
7.17                 0.992985138     -13.8254533
7.172                0.992990535     -13.8482372
7.174                0.992995975     -13.8710221
7.176                0.993001458     -13.8938079
7.178                0.993000433     -13.9167959
7.18                 0.992999422     -13.9397838
7.182                0.992998426     -13.9627716
7.184                0.992997444     -13.9857593
7.186                0.992989738     -14.0088947
7.188                0.992982077      -14.032029
7.19                  0.99297446     -14.0551622
7.192                0.992966889     -14.0782942
7.194                0.992952606     -14.1015085
7.196                0.992938344     -14.1247237
7.198                0.992924102     -14.1479397
7.2                  0.992909879     -14.1711566
7.202                0.992889336     -14.1943872
7.204                 0.99286873     -14.2176201
7.206                0.992848062     -14.2408551
7.208                0.992827332     -14.2640922
7.21                 0.992800833     -14.2872912
7.212                0.992774256     -14.3104909
7.214                0.992747603     -14.3336916
7.216                0.992720874     -14.3568931
7.218                0.992688916     -14.3800063
7.22                 0.992656907     -14.4031203
7.222                0.992624848     -14.4262351
7.224                0.992592739     -14.4493508
7.226                0.992556099     -14.4723373
7.228                0.992519377     -14.4953257
7.23                 0.992482573     -14.5183162
7.232                0.992445688     -14.5413088
7.234                0.992405122     -14.5641313
7.236                0.992364443     -14.5869547
7.238                0.992323651     -14.6097789
7.24                 0.992282744      -14.632604
7.242                0.992238983     -14.6552364
7.244                0.992195144     -14.6778677
7.246                0.992151228     -14.7004977
7.248                0.992107235     -14.7231265
7.25                 0.992061249     -14.7455427
7.252                0.992015196     -14.7679589
7.254                0.991969078      -14.790375
7.256                0.991922893      -14.812791
7.258                0.991875786     -14.8349757
7.26                 0.991828546     -14.8571624
7.262                0.991781172     -14.8793512
7.264                0.991733664      -14.901542
7.266                0.991686471      -14.923492
7.268                0.991639119     -14.9454432
7.27                 0.991591607     -14.9673958
7.272                0.991543937     -14.9893495
7.274                0.991497577     -15.0110779
7.276                0.991451105     -15.0328067
7.278                 0.99140452     -15.0545359
7.28                 0.991357824     -15.0762655
7.282                0.991313378     -15.0977877
7.284                0.991268839     -15.1193111
7.286                0.991224205     -15.1408356
7.288                0.991179478     -15.1623612
7.29                 0.991137869      -15.183709
7.292                0.991096162     -15.2050573
7.294                0.991054356      -15.226406
7.296                0.991012451     -15.2477552
7.298                0.990974404     -15.2689675
7.3                  0.990936307      -15.290178
7.302                 0.99089816     -15.3113869
7.304                0.990859963      -15.332594
7.306                0.990826162     -15.3537136
7.308                0.990792353     -15.3748319
7.31                 0.990758535      -15.395949
7.312                 0.99072471     -15.4170648
7.314                 0.99069589     -15.4381275
7.316                0.990667013     -15.4591914
7.318                 0.99063808     -15.4802567
7.32                  0.99060909     -15.5013234
7.322                 0.99058565     -15.5223936
7.324                0.990562116     -15.5434651
7.326                0.990538485     -15.5645381
7.328                0.990514757     -15.5856123
7.33                  0.99049688     -15.6067462
7.332                0.990478956     -15.6278802
7.334                0.990460986     -15.6490142
7.336                 0.99044297     -15.6701484
7.338                0.990430777     -15.6914048
7.34                 0.990418589     -15.7126619
7.342                0.990406404     -15.7339196
7.344                0.990394224     -15.7551779
7.346                0.990387747     -15.7766158
7.348                0.990381283     -15.7980545
7.35                  0.99037483     -15.8194939
7.352                0.990368389     -15.8409341
7.354                0.990367314     -15.8626168
7.356                0.990366285     -15.8842986
7.358                0.990365303     -15.9059793
7.36                 0.990364368      -15.927659
7.362                0.990368273     -15.9496408
7.364                0.990372269     -15.9716213
7.366                0.990376355     -15.9936004
7.368                0.990380531     -16.0155782
7.37                 0.990389008     -16.0378998
7.372                0.990397536     -16.0602222
7.374                0.990406114     -16.0825455
7.376                0.990414743     -16.1048696
7.378                0.990427171     -16.1275769
7.38                 0.990439588     -16.1502855
7.382                0.990451994     -16.1729954
7.384                0.990464388     -16.1957066
7.386                0.990479914     -16.2188355
7.388                0.990495455     -16.2419641
7.39                 0.990511013     -16.2650924
7.392                0.990526587     -16.2882205
7.394                0.990544371     -16.3118015
7.396                0.990562229     -16.3353823
7.398                0.990580162     -16.3589629
7.4                   0.99059817     -16.3825433
7.402                0.990617417     -16.4065955
7.404                0.990636749     -16.4306481
7.406                0.990656165     -16.4547012
7.408                0.990675665     -16.4787547
7.41                 0.990695459     -16.5032948
7.412                0.990715349      -16.527834
7.414                0.990735335     -16.5523724
7.416                0.990755415       -16.57691
7.418                0.990774745     -16.6019427
7.42                 0.990794207     -16.6269736
7.422                0.990813801     -16.6520028
7.424                0.990833525     -16.6770301
7.426                0.990851564     -16.7025438
7.428                0.990869708     -16.7280576
7.43                 0.990887956     -16.7535712
7.432                0.990906308     -16.7790848
7.434                0.990922223     -16.8050677
7.436                0.990938161     -16.8310518
7.438                0.990954124     -16.8570373
7.44                 0.990970109      -16.883024
7.442                0.990982991     -16.9094554
7.444                0.990995885      -16.935887
7.446                 0.99100879     -16.9623188
7.448                0.991021708     -16.9887508
7.45                 0.991030756     -17.0156004
7.452                0.991039858     -17.0424499
7.454                0.991049017     -17.0692993
7.456                 0.99105823     -17.0961487
7.458                0.991062863     -17.1233798
7.46                 0.991067555     -17.1506117
7.462                0.991072305     -17.1778444
7.464                0.991077113     -17.2050779
7.466                0.991076855     -17.2326554
7.468                0.991076641     -17.2602328
7.47                 0.991076473     -17.2878102
7.472                0.991076351     -17.3153875
7.474                0.991070739     -17.3432675
7.476                0.991065195     -17.3711458
7.478                0.991059719     -17.3990225
7.48                 0.991054311     -17.4268975
7.482                0.991043107     -17.4550289
7.484                0.991031957       -17.48316
7.486                 0.99102086     -17.5112907
7.488                0.991009816      -17.539421
7.49                 0.990993024     -17.5677529
7.492                0.990976191     -17.5960868
7.494                0.990959318     -17.6244227
7.496                0.990942404     -17.6527607
7.498                0.990920003     -17.6812439
7.5                  0.990897504      -17.709729
7.502                0.990874908     -17.7382161
7.504                0.990852214      -17.766705
7.506                0.990824278     -17.7952949
7.508                0.990796266      -17.823886
7.51                 0.990768178     -17.8524783
7.512                0.990740015     -17.8810717
7.514                0.990706902     -17.9097204
7.516                0.990673723     -17.9383705
7.518                 0.99064048     -17.9670222
7.52                 0.990607173     -17.9956753
7.522                0.990569382     -18.0243434
7.524                0.990531516     -18.0530118
7.526                0.990493575     -18.0816806
7.528                 0.99045556     -18.1103498
7.53                 0.990413593     -18.1390064
7.532                0.990371581     -18.1676609
7.534                0.990329522     -18.1963132
7.536                0.990287417     -18.2249634
7.538                0.990241957     -18.2535705
7.54                 0.990196465     -18.2821757
7.542                0.990150943      -18.310779
7.544                0.990105389     -18.3393803
7.546                0.990057311     -18.3679147
7.548                0.990009121     -18.3964503
7.55                 0.989960821     -18.4249869
7.552                 0.98991241     -18.4535246
7.554                0.989862504     -18.4819702
7.556                0.989812408     -18.5104178
7.558                0.989762122     -18.5388675
7.56                 0.989711645     -18.5673192
7.562                0.989660635     -18.5956707
7.564                0.989609454     -18.6240231
7.566                0.989558101     -18.6523766
7.568                0.989506578     -18.6807312
7.57                 0.989455319     -18.7089862
7.572                0.989403939     -18.7372419
7.574                0.989352438     -18.7654984
7.576                0.989300815     -18.7937555
7.578                0.989250227     -18.8219261
7.58                 0.989199546     -18.8500962
7.582                0.989148773     -18.8782659
7.584                0.989097906     -18.9064352
7.586                0.989048799     -18.9345427
7.588                0.988999654      -18.962647
7.59                  0.98895047     -18.9907479
7.592                0.988901246     -19.0188455
7.594                0.988854426     -19.0469138
7.596                0.988807616     -19.0749781
7.598                0.988760816     -19.1030384
7.6                  0.988714026     -19.1310947
7.602                 0.98867032     -19.1591513
7.604                0.988626566     -19.1872072
7.606                0.988582764     -19.2152624
7.608                0.988538915     -19.2433169
7.61                  0.98849898     -19.2714013
7.612                0.988458898     -19.2994872
7.614                 0.98841867     -19.3275747
7.616                0.988378296     -19.3556637
7.618                0.988342425     -19.3838286
7.62                 0.988306415     -19.4119942
7.622                0.988270264     -19.4401605
7.624                0.988233974     -19.4683275
7.626                0.988202436     -19.4966188
7.628                0.988170837     -19.5249102
7.63                 0.988139179     -19.5532016
7.632                0.988107461     -19.5814931
7.634                0.988080537     -19.6099596
7.636                0.988053617     -19.6384254
7.638                0.988026702     -19.6668907
7.64                 0.987999791     -19.6953554
7.642                 0.98797755     -19.7240542
7.644                0.987955376     -19.7527501
7.646                0.987933271     -19.7814429
7.648                0.987911235     -19.8101326
7.65                 0.987893665     -19.8391158
7.652                0.987876224     -19.8680945
7.654                0.987858911     -19.8970688
7.656                0.987841725     -19.9260387
7.658                0.987828767     -19.9553583
7.66                 0.987815889     -19.9846763
7.662                 0.98780309     -20.0139928
7.664                0.987790371     -20.0433076
7.666                0.987781789     -20.0730093
7.668                0.987773157     -20.1027124
7.67                 0.987764475     -20.1324169
7.672                0.987755744     -20.1621229
7.674                0.987750916     -20.1922558
7.676                0.987746004     -20.2223897
7.678                0.987741007     -20.2525245
7.68                 0.987735925     -20.2826602
7.682                0.987734114     -20.3132644
7.684                0.987732298     -20.3438685
7.686                0.987730477     -20.3744724
7.688                0.987728649     -20.4050762
7.69                 0.987729211     -20.4361866
7.692                 0.98772985     -20.4672965
7.694                0.987730567     -20.4984056
7.696                0.987731362     -20.5295141
7.698                0.987733607     -20.5611602
7.7                  0.987735994     -20.5928035
7.702                0.987738522      -20.624444
7.704                0.987741191     -20.6560818
7.706                0.987744413     -20.6882858
7.708                0.987747836     -20.7204849
7.71                 0.987751461     -20.7526789
7.712                0.987755286     -20.7848679
7.714                0.987758745     -20.8176398
7.716                0.987762371     -20.8504085
7.718                0.987766162     -20.8831742
7.72                 0.987770119     -20.9159367
7.722                0.987773176     -20.9492779
7.724                0.987776241     -20.9826201
7.726                0.987779314     -21.0159632
7.728                0.987782396     -21.0493072
7.73                 0.987784095     -21.0832272
7.732                  0.9877857     -21.1171491
7.734                 0.98778721     -21.1510726
7.736                0.987788626     -21.1849979
7.738                0.987787904     -21.2194836
7.74                 0.987787131     -21.2539699
7.742                0.987786308     -21.2884568
7.744                0.987785434     -21.3229444
7.746                0.987781468     -21.3579787
7.748                0.987777539     -21.3930128
7.75                 0.987773647     -21.4280466
7.752                0.987769791     -21.4630803
7.754                0.987761983     -21.4986382
7.756                 0.98775428     -21.5341935
7.758                0.987746684     -21.5697459
7.76                 0.987739195     -21.6052956
7.762                0.987726988     -21.6413537
7.764                0.987714956     -21.6774055
7.766                0.987703098     -21.7134509
7.768                0.987691415     -21.7494899
7.77                 0.987674465     -21.7860068
7.772                0.987657679     -21.8225179
7.774                0.987641058     -21.8590231
7.776                0.987624601     -21.8955224
7.778                0.987602786     -21.9324585
7.78                 0.987580954     -21.9693943
7.782                0.987559108     -22.0063298
7.784                0.987537245      -22.043265
7.786                0.987510318      -22.080583
7.788                 0.98748318     -22.1179046
7.79                 0.987455831     -22.1552298
7.792                 0.98742827     -22.1925585
