! TOUCHSTONE file generated by CST DESIGN STUDIO
! Date and time: Mon Feb 10 16:41:30 2025
! Project name: C:\Work\MatlabApps\UnitCellType2OptimizationMatlab\CST\unitcell.cst
! Tree item: Tasks\Sweep1\SPara1\S-Parameters
! Header version: 2024
! Port assignment regex: !\s*Touchstone port\s*([0-9]+)\s*=\s*(CST MWS port|CST DES external port|CST DES block port)\s*(.+)\s* \(\"(.*)\"\)(\s*mode\s*([0-9]+))?.*
! Touchstone port assignment:
! Touchstone port 1 = CST DES external port 1 ("")
# GHz S MA R 50
7                    0.992725981       -12.95647
7.002                0.992686524     -12.9740152
7.004                0.992646967     -12.9915613
7.006                0.992607311     -13.0091083
7.008                0.992567556     -13.0266563
7.01                 0.992532967     -13.0440268
7.012                0.992498314      -13.061397
7.014                0.992463595     -13.0787669
7.016                0.992428811     -13.0961366
7.018                0.992399783     -13.1133798
7.02                 0.992370715     -13.1306233
7.022                0.992341608     -13.1478671
7.024                 0.99231246     -13.1651112
7.026                0.992289593     -13.1822877
7.028                0.992266673     -13.1994657
7.03                   0.9922437     -13.2166453
7.032                0.992220674     -13.2338263
7.034                0.992204339     -13.2510022
7.036                0.992187957     -13.2681791
7.038                0.992171528     -13.2853568
7.04                 0.992155051     -13.3025355
7.042                0.992145369     -13.3197803
7.044                0.992135678     -13.3370252
7.046                0.992125978     -13.3542704
7.048                0.992116269     -13.3715158
7.05                 0.992113241     -13.3888942
7.052                0.992110221     -13.4062736
7.054                0.992107208     -13.4236538
7.056                0.992104202     -13.4410349
7.058                0.992107543     -13.4586217
7.06                 0.992110889     -13.4762094
7.062                 0.99211424     -13.4937983
7.064                0.992117596     -13.5113882
7.066                0.992126833     -13.5292394
7.068                0.992136098     -13.5470905
7.07                  0.99214539     -13.5649417
7.072                0.992154709     -13.5827928
7.074                0.992169205     -13.6009622
7.076                0.992183755     -13.6191314
7.078                0.992198358     -13.6373006
7.08                 0.992213015     -13.6554698
7.082                0.992232142     -13.6740022
7.084                0.992251312     -13.6925355
7.086                0.992270524     -13.7110699
7.088                0.992289778     -13.7296052
7.09                  0.99231275     -13.7485417
7.092                0.992335757     -13.7674788
7.094                0.992358799     -13.7864165
7.096                0.992381876     -13.8053547
7.098                0.992407748     -13.8247318
7.1                  0.992433686     -13.8441084
7.102                0.992459688     -13.8634844
7.104                0.992485756       -13.88286
7.106                0.992513573     -13.9026997
7.108                0.992541477     -13.9225393
7.11                 0.992569466     -13.9423787
7.112                 0.99259754      -13.962218
7.114                0.992626272     -13.9825378
7.116                0.992655081     -14.0028579
7.118                0.992683968     -14.0231784
7.12                 0.992712933     -14.0434993
7.122                0.992741459     -14.0643058
7.124                0.992770068      -14.085112
7.126                0.992798759     -14.1059179
7.128                0.992827533     -14.1267235
7.13                 0.992854759     -14.1480052
7.132                0.992882085     -14.1692863
7.134                0.992909511     -14.1905667
7.136                0.992937037     -14.2118464
7.138                0.992962021      -14.233587
7.14                 0.992987093     -14.2553279
7.142                0.993012254     -14.2770692
7.144                0.993037503     -14.2988108
7.146                 0.99305937     -14.3209802
7.148                0.993081301     -14.3431501
7.15                 0.993103295     -14.3653207
7.152                0.993125353      -14.387492
7.154                0.993143251     -14.4100648
7.156                0.993161218     -14.4326375
7.158                0.993179254     -14.4552101
7.16                 0.993197359     -14.4777826
7.162                0.993210606     -14.5007139
7.164                0.993223929     -14.5236453
7.166                0.993237328      -14.546577
7.168                0.993250804     -14.5695088
7.17                 0.993258828     -14.5927602
7.172                0.993266905     -14.6160127
7.174                0.993275036     -14.6392663
7.176                0.993283222     -14.6625209
7.178                0.993285534     -14.6860415
7.18                 0.993287879      -14.709563
7.182                0.993290258     -14.7330852
7.184                 0.99329267     -14.7566082
7.186                0.993288881     -14.7803467
7.188                0.993285125     -14.8040854
7.19                 0.993281403     -14.8278245
7.192                0.993277714     -14.8515638
7.194                0.993267703     -14.8754585
7.196                0.993257708     -14.8993543
7.198                0.993247729     -14.9232513
7.2                  0.993237766     -14.9471495
7.202                0.993221616       -14.97114
7.204                0.993205443     -14.9951325
7.206                0.993189247     -15.0191271
7.208                0.993173026     -15.0431238
7.21                 0.993150923     -15.0671617
7.212                0.993128778     -15.0912011
7.214                 0.99310659     -15.1152422
7.216                0.993084361      -15.139285
7.218                0.993056642      -15.163317
7.22                  0.99302888     -15.1873504
7.222                0.993001075     -15.2113854
7.224                0.992973227     -15.2354217
7.226                0.992940422      -15.259405
7.228                0.992907554     -15.2833902
7.23                 0.992874624     -15.3073774
7.232                0.992841631     -15.3313666
7.234                0.992804326     -15.3552565
7.236                0.992766937     -15.3791481
7.238                0.992729462     -15.4030414
7.24                 0.992691903     -15.4269362
7.242                0.992650744     -15.4507003
7.244                0.992609504      -15.474465
7.246                0.992568181     -15.4982303
7.248                0.992526777     -15.5219963
7.25                 0.992482578     -15.5456042
7.252                0.992438296      -15.569213
7.254                0.992393932     -15.5928227
7.256                0.992349487     -15.6164334
7.258                0.992303166     -15.6398618
7.26                 0.992256737     -15.6632922
7.262                  0.9922102     -15.6867246
7.264                0.992163556     -15.7101589
7.266                0.992116102     -15.7333931
7.268                0.992068528     -15.7566291
7.27                 0.992020834     -15.7798667
7.272                0.991973018     -15.8031061
7.274                0.991925365       -15.82615
7.276                0.991877608      -15.849195
7.278                0.991829744     -15.8722411
7.28                 0.991781776     -15.8952884
7.282                0.991734939     -15.9181479
7.284                0.991688006     -15.9410086
7.286                0.991640976     -15.9638707
7.288                0.991593851     -15.9867341
7.29                  0.99154874     -16.0094287
7.292                0.991503532     -16.0321244
7.294                0.991458229     -16.0548212
7.296                0.991412829      -16.077519
7.298                0.991370264      -16.100076
7.3                  0.991327622     -16.1226331
7.302                0.991284902     -16.1451901
7.304                0.991242106     -16.1677472
7.306                0.991202839     -16.1902024
7.308                0.991163516     -16.2126575
7.31                 0.991124137     -16.2351127
7.312                0.991084702     -16.2575678
7.314                0.991049476      -16.279949
7.316                0.991014186     -16.3023314
7.318                0.990978832     -16.3247151
7.32                 0.990943414        -16.3471
7.322                0.990912771     -16.3694628
7.324                0.990882057     -16.3918271
7.326                0.990851271     -16.4141929
7.328                0.990820413     -16.4365601
7.33                 0.990794762      -16.458954
7.332                0.990769064     -16.4813486
7.334                0.990743317     -16.5037441
7.336                0.990717523     -16.5261404
7.338                0.990697138     -16.5486216
7.34                 0.990676733     -16.5711036
7.342                0.990656306     -16.5935865
7.344                0.990635859     -16.6160702
7.346                0.990620898     -16.6386935
7.348                0.990605926     -16.6613177
7.35                 0.990590945     -16.6839428
7.352                0.990575953     -16.7065687
7.354                0.990566307     -16.7293948
7.356                0.990556669     -16.7522211
7.358                0.990547039     -16.7750474
7.36                 0.990537417     -16.7978739
7.362                0.990532853     -16.8209589
7.364                 0.99052832     -16.8440438
7.366                0.990523819     -16.8671285
7.368                0.990519348      -16.890213
7.37                  0.99051955     -16.9136018
7.372                 0.99051978     -16.9369915
7.374                0.990520037     -16.9603821
7.376                0.990520321     -16.9837735
7.378                0.990524817     -17.0075147
7.38                 0.990529325     -17.0312573
7.382                0.990533846     -17.0550013
7.384                0.990538379     -17.0787467
7.386                0.990546552     -17.1028807
7.388                0.990554753     -17.1270155
7.39                  0.99056298     -17.1511509
7.392                0.990571235      -17.175287
7.394                0.990582397     -17.1998536
7.396                0.990593614     -17.2244207
7.398                0.990604886     -17.2489882
7.4                  0.990616213     -17.2735561
7.402                0.990629626     -17.2985825
7.404                0.990643104     -17.3236096
7.406                0.990656647     -17.3486373
7.408                0.990670255     -17.3736656
7.41                 0.990685089     -17.3991754
7.412                0.990699994     -17.4246852
7.414                 0.99071497     -17.4501952
7.416                0.990730018     -17.4757054
7.418                0.990745343     -17.5017131
7.42                 0.990760755     -17.5277205
7.422                0.990776253     -17.5537273
7.424                0.990791836     -17.5797338
7.426                0.990806793     -17.6062397
7.428                 0.99082183     -17.6327459
7.43                 0.990836948     -17.6592525
7.432                0.990852148     -17.6857595
7.434                0.990865861     -17.7127609
7.436                0.990879628     -17.7397637
7.438                 0.99089345     -17.7667678
7.44                 0.990907325     -17.7937732
7.442                0.990918938     -17.8212577
7.444                0.990930598     -17.8487433
7.446                0.990942304     -17.8762298
7.448                0.990954057     -17.9037174
7.45                 0.990962768     -17.9316658
7.452                0.990971538     -17.9596148
7.454                0.990980367     -17.9875645
7.456                0.990989256      -18.015515
7.458                 0.99099437     -18.0439001
7.46                 0.990999543     -18.0722863
7.462                0.991004773     -18.1006735
7.464                0.991010061     -18.1290618
7.466                0.991010987     -18.1578548
7.468                0.991011959     -18.1866487
7.47                 0.991012976     -18.2154433
7.472                0.991014039     -18.2442389
7.474                0.991010238     -18.2734025
7.476                0.991006481     -18.3025664
7.478                0.991002768     -18.3317303
7.48                 0.990999098     -18.3608944
7.482                0.990990153     -18.3903858
7.484                0.990981239      -18.419878
7.486                0.990972358     -18.4493708
7.488                0.990963509     -18.4788642
7.49                   0.9909492     -18.5086374
7.492                0.990934884     -18.5384127
7.494                0.990920561       -18.56819
7.496                0.990906231     -18.5979694
7.498                0.990886418     -18.6279761
7.5                  0.990866567     -18.6579852
7.502                0.990846679     -18.6879965
7.504                0.990826753     -18.7180102
7.506                0.990801429     -18.7482081
7.508                0.990776063     -18.7784079
7.51                 0.990750656     -18.8086096
7.512                0.990725208     -18.8388131
7.514                0.990694542      -18.869155
7.516                0.990663829     -18.8994987
7.518                0.990633069     -18.9298443
7.52                 0.990602263     -18.9601918
7.522                0.990566575     -18.9906353
7.524                0.990530825     -19.0210803
7.526                0.990495012     -19.0515267
7.528                0.990459138     -19.0819746
7.53                 0.990418811     -19.1124848
7.532                0.990378418     -19.1429952
7.534                0.990337961      -19.173506
7.536                0.990297438      -19.204017
7.538                0.990252985     -19.2345532
7.54                 0.990208465     -19.2650895
7.542                0.990163877      -19.295626
7.544                0.990119223     -19.3261628
7.546                0.990071297     -19.3566981
7.548                0.990023275      -19.387235
7.55                 0.989975155     -19.4177737
7.552                0.989926938     -19.4483139
7.554                 0.98987623     -19.4788229
7.556                0.989825394     -19.5093343
7.558                0.989774429      -19.539848
7.56                 0.989723334     -19.5703641
7.562                0.989670587     -19.6008327
7.564                0.989617712     -19.6313031
7.566                0.989564709     -19.6617753
7.568                0.989511578     -19.6922493
7.57                 0.989457616     -19.7226675
7.572                 0.98940354     -19.7530871
7.574                0.989349351      -19.783508
7.576                 0.98929505     -19.8139303
7.578                 0.98924074     -19.8443005
7.58                 0.989186325     -19.8746714
7.582                0.989131804      -19.905043
7.584                0.989077178     -19.9354153
7.586                0.989023355     -19.9657482
7.588                0.988969442     -19.9960805
7.59                 0.988915438     -20.0264121
7.592                0.988861345      -20.056743
7.594                0.988808826     -20.0870553
7.596                0.988756236     -20.1173665
7.598                0.988703575     -20.1476763
7.6                  0.988650842      -20.177985
7.602                0.988600395     -20.2082983
7.604                0.988549865     -20.2386119
7.606                0.988499253     -20.2689257
7.608                0.988448559     -20.2992399
7.61                 0.988400888     -20.3295841
7.612                0.988353108       -20.35993
7.614                 0.98830522     -20.3902776
7.616                0.988257224     -20.4206269
7.618                0.988212842     -20.4510462
7.62                 0.988168359     -20.4814669
7.622                0.988123773      -20.511889
7.624                0.988079086     -20.5423126
7.626                0.988038461      -20.572848
7.628                0.987997767     -20.6033841
7.63                 0.987957005      -20.633921
7.632                0.987916175     -20.6644586
7.634                0.987879715     -20.6951547
7.636                0.987843216      -20.725851
7.638                0.987806677     -20.7565474
7.64                 0.987770099     -20.7872439
7.642                0.987738032     -20.8181538
7.644                0.987705951     -20.8490625
7.646                0.987673856     -20.8799702
7.648                0.987641747     -20.9108769
7.65                 0.987614211     -20.9420521
7.652                0.987586686     -20.9732254
7.654                0.987559173     -21.0043967
7.656                0.987531672     -21.0355662
7.658                0.987508654      -21.067063
7.66                 0.987485645     -21.0985592
7.662                0.987462645     -21.1300549
7.664                0.987439652       -21.16155
7.666                   0.987421     -21.1934152
7.668                0.987402325     -21.2252819
7.67                 0.987383627       -21.25715
7.672                0.987364906     -21.2890195
7.674                0.987350259     -21.3213035
7.676                0.987335582     -21.3535891
7.678                0.987320877     -21.3858762
7.68                 0.987306143     -21.4181649
7.682                0.987295025     -21.4509139
7.684                0.987283911     -21.4836636
7.686                0.987272801     -21.5164139
7.688                0.987261695      -21.549165
7.69                  0.98725359     -21.5824219
7.692                0.987245523     -21.6156789
7.694                0.987237496     -21.6489358
7.696                0.987229507     -21.6821928
7.698                0.987223826     -21.7159932
7.7                  0.987218208     -21.7497925
7.702                0.987212652     -21.7835907
7.704                0.987207159     -21.8173877
7.706                0.987203271     -21.8517631
7.708                0.987199466     -21.8861362
7.71                 0.987195746     -21.9205071
7.712                 0.98719211     -21.9548757
7.714                0.987189226     -21.9898484
7.716                0.987186422     -22.0248197
7.718                0.987183698     -22.0597897
7.72                 0.987181053     -22.0947584
7.722                0.987178444     -22.1303407
7.724                0.987175871     -22.1659241
7.726                0.987173333     -22.2015086
7.728                0.987170831     -22.2370943
7.73                 0.987167622     -22.2733035
7.732                0.987164416     -22.3095149
7.734                0.987161213     -22.3457284
7.736                0.987158012      -22.381944
7.738                 0.98715328     -22.4187764
7.74                 0.987148562     -22.4556103
7.742                 0.98714386     -22.4924457
7.744                0.987139172     -22.5292826
7.746                0.987132097     -22.5667328
7.748                0.987125064     -22.6041835
7.75                 0.987118072     -22.6416348
7.752                0.987111121     -22.6790866
7.754                0.987101032     -22.7171377
7.756                0.987090998     -22.7551878
7.758                0.987081022     -22.7932372
7.76                 0.987071101     -22.8312858
7.762                0.987057352     -22.8699227
7.764                0.987043669     -22.9085571
7.766                0.987030053     -22.9471889
7.768                0.987016504     -22.9858181
7.77                 0.986998536      -23.025011
7.772                0.986980626     -23.0642015
7.774                0.986962774     -23.1033897
7.776                0.986944979     -23.1425755
7.778                0.986922353      -23.182295
7.78                 0.986899726     -23.2220152
7.782                0.986877098     -23.2617362
7.784                 0.98685447      -23.301458
7.786                0.986826782     -23.3416707
7.788                0.986799025     -23.3818868
7.79                   0.9867712     -23.4221063
7.792                0.986743306     -23.4623292
