! TOUCHSTONE file generated by CST DESIGN STUDIO
! Date and time: Mon Feb 10 16:44:11 2025
! Project name: C:\Work\MatlabApps\UnitCellType2OptimizationMatlab\CST\unitcell.cst
! Tree item: Tasks\Sweep1\SPara1\S-Parameters
! Header version: 2024
! Port assignment regex: !\s*Touchstone port\s*([0-9]+)\s*=\s*(CST MWS port|CST DES external port|CST DES block port)\s*(.+)\s* \(\"(.*)\"\)(\s*mode\s*([0-9]+))?.*
! Touchstone port assignment:
! Touchstone port 1 = CST DES external port 1 ("")
# GHz S MA R 50
7                    0.994692771     -11.7086959
7.002                0.994686079     -11.7277458
7.004                0.994679378     -11.7468145
7.006                 0.99467267      -11.765902
7.008                0.994665955     -11.7850084
7.01                 0.994659232     -11.8041337
7.012                0.994652505     -11.8232782
7.014                0.994645771     -11.8424417
7.016                0.994639034     -11.8616245
7.018                0.994632292     -11.8808266
7.02                 0.994625548     -11.9000481
7.022                0.994618801      -11.919289
7.024                0.994612053     -11.9385494
7.026                0.994605304     -11.9578294
7.028                0.994598555     -11.9771292
7.03                 0.994591806     -11.9964486
7.032                 0.99458506     -12.0157879
7.034                0.994578315     -12.0351472
7.036                0.994571574     -12.0545264
7.038                0.994564837     -12.0739257
7.04                 0.994558105     -12.0933451
7.042                0.994551379     -12.1127848
7.044                 0.99454466     -12.1322448
7.046                0.994537948     -12.1517252
7.048                0.994531244      -12.171226
7.05                  0.99452455     -12.1907474
7.052                0.994517867     -12.2102894
7.054                0.994511195      -12.229852
7.056                0.994504535     -12.2494355
7.058                0.994497889     -12.2690398
7.06                 0.994491257     -12.2886651
7.062                 0.99448464     -12.3083113
7.064                 0.99447804     -12.3279787
7.066                0.994471457     -12.3476672
7.068                0.994464893     -12.3673769
7.07                 0.994458349     -12.3871079
7.072                0.994451826     -12.4068604
7.074                0.994445325     -12.4266343
7.076                0.994438846     -12.4464297
7.078                0.994432393     -12.4662468
7.08                 0.994425964     -12.4860856
7.082                0.994419563     -12.5059461
7.084                0.994413189     -12.5258284
7.086                0.994406845     -12.5457327
7.088                0.994400531      -12.565659
7.09                 0.994394249     -12.5856073
7.092                0.994388001     -12.6055778
7.094                0.994381787     -12.6255704
7.096                0.994375609     -12.6455853
7.098                0.994369468     -12.6656226
7.1                  0.994363366     -12.6856823
7.102                0.994357304     -12.7057644
7.104                0.994351283     -12.7258691
7.106                0.994345306     -12.7459965
7.108                0.994339373     -12.7661464
7.11                 0.994333487     -12.7863192
7.112                0.994327648     -12.8065147
7.114                0.994321858     -12.8267331
7.116                 0.99431612     -12.8469745
7.118                0.994310433     -12.8672388
7.12                 0.994304801     -12.8875262
7.122                0.994299225     -12.9078367
7.124                0.994293706     -12.9281704
7.126                0.994288247     -12.9485273
7.128                0.994282848     -12.9689074
7.13                 0.994277513     -12.9893109
7.132                0.994272241     -13.0097378
7.134                0.994267036     -13.0301881
7.136                  0.9942619     -13.0506618
7.138                0.994256833     -13.0711591
7.14                 0.994251839       -13.09168
7.142                0.994246918     -13.1122244
7.144                0.994242073     -13.1327925
7.146                0.994237306     -13.1533843
7.148                0.994232619     -13.1739998
7.15                 0.994228013     -13.1946391
7.152                0.994223491     -13.2153021
7.154                0.994219055     -13.2359889
7.156                0.994214708     -13.2566996
7.158                 0.99421045     -13.2774342
7.16                 0.994206284     -13.2981926
7.162                0.994202213      -13.318975
7.164                0.994198238     -13.3397812
7.166                0.994194361     -13.3606114
7.168                0.994190586     -13.3814656
7.17                 0.994186913     -13.4023436
7.172                0.994183346     -13.4232457
7.174                0.994179886     -13.4441717
7.176                0.994176537     -13.4651216
7.178                0.994173299     -13.4860955
7.18                 0.994170175     -13.5070933
7.182                0.994167168      -13.528115
7.184                 0.99416428     -13.5491606
7.186                0.994161513     -13.5702301
7.188                 0.99415887     -13.5913235
7.19                 0.994156353     -13.6124407
7.192                0.994153964     -13.6335816
7.194                0.994151705     -13.6547464
7.196                0.994149579     -13.6759348
7.198                0.994147589     -13.6971469
7.2                  0.994145736     -13.7183826
7.202                0.994144022     -13.7396419
7.204                0.994142451     -13.7609246
7.206                0.994141025     -13.7822308
7.208                0.994139745     -13.8035603
7.21                 0.994138614     -13.8249132
7.212                0.994137634     -13.8462892
7.214                0.994136807     -13.8676883
7.216                0.994136136     -13.8891105
7.218                0.994135623     -13.9105556
7.22                  0.99413527     -13.9320235
7.222                0.994135079     -13.9535141
7.224                0.994135052     -13.9750273
7.226                0.994135191      -13.996563
7.228                0.994135498     -14.0181211
7.23                 0.994135975     -14.0397013
7.232                0.994136624     -14.0613037
7.234                0.994137446      -14.082928
7.236                0.994138444     -14.1045741
7.238                0.994139619     -14.1262419
7.24                 0.994140973     -14.1479311
7.242                0.994142506     -14.1696417
7.244                0.994144222     -14.1913734
7.246                 0.99414612     -14.2131261
7.248                0.994148203     -14.2348995
7.25                 0.994150471     -14.2566936
7.252                0.994152925      -14.278508
7.254                0.994155567     -14.3003427
7.256                0.994158397     -14.3221973
7.258                0.994161417     -14.3440717
7.26                 0.994164625     -14.3659657
7.262                0.994168024      -14.387879
7.264                0.994171614     -14.4098114
7.266                0.994175394     -14.4317627
7.268                0.994179364     -14.4537326
7.27                 0.994183525      -14.475721
7.272                0.994187877     -14.4977275
7.274                0.994192418     -14.5197518
7.276                0.994197149     -14.5417939
7.278                0.994202068     -14.5638533
7.28                 0.994207175     -14.5859298
7.282                0.994212468     -14.6080232
7.284                0.994217946     -14.6301331
7.286                0.994223608     -14.6522594
7.288                0.994229452     -14.6744017
7.29                 0.994235476     -14.6965598
7.292                0.994241677     -14.7187334
7.294                0.994248054     -14.7409222
7.296                0.994254603      -14.763126
7.298                0.994261323     -14.7853444
7.3                   0.99426821     -14.8075772
7.302                 0.99427526     -14.8298241
7.304                0.994282471     -14.8520848
7.306                0.994289838     -14.8743592
7.308                0.994297357     -14.8966468
7.31                 0.994305025     -14.9189474
7.312                0.994312837     -14.9412608
7.314                0.994320787     -14.9635867
7.316                0.994328872     -14.9859249
7.318                0.994337086      -15.008275
7.32                 0.994345423      -15.030637
7.322                0.994353878     -15.0530105
7.324                0.994362445     -15.0753952
7.326                0.994371118     -15.0977911
7.328                0.994379889     -15.1201978
7.33                 0.994388754     -15.1426152
7.332                0.994397704     -15.1650431
7.334                0.994406733     -15.1874813
7.336                0.994415833     -15.2099296
7.338                0.994424997     -15.2323879
7.34                 0.994434216      -15.254856
7.342                0.994443484     -15.2773339
7.344                0.994452792     -15.2998213
7.346                0.994462131     -15.3223182
7.348                0.994471493     -15.3448245
7.35                  0.99448087     -15.3673402
7.352                0.994490252     -15.3898651
7.354                 0.99449963     -15.4123992
7.356                0.994508996     -15.4349426
7.358                0.994518339     -15.4574951
7.36                 0.994527651     -15.4800569
7.362                0.994536923      -15.502628
7.364                0.994546144     -15.5252084
7.366                0.994555304     -15.5477981
7.368                0.994564395     -15.5703973
7.37                 0.994573407     -15.5930061
7.372                0.994582329     -15.6156247
7.374                0.994591152     -15.6382531
7.376                0.994599865     -15.6608915
7.378                 0.99460846     -15.6835402
7.38                 0.994616927     -15.7061993
7.382                0.994625255     -15.7288691
7.384                0.994633435     -15.7515498
7.386                0.994641457     -15.7742418
7.388                0.994649312     -15.7969452
7.39                 0.994656991     -15.8196605
7.392                0.994664484     -15.8423879
7.394                0.994671781     -15.8651277
7.396                0.994678875     -15.8878805
7.398                0.994685756     -15.9106465
7.4                  0.994692415     -15.9334262
7.402                0.994698845       -15.95622
7.404                0.994705036     -15.9790283
7.406                 0.99471098     -16.0018516
7.408                 0.99471667     -16.0246904
7.41                 0.994722099     -16.0475451
7.412                0.994727258     -16.0704164
7.414                0.994732142     -16.0933046
7.416                0.994736742     -16.1162103
7.418                0.994741052     -16.1391341
7.42                 0.994745067     -16.1620765
7.422                0.994748779     -16.1850381
7.424                0.994752184     -16.2080194
7.426                0.994755277     -16.2310212
7.428                0.994758051     -16.2540439
7.43                 0.994760503     -16.2770882
7.432                0.994762627     -16.3001546
7.434                 0.99476442     -16.3232438
7.436                0.994765879     -16.3463565
7.438                0.994766999     -16.3694932
7.44                 0.994767777     -16.3926546
7.442                0.994768211     -16.4158413
7.444                0.994768298      -16.439054
7.446                0.994768037     -16.4622932
7.448                0.994767424     -16.4855597
7.45                 0.994766459     -16.5088541
7.452                0.994765141      -16.532177
7.454                0.994763467      -16.555529
7.456                0.994761439     -16.5789108
7.458                0.994759056     -16.6023231
7.46                 0.994756317     -16.6257663
7.462                0.994753223     -16.6492413
7.464                0.994749774     -16.6727485
7.466                0.994745971     -16.6962886
7.468                0.994741816     -16.7198622
7.47                 0.994737309     -16.7434699
7.472                0.994732453     -16.7671123
7.474                0.994727248     -16.7907899
7.476                0.994721698     -16.8145035
7.478                0.994715804     -16.8382534
7.48                 0.994709568     -16.8620403
7.482                0.994702995     -16.8858648
7.484                0.994696085     -16.9097273
7.486                0.994688843     -16.9336284
7.488                0.994681271     -16.9575687
7.49                 0.994673374     -16.9815486
7.492                0.994665154     -17.0055686
7.494                0.994656615     -17.0296293
7.496                0.994647761     -17.0537311
7.498                0.994638596     -17.0778744
7.5                  0.994629125     -17.1020598
7.502                 0.99461935     -17.1262877
7.504                0.994609277     -17.1505585
7.506                 0.99459891     -17.1748727
7.508                0.994588253     -17.1992306
7.51                 0.994577311     -17.2236327
7.512                0.994566089     -17.2480793
7.514                 0.99455459     -17.2725709
7.516                 0.99454282     -17.2971078
7.518                0.994530784     -17.3216904
7.52                 0.994518486     -17.3463191
7.522                 0.99450593     -17.3709941
7.524                0.994493123     -17.3957158
7.526                0.994480068     -17.4204845
7.528                0.994466771     -17.4453006
7.53                 0.994453236     -17.4701643
7.532                0.994439467     -17.4950759
7.534                0.994425471     -17.5200358
7.536                0.994411252     -17.5450442
7.538                0.994396814     -17.5701013
7.54                 0.994382162     -17.5952074
7.542                0.994367301     -17.6203628
7.544                0.994352236     -17.6455678
7.546                0.994336971     -17.6708224
7.548                0.994321511     -17.6961271
7.55                  0.99430586     -17.7214819
7.552                0.994290023     -17.7468871
7.554                0.994274005     -17.7723429
7.556                 0.99425781     -17.7978496
7.558                0.994241442     -17.8234072
7.56                 0.994224905      -17.849016
7.562                0.994208204     -17.8746762
7.564                0.994191344     -17.9003879
7.566                0.994174327     -17.9261513
7.568                0.994157158     -17.9519666
7.57                 0.994139842     -17.9778339
7.572                0.994122381     -18.0037534
7.574                 0.99410478     -18.0297252
7.576                0.994087043     -18.0557495
7.578                0.994069173     -18.0818264
7.58                 0.994051174     -18.1079561
7.582                 0.99403305     -18.1341387
7.584                0.994014804     -18.1603743
7.586                0.993996439      -18.186663
7.588                0.993977959      -18.213005
7.59                 0.993959366     -18.2394005
7.592                0.993940665     -18.2658494
7.594                0.993921859     -18.2923519
7.596                0.993902949     -18.3189083
7.598                 0.99388394     -18.3455184
7.6                  0.993864834     -18.3721826
7.602                0.993845634     -18.3989008
7.604                0.993826343     -18.4256731
7.606                0.993806964     -18.4524998
7.608                0.993787499     -18.4793809
7.61                  0.99376795     -18.5063164
7.612                 0.99374832     -18.5333066
7.614                0.993728612     -18.5603514
7.616                0.993708828     -18.5874511
7.618                 0.99368897     -18.6146056
7.62                 0.993669041     -18.6418151
7.622                0.993649042     -18.6690797
7.624                0.993628975     -18.6963995
7.626                0.993608843     -18.7237746
7.628                0.993588648      -18.751205
7.63                 0.993568392     -18.7786909
7.632                0.993548075     -18.8062324
7.634                0.993527701     -18.8338296
7.636                 0.99350727     -18.8614826
7.638                0.993486785     -18.8891913
7.64                 0.993466248     -18.9169561
7.642                0.993445659     -18.9447769
7.644                 0.99342502     -18.9726539
7.646                0.993404332     -19.0005871
7.648                0.993383598     -19.0285767
7.65                 0.993362818     -19.0566228
7.652                0.993341994     -19.0847254
7.654                0.993321127     -19.1128847
7.656                0.993300217     -19.1411007
7.658                0.993279268     -19.1693737
7.66                 0.993258278     -19.1977035
7.662                 0.99323725     -19.2260905
7.664                0.993216185     -19.2545347
7.666                0.993195083     -19.2830361
7.668                0.993173946      -19.311595
7.67                 0.993152774     -19.3402114
7.672                0.993131568     -19.3688854
7.674                 0.99311033     -19.3976171
7.676                0.993089059     -19.4264067
7.678                0.993067757     -19.4552543
7.68                 0.993046424     -19.4841599
7.682                0.993025061     -19.5131238
7.684                0.993003669      -19.542146
7.686                0.992982248     -19.5712266
7.688                0.992960799     -19.6003658
7.69                 0.992939323     -19.6295637
7.692                0.992917819     -19.6588204
7.694                0.992896289     -19.6881361
7.696                0.992874733     -19.7175108
7.698                0.992853152     -19.7469448
7.7                  0.992831545      -19.776438
7.702                0.992809913     -19.8059908
7.704                0.992788257     -19.8356031
7.706                0.992766577     -19.8652752
7.708                0.992744873     -19.8950072
7.71                 0.992723145     -19.9247992
7.712                0.992701394     -19.9546513
7.714                 0.99267962     -19.9845638
7.716                0.992657824     -20.0145366
7.718                0.992636005     -20.0445701
7.72                 0.992614163     -20.0746643
7.722                0.992592299     -20.1048195
7.724                0.992570413     -20.1350356
7.726                0.992548505     -20.1653129
7.728                0.992526575     -20.1956516
7.73                 0.992504623     -20.2260518
7.732                 0.99248265     -20.2565136
7.734                0.992460654     -20.2870373
7.736                0.992438637     -20.3176229
7.738                0.992416599     -20.3482707
7.74                 0.992394539     -20.3789808
7.742                0.992372457     -20.4097533
7.744                0.992350353     -20.4405885
7.746                0.992328227     -20.4714865
7.748                 0.99230608     -20.5024475
7.75                 0.992283911     -20.5334717
7.752                 0.99226172     -20.5645591
7.754                0.992239506     -20.5957101
7.756                0.992217271     -20.6269247
7.758                0.992195013     -20.6582032
7.76                 0.992172733     -20.6895457
7.762                 0.99215043     -20.7209525
7.764                0.992128104     -20.7524237
7.766                0.992105756     -20.7839594
7.768                0.992083384       -20.81556
7.77                 0.992060989     -20.8472255
7.772                 0.99203857     -20.8789561
7.774                0.992016128     -20.9107522
7.776                0.991993661     -20.9426137
7.778                0.991971171      -20.974541
7.78                 0.991948656     -21.0065343
7.782                0.991926116     -21.0385937
7.784                0.991903552     -21.0707194
7.786                0.991880962     -21.1029117
7.788                0.991858347     -21.1351707
7.79                 0.991835706     -21.1674967
7.792                0.991813039     -21.1998899
