! TOUCHSTONE file generated by CST DESIGN STUDIO
! Date and time: Mon Feb 10 16:44:07 2025
! Project name: C:\Work\MatlabApps\UnitCellType2OptimizationMatlab\CST\unitcell.cst
! Tree item: Tasks\Sweep1\SPara1\S-Parameters
! Header version: 2024
! Port assignment regex: !\s*Touchstone port\s*([0-9]+)\s*=\s*(CST MWS port|CST DES external port|CST DES block port)\s*(.+)\s* \(\"(.*)\"\)(\s*mode\s*([0-9]+))?.*
! Touchstone port assignment:
! Touchstone port 1 = CST DES external port 1 ("")
# GHz S MA R 50
7                    0.995914971     -13.3708782
7.002                0.995927591     -13.3899605
7.004                0.995940136     -13.4090832
7.006                0.995952602     -13.4282464
7.008                0.995964985       -13.44745
7.01                 0.995977279     -13.4666942
7.012                0.995989482     -13.4859789
7.014                0.996001587     -13.5053041
7.016                0.996013592     -13.5246697
7.018                0.996025491     -13.5440759
7.02                 0.996037281     -13.5635225
7.022                0.996048956     -13.5830096
7.024                0.996060514     -13.6025371
7.026                0.996071949      -13.622105
7.028                0.996083257     -13.6417133
7.03                 0.996094434     -13.6613619
7.032                0.996105476     -13.6810509
7.034                0.996116378     -13.7007801
7.036                0.996127137     -13.7205495
7.038                0.996137749     -13.7403592
7.04                 0.996148208     -13.7602089
7.042                0.996158512     -13.7800988
7.044                0.996168656     -13.8000286
7.046                0.996178637     -13.8199984
7.048                0.996188449     -13.8400081
7.05                  0.99619809     -13.8600576
7.052                0.996207556     -13.8801469
7.054                0.996216841     -13.9002759
7.056                0.996225944     -13.9204444
7.058                 0.99623486     -13.9406525
7.06                 0.996243585        -13.9609
7.062                0.996252115     -13.9811868
7.064                0.996260447     -14.0015128
7.066                0.996268578     -14.0218781
7.068                0.996276503     -14.0422823
7.07                  0.99628422     -14.0627255
7.072                0.996291724     -14.0832076
7.074                0.996299013     -14.1037284
7.076                0.996306082     -14.1242878
7.078                0.996312929     -14.1448857
7.08                 0.996319551      -14.165522
7.082                0.996325944     -14.1861965
7.084                0.996332105     -14.2069092
7.086                 0.99633803     -14.2276599
7.088                0.996343718     -14.2484486
7.09                 0.996349165     -14.2692749
7.092                0.996354367     -14.2901389
7.094                0.996359323     -14.3110404
7.096                0.996364029     -14.3319792
7.098                0.996368482     -14.3529552
7.1                  0.996372681     -14.3739683
7.102                0.996376622     -14.3950183
7.104                0.996380302      -14.416105
7.106                 0.99638372     -14.4372284
7.108                0.996386873     -14.4583882
7.11                 0.996389758     -14.4795844
7.112                0.996392374     -14.5008167
7.114                0.996394717     -14.5220849
7.116                0.996396786      -14.543389
7.118                0.996398579     -14.5647288
7.12                 0.996400094      -14.586104
7.122                0.996401329     -14.6075146
7.124                0.996402282     -14.6289604
7.126                0.996402951     -14.6504411
7.128                0.996403334     -14.6719567
7.13                  0.99640343     -14.6935069
7.132                0.996403238     -14.7150916
7.134                0.996402755     -14.7367107
7.136                0.996401981     -14.7583638
7.138                0.996400914     -14.7800509
7.14                 0.996399553     -14.8017718
7.142                0.996397896     -14.8235263
7.144                0.996395943     -14.8453142
7.146                0.996393692     -14.8671353
7.148                0.996391143     -14.8889895
7.15                 0.996388295     -14.9108766
7.152                0.996385146     -14.9327964
7.154                0.996381697     -14.9547487
7.156                0.996377946     -14.9767333
7.158                0.996373893     -14.9987501
7.16                 0.996369538     -15.0207988
7.162                 0.99636488     -15.0428794
7.164                0.996359919     -15.0649915
7.166                0.996354654     -15.0871351
7.168                0.996349085     -15.1093099
7.17                 0.996343213     -15.1315157
7.172                0.996337038     -15.1537525
7.174                0.996330558     -15.1760199
7.176                0.996323776     -15.1983179
7.178                 0.99631669     -15.2206462
7.18                 0.996309301     -15.2430047
7.182                 0.99630161     -15.2653931
7.184                0.996293617     -15.2878114
7.186                0.996285323     -15.3102593
7.188                0.996276728     -15.3327366
7.19                 0.996267833     -15.3552432
7.192                0.996258639      -15.377779
7.194                0.996249146     -15.4003436
7.196                0.996239356     -15.4229371
7.198                 0.99622927     -15.4455591
7.2                  0.996218889     -15.4682096
7.202                0.996208213     -15.4908883
7.204                0.996197245     -15.5135951
7.206                0.996185986     -15.5363299
7.208                0.996174436     -15.5590925
7.21                 0.996162598     -15.5818827
7.212                0.996150473     -15.6047003
7.214                0.996138063     -15.6275453
7.216                0.996125369     -15.6504174
7.218                0.996112394     -15.6733166
7.22                 0.996099138     -15.6962426
7.222                0.996085605     -15.7191953
7.224                0.996071795     -15.7421747
7.226                0.996057712     -15.7651804
7.228                0.996043357     -15.7882125
7.23                 0.996028732     -15.8112708
7.232                0.996013841      -15.834355
7.234                0.995998684     -15.8574652
7.236                0.995983264     -15.8806012
7.238                0.995967585     -15.9037629
7.24                 0.995951648     -15.9269501
7.242                0.995935457     -15.9501627
7.244                0.995919013     -15.9734007
7.246                0.995902319     -15.9966638
7.248                0.995885379     -16.0199521
7.25                 0.995868195     -16.0432653
7.252                 0.99585077     -16.0666034
7.254                0.995833107     -16.0899664
7.256                 0.99581521      -16.113354
7.258                 0.99579708     -16.1367663
7.26                 0.995778722     -16.1602031
7.262                0.995760138     -16.1836644
7.264                0.995741331       -16.20715
7.266                0.995722306       -16.23066
7.268                0.995703065     -16.2541941
7.27                 0.995683612     -16.2777525
7.272                0.995663951     -16.3013349
7.274                0.995644083     -16.3249414
7.276                0.995624014     -16.3485718
7.278                0.995603747     -16.3722263
7.28                 0.995583285     -16.3959046
7.282                0.995562633     -16.4196067
7.284                0.995541793     -16.4433327
7.286                 0.99552077     -16.4670825
7.288                0.995499567      -16.490856
7.29                 0.995478188     -16.5146532
7.292                0.995456637     -16.5384742
7.294                0.995434919     -16.5623188
7.296                0.995413036     -16.5861871
7.298                0.995390993     -16.6100792
7.3                  0.995368793     -16.6339948
7.302                0.995346442     -16.6579342
7.304                0.995323943     -16.6818973
7.306                0.995301299      -16.705884
7.308                0.995278516     -16.7298945
7.31                 0.995255597     -16.7539287
7.312                0.995232546     -16.7779866
7.314                0.995209368     -16.8020684
7.316                0.995186067      -16.826174
7.318                0.995162647     -16.8503034
7.32                 0.995139112     -16.8744568
7.322                0.995115467     -16.8986342
7.324                0.995091715     -16.9228355
7.326                0.995067862     -16.9470609
7.328                0.995043911     -16.9713105
7.33                 0.995019866     -16.9955843
7.332                0.994995733     -17.0198824
7.334                0.994971515     -17.0442048
7.336                0.994947217     -17.0685517
7.338                0.994922843     -17.0929232
7.34                 0.994898397     -17.1173192
7.342                0.994873884       -17.14174
7.344                0.994849308     -17.1661857
7.346                0.994824674     -17.1906562
7.348                0.994799986     -17.2151519
7.35                 0.994775248     -17.2396727
7.352                0.994750464     -17.2642188
7.354                 0.99472564     -17.2887903
7.356                0.994700778     -17.3133875
7.358                0.994675885     -17.3380103
7.36                 0.994650963     -17.3626589
7.362                0.994626018     -17.3873335
7.364                0.994601053     -17.4120343
7.366                0.994576073     -17.4367614
7.368                0.994551083     -17.4615149
7.37                 0.994526086     -17.4862951
7.372                0.994501087     -17.5111021
7.374                 0.99447609     -17.5359361
7.376                0.994451099     -17.5607972
7.378                0.994426118     -17.5856857
7.38                 0.994401153     -17.6106017
7.382                0.994376206     -17.6355454
7.384                0.994351282     -17.6605171
7.386                0.994326385     -17.6855169
7.388                 0.99430152     -17.7105451
7.39                 0.994276689     -17.7356019
7.392                0.994251898     -17.7606874
7.394                0.994227151     -17.7858019
7.396                 0.99420245     -17.8109457
7.398                0.994177801      -17.836119
7.4                  0.994153207      -17.861322
7.402                0.994128673     -17.8865549
7.404                0.994104201      -17.911818
7.406                0.994079796     -17.9371116
7.408                0.994055462     -17.9624359
7.41                 0.994031201     -17.9877911
7.412                0.994007019     -18.0131776
7.414                0.993982919     -18.0385956
7.416                0.993958904     -18.0640454
7.418                0.993934978     -18.0895272
7.42                 0.993911144     -18.1150413
7.422                0.993887406     -18.1405881
7.424                0.993863768     -18.1661677
7.426                0.993840233     -18.1917806
7.428                0.993816803     -18.2174269
7.43                 0.993793484     -18.2431071
7.432                0.993770277     -18.2688213
7.434                0.993747186       -18.29457
7.436                0.993724214     -18.3203534
7.438                0.993701365     -18.3461718
7.44                 0.993678641     -18.3720256
7.442                0.993656045     -18.3979151
7.444                0.993633581     -18.4238406
7.446                0.993611251     -18.4498024
7.448                0.993589058     -18.4758009
7.45                 0.993567006     -18.5018364
7.452                0.993545095     -18.5279093
7.454                0.993523331     -18.5540199
7.456                0.993501714     -18.5801686
7.458                0.993480248     -18.6063557
7.46                 0.993458935     -18.6325815
7.462                0.993437777     -18.6588464
7.464                0.993416777     -18.6851508
7.466                0.993395938     -18.7114951
7.468                0.993375261     -18.7378796
7.47                 0.993354749     -18.7643047
7.472                0.993334404     -18.7907707
7.474                0.993314228     -18.8172781
7.476                0.993294222     -18.8438271
7.478                 0.99327439     -18.8704183
7.48                 0.993254732      -18.897052
7.482                0.993235252     -18.9237285
7.484                0.993215949     -18.9504483
7.486                0.993196826     -18.9772117
7.488                0.993177886     -19.0040191
7.49                 0.993159128      -19.030871
7.492                0.993140555     -19.0577678
7.494                0.993122169     -19.0847098
7.496                0.993103969     -19.1116974
7.498                0.993085959     -19.1387311
7.5                  0.993068138     -19.1658112
7.502                0.993050509     -19.1929382
7.504                0.993033072     -19.2201125
7.506                0.993015828     -19.2473345
7.508                0.992998778     -19.2746046
7.51                 0.992981923     -19.3019232
7.512                0.992965263     -19.3292907
7.514                  0.9929488     -19.3567077
7.516                0.992932535     -19.3841744
7.518                0.992916467     -19.4116913
7.52                 0.992900597     -19.4392589
7.522                0.992884925     -19.4668775
7.524                0.992869453     -19.4945476
7.526                 0.99285418     -19.5222697
7.528                0.992839106     -19.5500441
7.53                 0.992824232     -19.5778713
7.532                0.992809558     -19.6057517
7.534                0.992795083     -19.6336857
7.536                0.992780808     -19.6616738
7.538                0.992766732     -19.6897165
7.54                 0.992752855     -19.7178141
7.542                0.992739178     -19.7459671
7.544                0.992725698     -19.7741759
7.546                0.992712417      -19.802441
7.548                0.992699334     -19.8307628
7.55                 0.992686447     -19.8591418
7.552                0.992673757     -19.8875784
7.554                0.992661263     -19.9160729
7.556                0.992648963      -19.944626
7.558                0.992636857     -19.9732379
7.56                 0.992624944     -20.0019092
7.562                0.992613224     -20.0306403
7.564                0.992601694     -20.0594316
7.566                0.992590354     -20.0882837
7.568                0.992579202     -20.1171968
7.57                 0.992568238     -20.1461715
7.572                 0.99255746     -20.1752081
7.574                0.992546866     -20.2043072
7.576                0.992536455     -20.2334692
7.578                0.992526225     -20.2626946
7.58                 0.992516176     -20.2919836
7.582                0.992506304     -20.3213369
7.584                0.992496609     -20.3507548
7.586                0.992487088     -20.3802378
7.588                 0.99247774     -20.4097863
7.59                 0.992468562     -20.4394008
7.592                0.992459553     -20.4690816
7.594                0.992450711     -20.4988293
7.596                0.992442033     -20.5286443
7.598                0.992433517     -20.5585269
7.6                  0.992425161     -20.5884776
7.602                0.992416962      -20.618497
7.604                0.992408919     -20.6485853
7.606                0.992401028      -20.678743
7.608                0.992393287     -20.7089706
7.61                 0.992385694     -20.7392684
7.612                0.992378245      -20.769637
7.614                0.992370939     -20.8000767
7.616                0.992363772     -20.8305879
7.618                0.992356742     -20.8611711
7.62                 0.992349845     -20.8918267
7.622                0.992343079     -20.9225552
7.624                0.992336441     -20.9533568
7.626                0.992329928     -20.9842322
7.628                0.992323536     -21.0151815
7.63                 0.992317262     -21.0462054
7.632                0.992311104     -21.0773042
7.634                0.992305058     -21.1084782
7.636                0.992299121      -21.139728
7.638                0.992293289     -21.1710539
7.64                 0.992287559     -21.2024564
7.642                0.992281928     -21.2339357
7.644                0.992276392     -21.2654924
7.646                0.992270947     -21.2971268
7.648                 0.99226559     -21.3288394
7.65                 0.992260317     -21.3606304
7.652                0.992255125     -21.3925004
7.654                 0.99225001     -21.4244497
7.656                0.992244968     -21.4564787
7.658                0.992239995     -21.4885878
7.66                 0.992235088     -21.5207773
7.662                0.992230242     -21.5530477
7.664                0.992225454     -21.5853993
7.666                 0.99222072     -21.6178326
7.668                0.992216036     -21.6503478
7.67                 0.992211397     -21.6829454
7.672                  0.9922068     -21.7156258
7.674                0.992202241     -21.7483892
7.676                0.992197715     -21.7812361
7.678                0.992193218     -21.8141669
7.68                 0.992188746     -21.8471819
7.682                0.992184296     -21.8802814
7.684                0.992179862     -21.9134659
7.686                 0.99217544     -21.9467356
7.688                0.992171027      -21.980091
7.69                 0.992166617     -22.0135323
7.692                0.992162207       -22.04706
7.694                0.992157792     -22.0806744
7.696                0.992153367     -22.1143757
7.698                0.992148929     -22.1481645
7.7                  0.992144473     -22.1820409
7.702                0.992139994     -22.2160054
7.704                0.992135488     -22.2500583
7.706                0.992130951     -22.2841999
7.708                0.992126378     -22.3184305
7.71                 0.992121764     -22.3527505
7.712                0.992117105     -22.3871602
7.714                0.992112397     -22.4216598
7.716                0.992107634     -22.4562498
7.718                0.992102813     -22.4909305
7.72                 0.992097928     -22.5257021
7.722                0.992092976      -22.560565
7.724                0.992087951     -22.5955195
7.726                 0.99208285     -22.6305658
7.728                0.992077667     -22.6657044
7.73                 0.992072397     -22.7009355
7.732                0.992067037     -22.7362593
7.734                0.992061582     -22.7716763
7.736                0.992056027     -22.8071866
7.738                0.992050367     -22.8427907
7.74                 0.992044598     -22.8784887
7.742                0.992038715      -22.914281
7.744                0.992032714     -22.9501678
7.746                 0.99202659     -22.9861495
7.748                0.992020339     -23.0222262
7.75                 0.992013956     -23.0583984
7.752                0.992007436     -23.0946663
7.754                0.992000775     -23.1310301
7.756                0.991993968     -23.1674901
7.758                0.991987012     -23.2040466
7.76                   0.9919799     -23.2406999
7.762                0.991972629     -23.2774502
7.764                0.991965195     -23.3142978
7.766                0.991957592      -23.351243
7.768                0.991949817      -23.388286
7.77                 0.991941864      -23.425427
7.772                0.991933731     -23.4626664
7.774                0.991925411     -23.5000044
7.776                0.991916901     -23.5374412
7.778                0.991908196     -23.5749771
7.78                 0.991899292     -23.6126124
7.782                0.991890185     -23.6503472
7.784                0.991880871     -23.6881818
7.786                0.991871345     -23.7261166
7.788                0.991861602     -23.7641516
7.79                 0.991851639     -23.8022872
7.792                0.991841452     -23.8405236
