! TOUCHSTONE file generated by CST DESIGN STUDIO
! Date and time: Mon Feb 10 16:44:10 2025
! Project name: C:\Work\MatlabApps\UnitCellType2OptimizationMatlab\CST\unitcell.cst
! Tree item: Tasks\Sweep1\SPara1\S-Parameters
! Header version: 2024
! Port assignment regex: !\s*Touchstone port\s*([0-9]+)\s*=\s*(CST MWS port|CST DES external port|CST DES block port)\s*(.+)\s* \(\"(.*)\"\)(\s*mode\s*([0-9]+))?.*
! Touchstone port assignment:
! Touchstone port 1 = CST DES external port 1 ("")
# GHz S MA R 50
7                    0.995206238      -12.351031
7.002                0.995221422     -12.3697712
7.004                 0.99523643     -12.3885466
7.006                 0.99525126     -12.4073573
7.008                0.995265908     -12.4262031
7.01                  0.99528037     -12.4450841
7.012                0.995294642     -12.4640003
7.014                0.995308723     -12.4829514
7.016                0.995322607     -12.5019376
7.018                0.995336292     -12.5209586
7.02                 0.995349774     -12.5400145
7.022                 0.99536305     -12.5591052
7.024                0.995376117     -12.5782306
7.026                 0.99538897     -12.5973907
7.028                0.995401608     -12.6165852
7.03                 0.995414026     -12.6358143
7.032                0.995426221     -12.6550777
7.034                0.995438191     -12.6743755
7.036                0.995449931     -12.6937074
7.038                0.995461439     -12.7130734
7.04                 0.995472711     -12.7324734
7.042                0.995483744     -12.7519073
7.044                0.995494536      -12.771375
7.046                0.995505082     -12.7908764
7.048                0.995515381     -12.8104113
7.05                 0.995525428     -12.8299797
7.052                0.995535221     -12.8495814
7.054                0.995544758     -12.8692163
7.056                0.995554034     -12.8888842
7.058                0.995563047     -12.9085851
7.06                 0.995571795     -12.9283188
7.062                0.995580275     -12.9480852
7.064                0.995588483     -12.9678841
7.066                0.995596418     -12.9877153
7.068                0.995604076     -13.0075788
7.07                 0.995611454     -13.0274744
7.072                0.995618552     -13.0474019
7.074                0.995625365     -13.0673612
7.076                0.995631891      -13.087352
7.078                0.995638128     -13.1073744
7.08                 0.995644075      -13.127428
7.082                0.995649727     -13.1475127
7.084                0.995655084     -13.1676284
7.086                0.995660143     -13.1877748
7.088                0.995664901     -13.2079519
7.09                 0.995669358     -13.2281593
7.092                 0.99567351      -13.248397
7.094                0.995677357     -13.2686647
7.096                0.995680896     -13.2889623
7.098                0.995684125     -13.3092896
7.1                  0.995687043     -13.3296463
7.102                0.995689649     -13.3500324
7.104                 0.99569194     -13.3704475
7.106                0.995693915     -13.3908916
7.108                0.995695573     -13.4113643
7.11                 0.995696912     -13.4318655
7.112                0.995697931      -13.452395
7.114                 0.99569863     -13.4729526
7.116                0.995699006     -13.4935381
7.118                0.995699059     -13.5141513
7.12                 0.995698789     -13.5347919
7.122                0.995698193     -13.5554597
7.124                0.995697272     -13.5761546
7.126                0.995696025     -13.5968764
7.128                 0.99569445     -13.6176247
7.13                 0.995692549     -13.6383995
7.132                0.995690319     -13.6592004
7.134                0.995687762     -13.6800273
7.136                0.995684876     -13.7008799
7.138                0.995681661     -13.7217581
7.14                 0.995678119     -13.7426615
7.142                0.995674247     -13.7635901
7.144                0.995670047     -13.7845435
7.146                0.995665519     -13.8055216
7.148                0.995660663     -13.8265241
7.15                 0.995655479     -13.8475508
7.152                0.995649968     -13.8686015
7.154                0.995644131      -13.889676
7.156                0.995637968     -13.9107741
7.158                 0.99563148     -13.9318954
7.16                 0.995624668     -13.9530399
7.162                0.995617532     -13.9742073
7.164                0.995610074     -13.9953974
7.166                0.995602295       -14.01661
7.168                0.995594196     -14.0378449
7.17                 0.995585779     -14.0591017
7.172                0.995577044     -14.0803805
7.174                0.995567993     -14.1016808
7.176                0.995558629     -14.1230026
7.178                0.995548952     -14.1443456
7.18                 0.995538964     -14.1657096
7.182                0.995528667     -14.1870945
7.184                0.995518063     -14.2084999
7.186                0.995507155     -14.2299258
7.188                0.995495944     -14.2513719
7.19                 0.995484432      -14.272838
7.192                0.995472622     -14.2943239
7.194                0.995460516     -14.3158295
7.196                0.995448116     -14.3373546
7.198                0.995435426     -14.3588989
7.2                  0.995422447     -14.3804623
7.202                0.995409183     -14.4020447
7.204                0.995395636     -14.4236458
7.206                0.995381809     -14.4452655
7.208                0.995367705     -14.4669037
7.21                 0.995353328       -14.48856
7.212                0.995338679     -14.5102345
7.214                0.995323763     -14.5319269
7.216                0.995308583     -14.5536371
7.218                0.995293141      -14.575365
7.22                 0.995277442     -14.5971103
7.222                0.995261489      -14.618873
7.224                0.995245285      -14.640653
7.226                0.995228834       -14.66245
7.228                 0.99521214      -14.684264
7.23                 0.995195206     -14.7060948
7.232                0.995178037     -14.7279423
7.234                0.995160635     -14.7498064
7.236                0.995143005     -14.7716871
7.238                0.995125152     -14.7935841
7.24                 0.995107078     -14.8154974
7.242                0.995088788     -14.8374269
7.244                0.995070287     -14.8593726
7.246                0.995051578     -14.8813342
7.248                0.995032666     -14.9033118
7.25                 0.995013554     -14.9253052
7.252                0.994994248     -14.9473144
7.254                0.994974751     -14.9693394
7.256                0.994955069       -14.99138
7.258                0.994935205     -15.0134363
7.26                 0.994915164     -15.0355081
7.262                0.994894951     -15.0575954
7.264                0.994874569     -15.0796982
7.266                0.994854025     -15.1018164
7.268                0.994833322     -15.1239501
7.27                 0.994812464     -15.1460991
7.272                0.994791458     -15.1682636
7.274                0.994770307     -15.1904433
7.276                0.994749016     -15.2126385
7.278                 0.99472759      -15.234849
7.28                 0.994706034     -15.2570748
7.282                0.994684352      -15.279316
7.284                 0.99466255     -15.3015726
7.286                0.994640632     -15.3238446
7.288                0.994618602     -15.3461321
7.29                 0.994596467      -15.368435
7.292                 0.99457423     -15.3907534
7.294                0.994551897     -15.4130873
7.296                0.994529472     -15.4354368
7.298                0.994506961      -15.457802
7.3                  0.994484367     -15.4801829
7.302                0.994461697     -15.5025795
7.304                0.994438955      -15.524992
7.306                0.994416145     -15.5474204
7.308                0.994393274     -15.5698647
7.31                 0.994370344     -15.5923252
7.312                0.994347362     -15.6148018
7.314                0.994324332     -15.6372947
7.316                 0.99430126      -15.659804
7.318                0.994278149     -15.6823298
7.32                 0.994255004     -15.7048721
7.322                0.994231831     -15.7274312
7.324                0.994208634     -15.7500071
7.326                0.994185419        -15.7726
7.328                0.994162188       -15.79521
7.33                 0.994138948     -15.8178372
7.332                0.994115703     -15.8404818
7.334                0.994092458     -15.8631439
7.336                0.994069217     -15.8858237
7.338                0.994045985     -15.9085213
7.34                 0.994022766      -15.931237
7.342                0.993999565     -15.9539708
7.344                0.993976386      -15.976723
7.346                0.993953235     -15.9994937
7.348                0.993930115     -16.0222832
7.35                  0.99390703     -16.0450915
7.352                0.993883986     -16.0679189
7.354                0.993860986     -16.0907656
7.356                0.993838034     -16.1136318
7.358                0.993815136     -16.1365177
7.36                 0.993792294     -16.1594235
7.362                0.993769514     -16.1823494
7.364                  0.9937468     -16.2052956
7.366                0.993724154     -16.2282624
7.368                0.993701583       -16.25125
7.37                 0.993679088     -16.2742586
7.372                0.993656675     -16.2972885
7.374                0.993634348     -16.3203398
7.376                0.993612109     -16.3434129
7.378                0.993589964     -16.3665079
7.38                 0.993567915     -16.3896252
7.382                0.993545966     -16.4127649
7.384                0.993524122     -16.4359274
7.386                0.993502384     -16.4591129
7.388                0.993480759     -16.4823217
7.39                 0.993459247     -16.5055539
7.392                0.993437854       -16.52881
7.394                0.993416582     -16.5520902
7.396                0.993395435     -16.5753947
7.398                0.993374415     -16.5987238
7.4                  0.993353527     -16.6220779
7.402                0.993332773     -16.6454572
7.404                0.993312157      -16.668862
7.406                0.993291681     -16.6922925
7.408                0.993271349     -16.7157492
7.41                 0.993251163     -16.7392322
7.412                0.993231126     -16.7627419
7.414                0.993211241     -16.7862787
7.416                0.993191511     -16.8098427
7.418                0.993171939     -16.8334343
7.42                 0.993152527     -16.8570539
7.422                0.993133277     -16.8807016
7.424                0.993114193      -16.904378
7.426                0.993095277     -16.9280832
7.428                 0.99307653     -16.9518176
7.43                 0.993057956     -16.9755816
7.432                0.993039557     -16.9993754
7.434                0.993021335     -17.0231993
7.436                0.993003292     -17.0470538
7.438                 0.99298543     -17.0709392
7.44                 0.992967751     -17.0948557
7.442                0.992950258     -17.1188037
7.444                0.992932952     -17.1427836
7.446                0.992915834     -17.1667957
7.448                0.992898908     -17.1908403
7.45                 0.992882174     -17.2149178
7.452                0.992865634     -17.2390286
7.454                 0.99284929     -17.2631729
7.456                0.992833144     -17.2873512
7.458                0.992817196     -17.3115637
7.46                 0.992801449     -17.3358109
7.462                0.992785903     -17.3600931
7.464                 0.99277056     -17.3844107
7.466                0.992755422     -17.4087639
7.468                0.992740489     -17.4331532
7.47                 0.992725762      -17.457579
7.472                0.992711243     -17.4820415
7.474                0.992696933     -17.5065412
7.476                0.992682832     -17.5310784
7.478                0.992668942     -17.5556535
7.48                 0.992655262     -17.5802669
7.482                0.992641795     -17.6049189
7.484                0.992628541     -17.6296098
7.486                  0.9926155     -17.6543402
7.488                0.992602673     -17.6791102
7.49                  0.99259006     -17.7039204
7.492                0.992577662     -17.7287711
7.494                0.992565479     -17.7536626
7.496                0.992553512     -17.7785953
7.498                0.992541761     -17.8035697
7.5                  0.992530226      -17.828586
7.502                0.992518907     -17.8536447
7.504                0.992507805     -17.8787462
7.506                0.992496919     -17.9038907
7.508                0.992486249     -17.9290788
7.51                 0.992475796     -17.9543107
7.512                0.992465559      -17.979587
7.514                0.992455537     -18.0049078
7.516                0.992445731     -18.0302737
7.518                0.992436141      -18.055685
7.52                 0.992426765     -18.0811421
7.522                0.992417604     -18.1066454
7.524                0.992408656     -18.1321952
7.526                0.992399922      -18.157792
7.528                0.992391401     -18.1834361
7.53                 0.992383091      -18.209128
7.532                0.992374993     -18.2348679
7.534                0.992367105     -18.2606563
7.536                0.992359427     -18.2864937
7.538                0.992351957     -18.3123802
7.54                 0.992344695     -18.3383165
7.542                 0.99233764     -18.3643028
7.544                0.992330789     -18.3903395
7.546                0.992324143      -18.416427
7.548                  0.9923177     -18.4425657
7.55                 0.992311459      -18.468756
7.552                0.992305418     -18.4949983
7.554                0.992299575     -18.5212929
7.556                 0.99229393     -18.5476403
7.558                0.992288481     -18.5740408
7.56                 0.992283226     -18.6004949
7.562                0.992278164     -18.6270028
7.564                0.992273292      -18.653565
7.566                0.992268609      -18.680182
7.568                0.992264113      -18.706854
7.57                 0.992259802     -18.7335814
7.572                0.992255675     -18.7603646
7.574                0.992251729     -18.7872041
7.576                0.992247961     -18.8141002
7.578                0.992244371     -18.8410533
7.58                 0.992240955     -18.8680637
7.582                0.992237712     -18.8951319
7.584                0.992234638     -18.9222582
7.586                0.992231732      -18.949443
7.588                0.992228991     -18.9766867
7.59                 0.992226413     -19.0039897
7.592                0.992223995     -19.0313523
7.594                0.992221733     -19.0587749
7.596                0.992219627     -19.0862579
7.598                0.992217672     -19.1138017
7.6                  0.992215866     -19.1414066
7.602                0.992214206      -19.169073
7.604                0.992212689     -19.1968014
7.606                0.992211312     -19.2245919
7.608                0.992210072     -19.2524451
7.61                 0.992208965     -19.2803613
7.612                0.992207989     -19.3083409
7.614                0.992207141     -19.3363841
7.616                0.992206416     -19.3644915
7.618                0.992205811     -19.3926632
7.62                 0.992205324     -19.4208998
7.622                 0.99220495     -19.4492016
7.624                0.992204687     -19.4775688
7.626                0.992204529     -19.5060019
7.628                0.992204474     -19.5345012
7.63                 0.992204518     -19.5630671
7.632                0.992204657        -19.5917
7.634                0.992204887        -19.6204
7.636                0.992205204     -19.6491677
7.638                0.992205605     -19.6780033
7.64                 0.992206085     -19.7069072
7.642                 0.99220664     -19.7358798
7.644                0.992207265     -19.7649212
7.646                0.992207958      -19.794032
7.648                0.992208713     -19.8232124
7.65                 0.992209526     -19.8524627
7.652                0.992210394     -19.8817833
7.654                 0.99221131     -19.9111744
7.656                0.992212271     -19.9406365
7.658                0.992213273     -19.9701697
7.66                 0.992214311     -19.9997745
7.662                 0.99221538     -20.0294511
7.664                0.992216475     -20.0591999
7.666                0.992217592     -20.0890211
7.668                0.992218726      -20.118915
7.67                 0.992219873      -20.148882
7.672                0.992221027     -20.1789223
7.674                0.992222183     -20.2090362
7.676                0.992223337      -20.239224
7.678                0.992224484      -20.269486
7.68                 0.992225618     -20.2998224
7.682                0.992226734     -20.3302336
7.684                0.992227829     -20.3607198
7.686                0.992228895     -20.3912812
7.688                0.992229929     -20.4219181
7.69                 0.992230924     -20.4526309
7.692                0.992231877     -20.4834196
7.694                0.992232781     -20.5142847
7.696                0.992233631     -20.5452263
7.698                0.992234422     -20.5762446
7.7                  0.992235148       -20.60734
7.702                0.992235805     -20.6385126
7.704                0.992236387     -20.6697627
7.706                0.992236888     -20.7010904
7.708                0.992237303     -20.7324961
7.71                 0.992237627     -20.7639798
7.712                0.992237855     -20.7955419
7.714                0.992237979     -20.8271826
7.716                0.992237997      -20.858902
7.718                0.992237901     -20.8907003
7.72                 0.992237686     -20.9225777
7.722                0.992237348     -20.9545344
7.724                 0.99223688     -20.9865706
7.726                0.992236277     -21.0186865
7.728                0.992235533     -21.0508822
7.73                 0.992234643     -21.0831579
7.732                0.992233602     -21.1155138
7.734                0.992232405       -21.14795
7.736                0.992231044     -21.1804666
7.738                0.992229517     -21.2130639
7.74                 0.992227816     -21.2457419
7.742                0.992225937     -21.2785008
7.744                0.992223873     -21.3113407
7.746                0.992221621     -21.3442617
7.748                0.992219175     -21.3772641
7.75                 0.992216528     -21.4103478
7.752                0.992213677      -21.443513
7.754                0.992210615     -21.4767598
7.756                0.992207339     -21.5100883
7.758                0.992203842     -21.5434986
7.76                 0.992200119     -21.5769908
7.762                0.992196166      -21.610565
7.764                0.992191977     -21.6442213
7.766                0.992187548     -21.6779597
7.768                0.992182874     -21.7117804
7.77                 0.992177949     -21.7456833
7.772                 0.99217277     -21.7796686
7.774                0.992167331     -21.8137362
7.776                0.992161628     -21.8478864
7.778                0.992155656     -21.8821191
7.78                  0.99214941     -21.9164344
7.782                0.992142887     -21.9508322
7.784                0.992136082     -21.9853128
7.786                 0.99212899      -22.019876
7.788                0.992121608      -22.054522
7.79                 0.992113931     -22.0892507
7.792                0.992105955     -22.1240622
