! TOUCHSTONE file generated by CST DESIGN STUDIO
! Date and time: Mon Feb 10 16:44:16 2025
! Project name: C:\Work\MatlabApps\UnitCellType2OptimizationMatlab\CST\unitcell.cst
! Tree item: Tasks\Sweep1\SPara1\S-Parameters
! Header version: 2024
! Port assignment regex: !\s*Touchstone port\s*([0-9]+)\s*=\s*(CST MWS port|CST DES external port|CST DES block port)\s*(.+)\s* \(\"(.*)\"\)(\s*mode\s*([0-9]+))?.*
! Touchstone port assignment:
! Touchstone port 1 = CST DES external port 1 ("")
# GHz S MA R 50
7                    0.991927009     -8.97187957
7.002                0.991955713     -8.99400078
7.004                0.991984646     -9.01609902
7.006                0.992013806     -9.03817442
7.008                0.992043192     -9.06022711
7.01                 0.992070369      -9.0823706
7.012                0.992097444     -9.10449994
7.014                0.992124417     -9.12661518
7.016                0.992151291     -9.14871642
7.018                0.992176761     -9.17090074
7.02                 0.992201884     -9.19306416
7.022                0.992226664     -9.21520673
7.024                0.992251103     -9.23732855
7.026                0.992274174     -9.25956118
7.028                0.992297112     -9.28175999
7.03                  0.99231992     -9.30392525
7.032                0.992342603     -9.32605719
7.034                0.992362986      -9.3483161
7.036                0.992383644     -9.37053981
7.038                0.992404577     -9.39272872
7.04                 0.992425784     -9.41488327
7.042                0.992443922     -9.43714397
7.044                0.992462422     -9.45938145
7.046                0.992481282     -9.48159597
7.048                  0.9925005     -9.50378777
7.05                 0.992517061     -9.52604563
7.052                0.992533644     -9.54829112
7.054                0.992550249     -9.57052431
7.056                0.992566876     -9.59274527
7.058                0.992581904     -9.61501732
7.06                 0.992596586     -9.63727535
7.062                0.992610924     -9.65951954
7.064                0.992624921     -9.68175006
7.066                0.992637871     -9.70404031
7.068                0.992650499     -9.72630676
7.07                 0.992662809     -9.74854974
7.072                  0.9926748     -9.77076954
7.074                0.992685185     -9.79306952
7.076                0.992695597     -9.81534162
7.078                0.992706036     -9.83758606
7.08                 0.992716502     -9.85980306
7.082                 0.99272463     -9.88208728
7.084                0.992732982     -9.90435151
7.086                0.992741558     -9.92659585
7.088                0.992750354     -9.94882038
7.09                 0.992756851     -9.97108284
7.092                0.992763367      -9.9933354
7.094                0.992769903     -10.0155781
7.096                0.992776458      -10.037811
7.098                0.992781479     -10.0600667
7.1                  0.992786229     -10.0823115
7.102                0.992790711     -10.1045453
7.104                0.992794925     -10.1267682
7.106                0.992798034     -10.1490257
7.108                0.992800914      -10.171262
7.11                  0.99280357     -10.1934772
7.112                0.992806003     -10.2156714
7.114                 0.99280681     -10.2379192
7.116                 0.99280771      -10.260141
7.118                0.992808705     -10.2823369
7.12                 0.992809796     -10.3045073
7.122                0.992808581     -10.3267247
7.124                0.992807639     -10.3489231
7.126                0.992806971     -10.3711028
7.128                0.992806575      -10.393264
7.13                 0.992803987     -10.4154389
7.132                0.992801481     -10.4376051
7.134                0.992799058     -10.4597625
7.136                0.992796716     -10.4819113
7.138                 0.99279302     -10.5040592
7.14                 0.992789068     -10.5261998
7.142                 0.99278486     -10.5483331
7.144                0.992780399     -10.5704591
7.146                0.992775331     -10.5925871
7.148                0.992769919     -10.6146999
7.15                 0.992764166     -10.6367976
7.152                0.992758074     -10.6588805
7.154                 0.99275121     -10.6809851
7.156                0.992744258     -10.7030679
7.158                0.992737218     -10.7251294
7.16                  0.99273009     -10.7471696
7.162                0.992721528     -10.7692344
7.164                0.992713127     -10.7912815
7.166                0.992704886      -10.813311
7.168                0.992696805     -10.8353229
7.17                 0.992687134     -10.8573393
7.172                0.992677537     -10.8793479
7.174                0.992668012     -10.9013486
7.176                0.992658559     -10.9233416
7.178                0.992648179     -10.9453176
7.18                 0.992637583      -10.967289
7.182                0.992626771     -10.9892557
7.184                0.992615745     -11.0112178
7.186                0.992604429     -11.0331674
7.188                 0.99259281     -11.0551054
7.19                 0.992580888     -11.0770317
7.192                0.992568667     -11.0989463
7.194                0.992556029       -11.12087
7.196                0.992543308     -11.1427752
7.198                0.992530506     -11.1646622
7.2                  0.992517624     -11.1865312
7.202                0.992503746     -11.2084109
7.204                0.992490011     -11.2302752
7.206                 0.99247642     -11.2521243
7.208                0.992462973     -11.2739584
7.21                 0.992448392      -11.295788
7.212                0.992433893     -11.3176108
7.214                0.992419475     -11.3394269
7.216                0.992405139     -11.3612364
7.218                0.992390266      -11.383022
7.22                 0.992375199     -11.4048043
7.222                 0.99235994     -11.4265834
7.224                0.992344489     -11.4483592
7.226                0.992329257     -11.4701144
7.228                0.992313684     -11.4918605
7.23                 0.992297769     -11.5135976
7.232                0.992281515      -11.535326
7.234                0.992265586     -11.5570545
7.236                0.992249483     -11.5787662
7.238                0.992233205     -11.6004615
7.24                 0.992216751     -11.6221403
7.242                0.992200045     -11.6438312
7.244                0.992183432     -11.6655058
7.246                0.992166911     -11.6871642
7.248                 0.99215048     -11.7088063
7.25                 0.992133515     -11.7304519
7.252                0.992116655     -11.7520897
7.254                0.992099898     -11.7737197
7.256                0.992083246     -11.7953419
7.258                0.992066527     -11.8169483
7.26                 0.992049656     -11.8385529
7.262                0.992032632     -11.8601557
7.264                0.992015457     -11.8817567
7.266                 0.99199894       -11.90334
7.268                 0.99198209     -11.9249177
7.27                 0.991964908       -11.94649
7.272                0.991947397     -11.9680568
7.274                0.991930751     -11.9896256
7.276                0.991913891     -12.0111818
7.278                0.991896818     -12.0327254
7.28                 0.991879533     -12.0542564
7.282                0.991862674     -12.0758043
7.284                0.991845838     -12.0973392
7.286                0.991829027     -12.1188612
7.288                 0.99181224     -12.1403704
7.29                 0.991795529     -12.1618889
7.292                0.991778889     -12.1834012
7.294                0.991762321     -12.2049072
7.296                0.991745824      -12.226407
7.298                0.991729692     -12.2479074
7.3                  0.991713439     -12.2694063
7.302                0.991697067     -12.2909037
7.304                0.991680575     -12.3123997
7.306                0.991665136     -12.3338921
7.308                0.991649402     -12.3553796
7.31                 0.991633376     -12.3768622
7.312                0.991617057       -12.39834
7.314                 0.99160197     -12.4198381
7.316                0.991586678     -12.4413234
7.318                0.991571181     -12.4627961
7.32                 0.991555478     -12.4842563
7.322                0.991540589     -12.5057595
7.324                0.991525754     -12.5272475
7.326                0.991510972     -12.5487203
7.328                0.991496242     -12.5701779
7.33                 0.991481852     -12.5916758
7.332                0.991467609     -12.6131649
7.334                0.991453512     -12.6346451
7.336                 0.99143956     -12.6561163
7.338                0.991426225     -12.6776136
7.34                  0.99141283     -12.6991094
7.342                0.991399376     -12.7206039
7.344                0.991385863     -12.7420969
7.346                0.991373638     -12.7636135
7.348                0.991361112      -12.785128
7.35                 0.991348285     -12.8066404
7.352                0.991335159     -12.8281507
7.354                0.991323723     -12.8497006
7.356                0.991312003     -12.8712418
7.358                     0.9913     -12.8927741
7.36                 0.991287715     -12.9142976
7.362                0.991276842     -12.9358796
7.364                0.991265905     -12.9574498
7.366                0.991254907     -12.9790084
7.368                0.991243848     -13.0005555
7.37                 0.991233687     -13.0221638
7.372                0.991223596      -13.043765
7.374                0.991213578     -13.0653593
7.376                0.991203631     -13.0869468
7.378                0.991194571     -13.1085893
7.38                 0.991185481     -13.1302305
7.382                0.991176362     -13.1518704
7.384                0.991167213     -13.1735091
7.386                0.991159434      -13.195198
7.388                0.991151453     -13.2168846
7.39                  0.99114327     -13.2385689
7.392                0.991134886      -13.260251
7.394                0.991128129     -13.2820036
7.396                0.991121188     -13.3037468
7.398                0.991114063     -13.3254808
7.4                  0.991106754     -13.3472056
7.402                0.991100736     -13.3690261
7.404                0.991094762     -13.3908326
7.406                0.991088832     -13.4126252
7.408                0.991082946     -13.4344039
7.41                 0.991077794     -13.4562865
7.412                0.991072841     -13.4781589
7.414                0.991068086     -13.5000212
7.416                0.991063528     -13.5218734
7.418                0.991059712     -13.5438195
7.42                 0.991055953     -13.5657633
7.422                0.991052249     -13.5877047
7.424                  0.9910486     -13.6096439
7.426                0.991046312      -13.631668
7.428                0.991043802     -13.6536918
7.43                  0.99104107     -13.6757151
7.432                0.991038118      -13.697738
7.434                0.991037048     -13.7198622
7.436                0.991035675     -13.7419802
7.438                   0.991034      -13.764092
7.44                 0.991032024     -13.7861976
7.442                0.991031764     -13.8084245
7.444                0.991031381     -13.8306404
7.446                0.991030875     -13.8528453
7.448                0.991030248     -13.8750393
7.45                 0.991030762     -13.8973651
7.452                0.991031348     -13.9196824
7.454                0.991032005     -13.9419914
7.456                0.991032735     -13.9642921
7.458                 0.99103431     -13.9867158
7.46                 0.991035947     -14.0091371
7.462                0.991037645     -14.0315562
7.464                0.991039405      -14.053973
7.466                0.991042229     -14.0765089
7.468                0.991044962     -14.0990439
7.47                 0.991047604      -14.121578
7.472                0.991050155     -14.1441113
7.474                0.991054043     -14.1667771
7.476                0.991057798     -14.1894364
7.478                0.991061418     -14.2120893
7.48                 0.991064904     -14.2347359
7.482                0.991069518     -14.2575357
7.484                 0.99107418      -14.280323
7.486                0.991078887      -14.303098
7.488                0.991083639     -14.3258606
7.49                   0.9910889     -14.3487933
7.492                0.991094403     -14.3717147
7.494                0.991100148     -14.3946249
7.496                0.991106134     -14.4175239
7.498                0.991112414     -14.4405833
7.5                  0.991118867     -14.4636387
7.502                0.991125493     -14.4866902
7.504                0.991132291     -14.5097378
7.506                0.991139872     -14.5329365
7.508                0.991147337     -14.5561354
7.51                 0.991154689     -14.5793344
7.512                0.991161926     -14.6025335
7.514                0.991170561      -14.625892
7.516                0.991178906     -14.6492463
7.518                0.991186961     -14.6725965
7.52                 0.991194729     -14.6959424
7.522                0.991203947     -14.7194645
7.524                0.991212989     -14.7429763
7.526                0.991221856     -14.7664776
7.528                0.991230549     -14.7899687
7.53                 0.991240111     -14.8136534
7.532                0.991249726     -14.8373279
7.534                0.991259394     -14.8609925
7.536                0.991269116     -14.8846472
7.538                0.991279182     -14.9084881
7.54                 0.991289378     -14.9323249
7.542                0.991299703     -14.9561576
7.544                0.991310157     -14.9799864
7.546                0.991320964     -15.0039925
7.548                0.991331785     -15.0279982
7.55                 0.991342619     -15.0520034
7.552                0.991353467     -15.0760081
7.554                0.991364903     -15.1001967
7.556                0.991376258     -15.1243811
7.558                0.991387532     -15.1485614
7.56                 0.991398727     -15.1727377
7.562                0.991410429     -15.1971136
7.564                 0.99142217     -15.2214785
7.566                0.991433951     -15.2458326
7.568                0.991445769     -15.2701759
7.57                 0.991457486     -15.2947387
7.572                0.991469466     -15.3192891
7.574                0.991481706     -15.3438273
7.576                0.991494206     -15.3683532
7.578                0.991506196     -15.3930935
7.58                 0.991518462     -15.4178277
7.582                0.991531004     -15.4425558
7.584                0.991543821     -15.4672778
7.586                0.991556423     -15.4922007
7.588                 0.99156903     -15.5171234
7.59                 0.991581642      -15.542046
7.592                0.991594258     -15.5669685
7.594                 0.99160738     -15.5920893
7.596                0.991620243     -15.6172079
7.598                0.991632847     -15.6423241
7.6                  0.991645193     -15.6674378
7.602                 0.99165832     -15.6927659
7.604                 0.99167121     -15.7180847
7.606                0.991683867     -15.7433942
7.608                 0.99169629     -15.7686943
7.61                 0.991709017     -15.7942241
7.612                0.991721744     -15.8197423
7.614                0.991734471     -15.8452491
7.616                0.991747199     -15.8707445
7.618                0.991759595      -15.896467
7.62                 0.991772148     -15.9221831
7.622                0.991784858     -15.9478929
7.624                0.991797725     -15.9735965
7.626                0.991810028     -15.9995162
7.628                0.991822424      -16.025435
7.63                 0.991834914     -16.0513529
7.632                0.991847497       -16.07727
7.634                0.991859739     -16.1033941
7.636                 0.99187194     -16.1295159
7.638                0.991884103     -16.1556354
7.64                 0.991896226     -16.1817526
7.642                0.991908072     -16.2080945
7.644                0.991919925      -16.234427
7.646                0.991931787       -16.26075
7.648                0.991943655     -16.2870638
7.65                 0.991954756     -16.3136167
7.652                0.991966098     -16.3401559
7.654                 0.99197768     -16.3666816
7.656                0.991989501     -16.3931937
7.658                0.991999979     -16.4199503
7.66                  0.99201081     -16.4466979
7.662                0.992021994     -16.4734364
7.664                0.992033528     -16.5001658
7.666                0.992043803     -16.5271218
7.668                0.992054205     -16.5540764
7.67                 0.992064736     -16.5810298
7.672                0.992075393     -16.6079819
7.674                0.992085589     -16.6351463
7.676                0.992095566     -16.6623101
7.678                0.992105326     -16.6894734
7.68                 0.992114867      -16.716636
7.682                0.992124517     -16.7440214
7.684                0.992133853     -16.7713993
7.686                0.992142877     -16.7987696
7.688                 0.99215159     -16.8261322
7.69                 0.992160166     -16.8537393
7.692                0.992168638      -16.881334
7.694                0.992177008     -16.9089163
7.696                0.992185278     -16.9364862
7.698                0.992192704     -16.9642968
7.7                  0.992200259     -16.9920985
7.702                0.992207945     -17.0198914
7.704                0.992215762     -17.0476756
7.706                0.992222316     -17.0756881
7.708                0.992229009     -17.1036986
7.71                  0.99223584     -17.1317071
7.712                0.992242809     -17.1597137
7.714                0.992248651      -17.187935
7.716                0.992254473     -17.2161553
7.718                0.992260276     -17.2443746
7.72                 0.992266059     -17.2725928
7.722                0.992270999     -17.3010342
7.724                0.992275881     -17.3294674
7.726                0.992280704     -17.3578924
7.728                 0.99228547     -17.3863095
7.73                 0.992289042     -17.4149718
7.732                 0.99229278     -17.4436185
7.734                0.992296684     -17.4722497
7.736                0.992300751     -17.5008655
7.738                0.992302911     -17.5297317
7.74                 0.992305464     -17.5585843
7.742                 0.99230841     -17.5874231
7.744                0.992311747     -17.6162482
7.746                0.992313012     -17.6453098
7.748                0.992314534     -17.6743672
7.75                 0.992316315     -17.7034203
7.752                0.992318354     -17.7324692
7.754                0.992319103     -17.7617279
7.756                 0.99231969     -17.7909873
7.758                0.992320115     -17.8202474
7.76                 0.992320378      -17.849508
7.762                0.992320298     -17.8789832
7.764                0.992319805     -17.9084532
7.766                0.992318899     -17.9379179
7.768                0.992317582     -17.9673772
7.77                 0.992316083      -17.997068
7.772                0.992314317     -18.0267457
7.774                0.992312286     -18.0564102
7.776                0.992309992     -18.0860616
7.778                0.992306798     -18.1159551
7.78                 0.992303647     -18.1458362
7.782                0.992300541     -18.1757051
7.784                0.992297481     -18.2055619
7.786                0.992292851     -18.2356445
7.788                0.992288375     -18.2657226
7.79                 0.992284055     -18.2957963
7.792                 0.99227989     -18.3258658
