! TOUCHSTONE file generated by CST DESIGN STUDIO
! Date and time: Mon Feb 10 16:44:09 2025
! Project name: C:\Work\MatlabApps\UnitCellType2OptimizationMatlab\CST\unitcell.cst
! Tree item: Tasks\Sweep1\SPara1\S-Parameters
! Header version: 2024
! Port assignment regex: !\s*Touchstone port\s*([0-9]+)\s*=\s*(CST MWS port|CST DES external port|CST DES block port)\s*(.+)\s* \(\"(.*)\"\)(\s*mode\s*([0-9]+))?.*
! Touchstone port assignment:
! Touchstone port 1 = CST DES external port 1 ("")
# GHz S MA R 50
7                    0.995604084      -12.900122
7.002                 0.99561695     -12.9189902
7.004                 0.99562972     -12.9378948
7.006                0.995642391     -12.9568358
7.008                0.995654959     -12.9758133
7.01                  0.99566742     -12.9948272
7.012                 0.99567977     -13.0138777
7.014                0.995692005     -13.0329648
7.016                0.995704122     -13.0520884
7.018                0.995716116     -13.0712486
7.02                 0.995727984     -13.0904455
7.022                0.995739722     -13.1096789
7.024                0.995751325     -13.1289491
7.026                0.995762791     -13.1482558
7.028                0.995774114     -13.1675992
7.03                 0.995785291     -13.1869793
7.032                0.995796319      -13.206396
7.034                0.995807192     -13.2258493
7.036                0.995817908     -13.2453392
7.038                0.995828462     -13.2648657
7.04                 0.995838851     -13.2844287
7.042                 0.99584907     -13.3040283
7.044                0.995859116     -13.3236644
7.046                0.995868984      -13.343337
7.048                0.995878672     -13.3630459
7.05                 0.995888174     -13.3827913
7.052                0.995897488     -13.4025729
7.054                0.995906609     -13.4223908
7.056                0.995915533      -13.442245
7.058                0.995924258     -13.4621352
7.06                 0.995932778     -13.4820616
7.062                0.995941091     -13.5020239
7.064                0.995949192     -13.5220221
7.066                0.995957079     -13.5420562
7.068                0.995964747     -13.5621261
7.07                 0.995972192     -13.5822316
7.072                0.995979412     -13.6023726
7.074                0.995986403     -13.6225492
7.076                0.995993161     -13.6427611
7.078                0.995999683     -13.6630082
7.08                 0.996005965     -13.6832905
7.082                0.996012005     -13.7036078
7.084                0.996017798     -13.7239601
7.086                0.996023342     -13.7443471
7.088                0.996028634     -13.7647687
7.09                 0.996033669     -13.7852249
7.092                0.996038446     -13.8057155
7.094                0.996042962     -13.8262404
7.096                0.996047212     -13.8467993
7.098                0.996051196     -13.8673922
7.1                  0.996054908     -13.8880189
7.102                0.996058348     -13.9086792
7.104                0.996061512     -13.9293731
7.106                0.996064397     -13.9501003
7.108                0.996067001     -13.9708606
7.11                 0.996069322      -13.991654
7.112                0.996071357     -14.0124802
7.114                0.996073104      -14.033339
7.116                0.996074561     -14.0542303
7.118                0.996075725      -14.075154
7.12                 0.996076594     -14.0961097
7.122                0.996077167     -14.1170974
7.124                0.996077441     -14.1381168
7.126                0.996077415     -14.1591678
7.128                0.996077087     -14.1802501
7.13                 0.996076455     -14.2013636
7.132                0.996075518     -14.2225081
7.134                0.996074274     -14.2436833
7.136                0.996072721     -14.2648891
7.138                 0.99607086     -14.2861253
7.14                 0.996068687     -14.3073917
7.142                0.996066203      -14.328688
7.144                0.996063407      -14.350014
7.146                0.996060296     -14.3713697
7.148                0.996056871     -14.3927546
7.15                 0.996053131     -14.4141687
7.152                0.996049075     -14.4356116
7.154                0.996044703     -14.4570833
7.156                0.996040014     -14.4785835
7.158                0.996035008     -14.5001119
7.16                 0.996029685     -14.5216684
7.162                0.996024044     -14.5432528
7.164                0.996018086     -14.5648647
7.166                0.996011811     -14.5865041
7.168                0.996005218     -14.6081707
7.17                 0.995998309     -14.6298643
7.172                0.995991084     -14.6515847
7.174                0.995983542     -14.6733317
7.176                0.995975685      -14.695105
7.178                0.995967514     -14.7169044
7.18                 0.995959028     -14.7387298
7.182                 0.99595023     -14.7605809
7.184                 0.99594112     -14.7824575
7.186                0.995931699     -14.8043595
7.188                0.995921968     -14.8262865
7.19                 0.995911929     -14.8482385
7.192                0.995901583     -14.8702152
7.194                0.995890931     -14.8922163
7.196                0.995879976     -14.9142418
7.198                0.995868718     -14.9362914
7.2                   0.99585716      -14.958365
7.202                0.995845304     -14.9804622
7.204                 0.99583315      -15.002583
7.206                0.995820703     -15.0247272
7.208                0.995807963     -15.0468946
7.21                 0.995794933     -15.0690849
7.212                0.995781615     -15.0912981
7.214                0.995768012      -15.113534
7.216                0.995754125     -15.1357923
7.218                0.995739959     -15.1580729
7.22                 0.995725515     -15.1803757
7.222                0.995710796     -15.2027005
7.224                0.995695805     -15.2250472
7.226                0.995680545     -15.2474155
7.228                0.995665019     -15.2698054
7.23                  0.99564923     -15.2922167
7.232                0.995633181     -15.3146492
7.234                0.995616875     -15.3371028
7.236                0.995600316     -15.3595775
7.238                0.995583507      -15.382073
7.24                 0.995566452     -15.4045893
7.242                0.995549153     -15.4271261
7.244                0.995531615     -15.4496835
7.246                0.995513841     -15.4722613
7.248                0.995495834     -15.4948594
7.25                 0.995477599     -15.5174777
7.252                 0.99545914     -15.5401161
7.254                 0.99544046     -15.5627745
7.256                0.995421563     -15.5854528
7.258                0.995402452      -15.608151
7.26                 0.995383134      -15.630869
7.262                 0.99536361     -15.6536066
7.264                0.995343885     -15.6763639
7.266                0.995323964     -15.6991408
7.268                 0.99530385     -15.7219372
7.27                 0.995283549      -15.744753
7.272                0.995263063     -15.7675883
7.274                0.995242398      -15.790443
7.276                0.995221558     -15.8133171
7.278                0.995200547     -15.8362105
7.28                 0.995179369     -15.8591231
7.282                 0.99515803     -15.8820551
7.284                0.995136533     -15.9050064
7.286                0.995114883     -15.9279769
7.288                0.995093085     -15.9509667
7.29                 0.995071142     -15.9739758
7.292                0.995049061     -15.9970041
7.294                0.995026844     -16.0200518
7.296                0.995004498     -16.0431187
7.298                0.994982026     -16.0662051
7.3                  0.994959432     -16.0893107
7.302                0.994936723     -16.1124359
7.304                0.994913902     -16.1355804
7.306                0.994890974     -16.1587445
7.308                0.994867943     -16.1819281
7.31                 0.994844815     -16.2051314
7.312                0.994821594     -16.2283543
7.314                0.994798284      -16.251597
7.316                0.994774891     -16.2748595
7.318                0.994751419     -16.2981419
7.32                 0.994727872     -16.3214443
7.322                0.994704256     -16.3447668
7.324                0.994680574     -16.3681095
7.326                0.994656832     -16.3914724
7.328                0.994633035     -16.4148557
7.33                 0.994609186     -16.4382595
7.332                 0.99458529      -16.461684
7.334                0.994561353     -16.4851291
7.336                0.994537378     -16.5085952
7.338                 0.99451337     -16.5320822
7.34                 0.994489334     -16.5555903
7.342                0.994465274     -16.5791198
7.344                0.994441195     -16.6026706
7.346                0.994417101      -16.626243
7.348                0.994392997     -16.6498371
7.35                 0.994368887     -16.6734532
7.352                0.994344775     -16.6970912
7.354                0.994320666     -16.7207516
7.356                0.994296564     -16.7444343
7.358                0.994272473     -16.7681395
7.36                 0.994248399     -16.7918676
7.362                0.994224344     -16.8156186
7.364                0.994200314     -16.8393927
7.366                0.994176312     -16.8631902
7.368                0.994152343     -16.8870112
7.37                  0.99412841      -16.910856
7.372                0.994104518     -16.9347248
7.374                0.994080672     -16.9586177
7.376                0.994056874      -16.982535
7.378                0.994033128      -17.006477
7.38                  0.99400944     -17.0304438
7.382                0.993985812     -17.0544357
7.384                0.993962249     -17.0784529
7.386                0.993938754     -17.1024957
7.388                0.993915331     -17.1265642
7.39                 0.993891984     -17.1506588
7.392                0.993868717     -17.1747797
7.394                0.993845533     -17.1989272
7.396                0.993822435     -17.2231015
7.398                0.993799428     -17.2473029
7.4                  0.993776514     -17.2715316
7.402                0.993753698     -17.2957879
7.404                0.993730982     -17.3200721
7.406                 0.99370837     -17.3443844
7.408                0.993685866     -17.3687253
7.41                 0.993663472     -17.3930948
7.412                0.993641192     -17.4174933
7.414                0.993619028     -17.4419212
7.416                0.993596985     -17.4663786
7.418                0.993575065      -17.490866
7.42                 0.993553271     -17.5153835
7.422                0.993531606     -17.5399315
7.424                0.993510072     -17.5645103
7.426                0.993488674     -17.5891203
7.428                0.993467413     -17.6137616
7.43                 0.993446293     -17.6384347
7.432                0.993425315     -17.6631398
7.434                0.993404483     -17.6878774
7.436                0.993383799     -17.7126476
7.438                0.993363266     -17.7374508
7.44                 0.993342886     -17.7622874
7.442                0.993322662     -17.7871576
7.444                0.993302595     -17.8120619
7.446                0.993282689     -17.8370005
7.448                0.993262945     -17.8619738
7.45                 0.993243366     -17.8869822
7.452                0.993223954     -17.9120259
7.454                 0.99320471     -17.9371053
7.456                0.993185638     -17.9622208
7.458                0.993166738     -17.9873727
7.46                 0.993148012     -18.0125614
7.462                0.993129464     -18.0377872
7.464                0.993111093     -18.0630505
7.466                0.993092903     -18.0883517
7.468                0.993074894      -18.113691
7.47                 0.993057069     -18.1390689
7.472                0.993039428     -18.1644857
7.474                0.993021974     -18.1899419
7.476                0.993004707     -18.2154377
7.478                0.992987629     -18.2409735
7.48                 0.992970742     -18.2665497
7.482                0.992954046     -18.2921668
7.484                0.992937543      -18.317825
7.486                0.992921234     -18.3435247
7.488                 0.99290512     -18.3692663
7.49                 0.992889202     -18.3950503
7.492                 0.99287348     -18.4208769
7.494                0.992857956     -18.4467466
7.496                0.992842631     -18.4726597
7.498                0.992827504     -18.4986167
7.5                  0.992812578     -18.5246179
7.502                0.992797852     -18.5506637
7.504                0.992783328     -18.5767545
7.506                0.992769004     -18.6028907
7.508                0.992754883     -18.6290727
7.51                 0.992740964     -18.6553009
7.512                0.992727248     -18.6815757
7.514                0.992713734     -18.7078975
7.516                0.992700424     -18.7342666
7.518                0.992687316     -18.7606835
7.52                 0.992674412     -18.7871486
7.522                0.992661711     -18.8136623
7.524                0.992649213     -18.8402249
7.526                0.992636918     -18.8668369
7.528                0.992624826     -18.8934987
7.53                 0.992612935     -18.9202107
7.532                0.992601248     -18.9469733
7.534                0.992589761     -18.9737869
7.536                0.992578476     -19.0006519
7.538                0.992567392     -19.0275687
7.54                 0.992556507     -19.0545377
7.542                0.992545822     -19.0815593
7.544                0.992535335      -19.108634
7.546                0.992525047     -19.1357621
7.548                0.992514955     -19.1629441
7.55                 0.992505059     -19.1901803
7.552                0.992495359     -19.2174712
7.554                0.992485852     -19.2448171
7.556                0.992476538     -19.2722186
7.558                0.992467416     -19.2996759
7.56                 0.992458484     -19.3271895
7.562                0.992449741     -19.3547599
7.564                0.992441186     -19.3823873
7.566                0.992432818     -19.4100723
7.568                0.992424634     -19.4378153
7.57                 0.992416633     -19.4656165
7.572                0.992408814     -19.4934766
7.574                0.992401174     -19.5213958
7.576                0.992393713     -19.5493746
7.578                0.992386427     -19.5774133
7.58                 0.992379317     -19.6055124
7.582                0.992372378     -19.6336723
7.584                 0.99236561     -19.6618935
7.586                 0.99235901     -19.6901762
7.588                0.992352576     -19.7185209
7.59                 0.992346306      -19.746928
7.592                0.992340198      -19.775398
7.594                0.992334248     -19.8039311
7.596                0.992328456     -19.8325279
7.598                0.992322818     -19.8611886
7.6                  0.992317332     -19.8899138
7.602                0.992311996     -19.9187038
7.604                0.992306806      -19.947559
7.606                 0.99230176     -19.9764798
7.608                0.992296855     -20.0054665
7.61                 0.992292088     -20.0345197
7.612                0.992287457     -20.0636396
7.614                0.992282959     -20.0928267
7.616                 0.99227859     -20.1220814
7.618                0.992274348      -20.151404
7.62                 0.992270229     -20.1807949
7.622                 0.99226623     -20.2102545
7.624                0.992262349     -20.2397832
7.626                0.992258581     -20.2693814
7.628                0.992254923     -20.2990495
7.63                 0.992251373     -20.3287877
7.632                0.992247926     -20.3585966
7.634                0.992244579     -20.3884764
7.636                0.992241329     -20.4184276
7.638                0.992238172     -20.4484505
7.64                 0.992235104     -20.4785455
7.642                0.992232122     -20.5087129
7.644                0.992229222     -20.5389531
7.646                  0.9922264     -20.5692665
7.648                0.992223652     -20.5996534
7.65                 0.992220975     -20.6301141
7.652                0.992218364     -20.6606491
7.654                0.992215816     -20.6912587
7.656                0.992213326     -20.7219432
7.658                0.992210891      -20.752703
7.66                 0.992208506     -20.7835384
7.662                0.992206168     -20.8144498
7.664                0.992203871     -20.8454374
7.666                0.992201613     -20.8765017
7.668                0.992199388     -20.9076429
7.67                 0.992197192     -20.9388615
7.672                0.992195022     -20.9701576
7.674                0.992192872     -21.0015317
7.676                0.992190739     -21.0329841
7.678                0.992188617      -21.064515
7.68                 0.992186504     -21.0961248
7.682                0.992184393     -21.1278138
7.684                 0.99218228     -21.1595824
7.686                0.992180162     -21.1914307
7.688                0.992178033     -21.2233592
7.69                 0.992175889     -21.2553681
7.692                0.992173725     -21.2874578
7.694                0.992171536     -21.3196284
7.696                0.992169319     -21.3518804
7.698                0.992167068     -21.3842139
7.7                  0.992164779     -21.4166294
7.702                0.992162447      -21.449127
7.704                0.992160067      -21.481707
7.706                0.992157635     -21.5143697
7.708                0.992155145     -21.5471155
7.71                 0.992152594     -21.5799444
7.712                0.992149976     -21.6128569
7.714                0.992147287     -21.6458532
7.716                0.992144521     -21.6789335
7.718                0.992141675     -21.7120981
7.72                 0.992138742     -21.7453473
7.722                 0.99213572     -21.7786812
7.724                0.992132602     -21.8121002
7.726                0.992129384     -21.8456045
7.728                0.992126061     -21.8791942
7.73                 0.992122629     -21.9128698
7.732                0.992119083     -21.9466313
7.734                0.992115417     -21.9804791
7.736                0.992111628     -22.0144133
7.738                 0.99210771     -22.0484342
7.74                 0.992103659     -22.0825419
7.742                 0.99209947     -22.1167368
7.744                0.992095139      -22.151019
7.746                 0.99209066     -22.1853888
7.748                0.992086029     -22.2198462
7.75                 0.992081241     -22.2543916
7.752                0.992076292     -22.2890252
7.754                0.992071178     -22.3237471
7.756                0.992065893     -22.3585576
7.758                0.992060432     -22.3934568
7.76                 0.992054793     -22.4284449
7.762                0.992048969     -22.4635221
7.764                0.992042957     -22.4986886
7.766                0.992036752     -22.5339446
7.768                 0.99203035     -22.5692903
7.77                 0.992023746     -22.6047258
7.772                0.992016936     -22.6402513
7.774                0.992009915      -22.675867
7.776                 0.99200268     -22.7115731
7.778                0.991995226     -22.7473696
7.78                 0.991987549     -22.7832569
7.782                0.991979645      -22.819235
7.784                0.991971509     -22.8553041
7.786                0.991963138     -22.8914644
7.788                0.991954527      -22.927716
7.79                 0.991945673      -22.964059
7.792                0.991936572     -23.0004937
