! TOUCHSTONE file generated by CST DESIGN STUDIO
! Date and time: Mon Feb 10 16:47:03 2025
! Project name: C:\Work\MatlabApps\UnitCellType2OptimizationMatlab\CST\unitcell.cst
! Tree item: Tasks\Sweep1\SPara1\S-Parameters
! Header version: 2024
! Port assignment regex: !\s*Touchstone port\s*([0-9]+)\s*=\s*(CST MWS port|CST DES external port|CST DES block port)\s*(.+)\s* \(\"(.*)\"\)(\s*mode\s*([0-9]+))?.*
! Touchstone port assignment:
! Touchstone port 1 = CST DES external port 1 ("")
# GHz S MA R 50
7                    0.990366476      -8.2301202
7.002                0.990381335     -8.25304848
7.004                0.990396552     -8.27596057
7.006                0.990412127     -8.29885655
7.008                0.990428056     -8.32173649
7.01                 0.990437965     -8.34462781
7.012                0.990447638     -8.36750274
7.014                0.990457077     -8.39036152
7.016                0.990466282     -8.41320439
7.018                0.990464911     -8.43636928
7.02                 0.990463493     -8.45950592
7.022                0.990462026     -8.48261454
7.024                0.990460511     -8.50569538
7.026                0.990437717     -8.52880839
7.028                0.990415031     -8.55190357
7.03                 0.990392455     -8.57498102
7.032                0.990369988     -8.59804082
7.034                0.990323369     -8.62015474
7.036                0.990276347     -8.64226384
7.038                0.990228926     -8.66436821
7.04                 0.990181106     -8.68646784
7.042                 0.99012196     -8.70657481
7.044                0.990062246     -8.72667088
7.046                0.990001968     -8.74675612
7.048                0.989941131     -8.76683043
7.05                 0.989893396     -8.78456438
7.052                0.989845528     -8.80228645
7.054                 0.98979753     -8.81999677
7.056                0.989749401      -8.8376955
7.058                0.989739165     -8.85380166
7.06                 0.989728917     -8.86990632
7.062                0.989718655     -8.88600968
7.064                0.989708377     -8.90211175
7.066                0.989747614     -8.91827914
7.068                0.989786681     -8.93444266
7.07                 0.989825575     -8.95060238
7.072                0.989864298     -8.96675838
7.074                0.989942045     -8.98475912
7.076                0.990019834      -9.0027433
7.078                0.990097667     -9.02071109
7.08                 0.990175544     -9.03866278
7.082                0.990264333     -9.05940203
7.084                0.990353318     -9.08012361
7.086                  0.9904425     -9.10082769
7.088                0.990531875     -9.12151465
7.09                 0.990602967     -9.14465176
7.092                 0.99067386     -9.16777149
7.094                0.990744557     -9.19087393
7.096                0.990815058     -9.21395921
7.098                0.990851287     -9.23827101
7.1                  0.990887204     -9.26255261
7.102                0.990922816     -9.28680405
7.104                0.990958125     -9.31102551
7.106                0.990959809     -9.33514307
7.108                0.990961702     -9.35922817
7.11                 0.990963805      -9.3832811
7.112                0.990966118     -9.40730214
7.114                0.990947263     -9.43040903
7.116                0.990928787     -9.45350228
7.118                0.990910688     -9.47658198
7.12                 0.990892965     -9.49964818
7.122                0.990868775     -9.52173043
7.124                0.990844531     -9.54380887
7.126                0.990820233     -9.56588354
7.128                0.990795881     -9.58795445
7.13                 0.990772519     -9.60943093
7.132                0.990748947     -9.63089443
7.134                0.990725166     -9.65234511
7.136                0.990701177     -9.67378311
7.138                0.990676114     -9.69492002
7.14                 0.990651065       -9.716042
7.142                0.990626028     -9.73714915
7.144                0.990601003     -9.75824155
7.146                0.990571194     -9.77884569
7.148                0.990541222     -9.79944679
7.15                 0.990511087     -9.82004491
7.152                0.990480791     -9.84064003
7.154                0.990449529     -9.86025854
7.156                0.990417732     -9.87987637
7.158                0.990385401     -9.89949349
7.16                 0.990352541     -9.91910977
7.162                0.990331456     -9.93749079
7.164                0.990310006      -9.9558641
7.166                0.990288193     -9.97422975
7.168                 0.99026602     -9.99258776
7.17                 0.990270551     -10.0101303
7.172                0.990275128     -10.0276671
7.174                0.990279747     -10.0451984
7.176                0.990284408     -10.0627242
7.178                0.990323681     -10.0805187
7.18                 0.990363079     -10.0983121
7.182                0.990402602     -10.1161045
7.184                0.990442249     -10.1338958
7.186                0.990509589     -10.1532697
7.188                 0.99057705     -10.1726367
7.19                 0.990644633     -10.1919968
7.192                0.990712336     -10.2113503
7.194                 0.99078623     -10.2330883
7.196                0.990860364     -10.2548127
7.198                0.990934736     -10.2765237
7.2                  0.991009344     -10.2982214
7.202                0.991064402     -10.3221001
7.204                0.991119576     -10.3459662
7.206                0.991174865     -10.3698197
7.208                 0.99123027     -10.3936606
7.21                  0.99124979     -10.4185811
7.212                0.991269139     -10.4434878
7.214                 0.99128832     -10.4683808
7.216                0.991307336       -10.49326
7.218                0.991290191     -10.5178285
7.22                 0.991272943     -10.5423805
7.222                0.991255593     -10.5669164
7.224                0.991238144      -10.591436
7.226                0.991197746     -10.6146457
7.228                0.991157448      -10.637847
7.23                  0.99111725     -10.6610399
7.232                 0.99107715     -10.6842245
7.234                 0.99103275     -10.7058526
7.236                0.990988313     -10.7274816
7.238                0.990943839     -10.7491117
7.24                 0.990899329     -10.7707426
7.242                0.990864689      -10.791255
7.244                 0.99082983     -10.8117644
7.246                0.990794753     -10.8322708
7.248                0.990759457     -10.8527744
7.25                 0.990737821     -10.8728272
7.252                0.990716125     -10.8928698
7.254                0.990694367     -10.9129022
7.256                0.990672548     -10.9329245
7.258                0.990660371     -10.9528963
7.26                 0.990648216     -10.9728628
7.262                0.990636081      -10.992824
7.264                0.990623967       -11.01278
7.266                0.990617982     -11.0326571
7.268                0.990611727     -11.0525354
7.27                 0.990605203     -11.0724149
7.272                0.990598412     -11.0922957
7.274                0.990600174     -11.1119317
7.276                0.990601545     -11.1315645
7.278                0.990602528     -11.1511943
7.28                 0.990603124     -11.1708209
7.282                0.990618797     -11.1903087
7.284                0.990634395     -11.2097893
7.286                0.990649919     -11.2292628
7.288                0.990665368     -11.2487291
7.29                 0.990700242     -11.2686106
7.292                 0.99073532     -11.2884884
7.294                0.990770602     -11.3083628
7.296                0.990806087     -11.3282338
7.298                0.990857011     -11.3493226
7.3                  0.990908164     -11.3704087
7.302                0.990959544     -11.3914921
7.304                0.991011151     -11.4125729
7.306                  0.9910638     -11.4354467
7.308                0.991116694     -11.4583124
7.31                 0.991169834     -11.4811702
7.312                0.991223216     -11.5040202
7.314                0.991258147     -11.5285453
7.316                0.991293315      -11.553061
7.318                0.991328718     -11.5775674
7.32                 0.991364355     -11.6020644
7.322                0.991367513      -11.627359
7.324                0.991370667     -11.6526481
7.326                 0.99137382     -11.6779314
7.328                0.991376973     -11.7032092
7.33                 0.991347027     -11.7280332
7.332                0.991316848     -11.7528534
7.334                0.991286438     -11.7776698
7.336                0.991255799     -11.8024825
7.338                0.991204867     -11.8258482
7.34                 0.991153715     -11.8492123
7.342                0.991102342      -11.872575
7.344                 0.99105075     -11.8959362
7.346                0.990998406      -11.917545
7.348                0.990945891     -11.9391567
7.35                 0.990893203     -11.9607713
7.352                0.990840345     -11.9823889
7.354                0.990803461     -12.0027083
7.356                0.990766402     -12.0230294
7.358                0.990729166     -12.0433522
7.36                 0.990691752     -12.0636768
7.362                0.990677026     -12.0835704
7.364                0.990662272     -12.1034592
7.366                0.990647491     -12.1233432
7.368                0.990632682     -12.1432223
7.37                 0.990636361     -12.1634344
7.372                0.990640198     -12.1836411
7.374                0.990644192     -12.2038424
7.376                0.990648343     -12.2240385
7.378                0.990662307     -12.2448694
7.38                 0.990676291     -12.2657002
7.382                0.990690296     -12.2865311
7.384                0.990704321     -12.3073619
7.386                0.990722481     -12.3287317
7.388                0.990740397      -12.350101
7.39                  0.99075807     -12.3714697
7.392                0.990775501     -12.3928379
7.394                0.990796715     -12.4145897
7.396                0.990817751     -12.4363358
7.398                0.990838611     -12.4580761
7.4                  0.990859295     -12.4798107
7.402                0.990885508     -12.5020089
7.404                0.990911834     -12.5242018
7.406                0.990938274     -12.5463894
7.408                0.990964826     -12.5685717
7.41                 0.990995637     -12.5915494
7.412                0.991026696     -12.6145252
7.414                0.991058001     -12.6374993
7.416                0.991089551     -12.6604716
7.418                0.991117831     -12.6845601
7.42                 0.991146356      -12.708645
7.422                0.991175125     -12.7327263
7.424                0.991204137     -12.7568041
7.426                0.991217762     -12.7819461
7.428                0.991231629     -12.8070821
7.43                 0.991245737     -12.8322122
7.432                0.991260086     -12.8573363
7.434                0.991248984     -12.8829232
7.436                0.991237969     -12.9085074
7.438                0.991227044     -12.9340889
7.44                 0.991216209     -12.9596677
7.442                0.991179366     -12.9847396
7.444                0.991142293     -13.0098137
7.446                0.991104994       -13.03489
7.448                0.991067466     -13.0599686
7.45                 0.991014933     -13.0836948
7.452                0.990961978     -13.1074251
7.454                0.990908603     -13.1311594
7.456                0.990854808     -13.1548976
7.458                0.990803945     -13.1769972
7.46                 0.990752724      -13.199101
7.462                0.990701145      -13.221209
7.464                0.990649208     -13.2433211
7.466                 0.99061649     -13.2642294
7.468                0.990583606     -13.2851405
7.47                 0.990550555     -13.3060545
7.472                0.990517336     -13.3269716
7.474                0.990510644     -13.3476008
7.476                0.990504022     -13.3682296
7.478                0.990497467     -13.3888581
7.48                  0.99049098     -13.4094861
7.482                 0.99050659       -13.43075
7.484                0.990522477      -13.452011
7.486                0.990538639      -13.473269
7.488                0.990555079     -13.4945241
7.49                 0.990581937     -13.5169073
7.492                0.990609048     -13.5392892
7.494                0.990636411     -13.5616697
7.496                0.990664028      -13.584049
7.498                0.990690951     -13.6075007
7.5                  0.990717857     -13.6309524
7.502                0.990744747     -13.6544041
7.504                0.990771621     -13.6778557
7.506                 0.99079247     -13.7020314
7.508                0.990813142     -13.7262046
7.51                 0.990833636     -13.7503751
7.512                0.990853955     -13.7745429
7.514                0.990868297     -13.7991343
7.516                0.990882587     -13.8237217
7.518                0.990896825     -13.8483049
7.52                 0.990911011      -13.872884
7.522                0.990920614     -13.8978204
7.524                0.990930351      -13.922755
7.526                0.990940222     -13.9476877
7.528                0.990950227     -13.9726186
7.53                 0.990954422     -13.9980033
7.532                0.990958815     -14.0233873
7.534                0.990963406     -14.0487707
7.536                0.990968194     -14.0741534
7.538                 0.99096221     -14.0999951
7.54                  0.99095642     -14.1258341
7.542                0.990950823     -14.1516705
7.544                 0.99094542     -14.1775043
7.546                0.990923665     -14.2034929
7.548                0.990902021     -14.2294793
7.55                 0.990880487     -14.2554634
7.552                0.990859063     -14.2814453
7.554                0.990820888       -14.30697
7.556                0.990782559      -14.332497
7.558                0.990744078     -14.3580264
7.56                 0.990705444     -14.3835582
7.562                0.990658162     -14.4080222
7.564                0.990610434      -14.432492
7.566                0.990562261     -14.4569676
7.568                0.990513644     -14.4814489
7.57                 0.990470739     -14.5046409
7.572                0.990427355     -14.5278383
7.574                0.990383493     -14.5510409
7.576                0.990339153     -14.5742487
7.578                0.990314335     -14.5965392
7.58                 0.990289297      -14.618833
7.582                0.990264037       -14.64113
7.584                0.990238554     -14.6634302
7.586                0.990238925     -14.6856556
7.588                0.990239427     -14.7078822
7.59                 0.990240058       -14.73011
7.592                0.990240819      -14.752339
7.594                0.990262886     -14.7754068
7.596                0.990285349     -14.7984737
7.598                0.990308209       -14.82154
7.6                  0.990331464     -14.8446055
7.602                0.990363348     -14.8690582
7.604                 0.99039567     -14.8935097
7.606                 0.99042843     -14.9179601
7.608                0.990461627     -14.9424095
7.61                 0.990489645     -14.9682133
7.612                0.990517873      -14.994017
7.614                 0.99054631     -15.0198205
7.616                0.990574956      -15.045624
7.618                0.990590106     -15.0723124
7.62                 0.990605167     -15.0990005
7.622                 0.99062014     -15.1256884
7.624                0.990635025     -15.1523759
7.626                0.990635571     -15.1793798
7.628                 0.99063593     -15.2063826
7.63                 0.990636103     -15.2333844
7.632                0.990636089     -15.2603851
7.634                0.990625654     -15.2873411
7.636                0.990615133     -15.3142972
7.638                0.990604528     -15.3412532
7.64                 0.990593836     -15.3682093
7.642                0.990576831     -15.3950474
7.644                0.990559865     -15.4218865
7.646                0.990542937     -15.4487268
7.648                0.990526047      -15.475568
7.65                 0.990503992     -15.5023562
7.652                0.990482049     -15.5291437
7.654                0.990460218     -15.5559304
7.656                0.990438498     -15.5827163
7.658                0.990410131     -15.6094276
7.66                 0.990381884     -15.6361362
7.662                0.990353757     -15.6628422
7.664                0.990325751     -15.6895455
7.666                0.990290677     -15.7159378
7.668                0.990255577     -15.7423297
7.67                 0.990220449     -15.7687213
7.672                0.990185294     -15.7951126
7.674                0.990147574     -15.8208577
7.676                 0.99010954     -15.8466068
7.678                0.990071192     -15.8723599
7.68                 0.990032532     -15.8981169
7.682                 0.99000079     -15.9230822
7.684                0.989968573     -15.9480527
7.686                0.989935882     -15.9730283
7.688                0.989902716     -15.9980089
7.69                 0.989886588     -16.0224707
7.692                0.989870161     -16.0469355
7.694                0.989853432     -16.0714035
7.696                0.989836402     -16.0958745
7.698                0.989841082     -16.1204979
7.7                  0.989845867     -16.1451224
7.702                0.989850756      -16.169748
7.704                0.989855748     -16.1943748
7.706                0.989878111     -16.2199331
7.708                0.989900941     -16.2454915
7.71                 0.989924238     -16.2710499
7.712                0.989948001     -16.2966084
7.714                0.989976992     -16.3236038
7.716                 0.99000657     -16.3505986
7.718                0.990036735     -16.3775928
7.72                 0.990067485     -16.4045864
7.722                 0.99008938     -16.4329828
7.724                0.990111688     -16.4613786
7.726                0.990134408     -16.4897738
7.728                0.990157542     -16.5181684
7.73                 0.990162453     -16.5474495
7.732                0.990167419     -16.5767311
7.734                0.990172443      -16.606013
7.736                0.990177522     -16.6352954
7.738                0.990163409     -16.6647528
7.74                 0.990149041      -16.694212
7.742                0.990134419     -16.7236731
7.744                0.990119542      -16.753136
7.746                0.990091508     -16.7822277
7.748                0.990063123     -16.8113223
7.75                 0.990034385       -16.84042
7.752                0.990005295     -16.8695206
7.754                0.989971367     -16.8980689
7.756                0.989937195     -16.9266197
7.758                 0.98990278     -16.9551732
7.76                 0.989868121     -16.9837293
7.762                0.989834489     -17.0118695
7.764                0.989800822     -17.0400095
7.766                0.989767119     -17.0681493
7.768                0.989733381      -17.096289
7.77                 0.989702178     -17.1242377
7.772                0.989671124     -17.1521829
7.774                0.989640219     -17.1801245
7.776                0.989609462     -17.2080626
7.778                 0.98958037     -17.2359105
7.78                 0.989551443     -17.2637547
7.782                 0.98952268     -17.2915952
7.784                0.989494082      -17.319432
7.786                0.989467727     -17.3471152
7.788                0.989441322     -17.3747983
7.79                 0.989414867     -17.4024812
7.792                0.989388362     -17.4301639
