! TOUCHSTONE file generated by CST DESIGN STUDIO
! Date and time: Mon Feb 10 16:46:52 2025
! Project name: C:\Work\MatlabApps\UnitCellType2OptimizationMatlab\CST\unitcell.cst
! Tree item: Tasks\Sweep1\SPara1\S-Parameters
! Header version: 2024
! Port assignment regex: !\s*Touchstone port\s*([0-9]+)\s*=\s*(CST MWS port|CST DES external port|CST DES block port)\s*(.+)\s* \(\"(.*)\"\)(\s*mode\s*([0-9]+))?.*
! Touchstone port assignment:
! Touchstone port 1 = CST DES external port 1 ("")
# GHz S MA R 50
7                    0.993735415     -13.7185813
7.002                0.993754018     -13.7384907
7.004                0.993772685     -13.7584004
7.006                0.993791416     -13.7783105
7.008                0.993810211     -13.7982211
7.01                 0.993829493     -13.8190654
7.012                0.993848851     -13.8399105
7.014                0.993868285     -13.8607564
7.016                0.993887794     -13.8816033
7.018                0.993900644     -13.9033427
7.02                 0.993913564     -13.9250832
7.022                0.993926556     -13.9468249
7.024                0.993939618     -13.9685678
7.026                0.993939935     -13.9909461
7.028                0.993940295     -14.0133264
7.03                   0.9939407     -14.0357086
7.032                0.993941151     -14.0580926
7.034                0.993925881     -14.0806869
7.036                0.993910609     -14.1032842
7.038                0.993895335     -14.1258843
7.04                 0.993880059     -14.1484873
7.042                0.993850432     -14.1708417
7.044                0.993820753     -14.1931993
7.046                0.993791024     -14.2155601
7.048                0.993761242      -14.237924
7.05                 0.993722418      -14.259691
7.052                0.993683514     -14.2814606
7.054                0.993644529     -14.3032327
7.056                0.993605464     -14.3250074
7.058                0.993564767       -14.34605
7.06                 0.993523985     -14.3670943
7.062                0.993483117     -14.3881405
7.064                0.993442164     -14.4091885
7.066                0.993406723     -14.4296042
7.068                0.993371208     -14.4500211
7.07                 0.993335618     -14.4704394
7.072                0.993299953      -14.490859
7.074                0.993274689     -14.5109139
7.076                0.993249369     -14.5309696
7.078                0.993223995     -14.5510262
7.08                 0.993198565     -14.5710836
7.082                0.993185387     -14.5911157
7.084                0.993172179     -14.6111485
7.086                0.993158941     -14.6311819
7.088                0.993145674      -14.651216
7.09                 0.993143863     -14.6715328
7.092                0.993142049     -14.6918505
7.094                0.993140229      -14.712169
7.096                0.993138405     -14.7324882
7.098                0.993145466     -14.7533373
7.1                   0.99315255     -14.7741873
7.102                0.993159655      -14.795038
7.104                0.993166782     -14.8158895
7.106                0.993179107     -14.8374441
7.108                0.993191481     -14.8589993
7.11                 0.993203905     -14.8805551
7.112                0.993216377     -14.9021115
7.114                0.993229598     -14.9244586
7.116                0.993242886     -14.9468066
7.118                0.993256241     -14.9691556
7.12                 0.993269664     -14.9915056
7.122                0.993278828     -15.0146375
7.124                0.993288057     -15.0377711
7.126                 0.99329735     -15.0609064
7.128                0.993306706     -15.0840435
7.13                 0.993306954     -15.1078193
7.132                0.993307244     -15.1315974
7.134                0.993307574     -15.1553778
7.136                0.993307946     -15.1791605
7.138                0.993295713     -15.2033107
7.14                 0.993283485     -15.2274635
7.142                0.993271262     -15.2516189
7.144                0.993259045     -15.2757769
7.146                0.993233392      -15.299932
7.148                0.993207704     -15.3240901
7.15                 0.993181979     -15.3482512
7.152                0.993156218     -15.3724152
7.154                0.993119647     -15.3962127
7.156                0.993083004     -15.4200133
7.158                0.993046288     -15.4438168
7.16                   0.9930095     -15.4676233
7.162                 0.99296768     -15.4908061
7.164                 0.99292577     -15.5139912
7.166                0.992883772     -15.5371787
7.168                0.992841684     -15.5603686
7.17                 0.992801781     -15.5829034
7.172                0.992761795     -15.6054397
7.174                0.992721725     -15.6279776
7.176                0.992681574     -15.6505171
7.178                0.992650106      -15.672575
7.18                 0.992618575      -15.694634
7.182                0.992586981     -15.7166942
7.184                0.992555323     -15.7387556
7.186                0.992536116     -15.7606809
7.188                 0.99251687     -15.7826072
7.19                 0.992497584     -15.8045343
7.192                 0.99247826     -15.8264624
7.194                0.992471624     -15.8486328
7.196                0.992464977     -15.8708039
7.198                0.992458319     -15.8929757
7.2                  0.992451649     -15.9151482
7.202                0.992454804     -15.9378789
7.204                0.992457976     -15.9606103
7.206                0.992461165     -15.9833423
7.208                0.992464372     -16.0060751
7.21                 0.992472822     -16.0295559
7.212                0.992481314     -16.0530378
7.214                0.992489847     -16.0765207
7.216                0.992498423     -16.1000047
7.218                 0.99250728     -16.1242838
7.22                 0.992516194     -16.1485645
7.222                0.992525164     -16.1728466
7.224                 0.99253419     -16.1971302
7.226                0.992538978     -16.2221515
7.228                0.992543823     -16.2471749
7.23                 0.992548725     -16.2722003
7.232                0.992553683     -16.2972278
7.234                0.992550793     -16.3228479
7.236                0.992547941     -16.3484707
7.238                0.992545129     -16.3740962
7.24                 0.992542354     -16.3997246
7.242                0.992529271     -16.4257369
7.244                0.992516195     -16.4517524
7.246                0.992503124     -16.4777711
7.248                0.992490059     -16.5037929
7.25                 0.992465755     -16.5299331
7.252                0.992441418     -16.5560762
7.254                 0.99241705     -16.5822224
7.256                 0.99239265     -16.6083717
7.258                0.992358203     -16.6343566
7.26                 0.992323693     -16.6603443
7.262                0.992289119     -16.6863348
7.264                0.992254481     -16.7123279
7.266                0.992213315     -16.7379082
7.268                0.992172063      -16.763491
7.27                 0.992130728     -16.7890763
7.272                0.992089308     -16.8146641
7.274                0.992046905     -16.8397083
7.276                0.992004412     -16.8647546
7.278                0.991961829      -16.889803
7.28                 0.991919157     -16.9148536
7.282                0.991881786     -16.9394074
7.284                0.991844338     -16.9639628
7.286                0.991806813     -16.9885197
7.288                 0.99176921     -17.0130781
7.29                 0.991742026      -17.037376
7.292                0.991714789     -17.0616749
7.294                0.991687499      -17.085975
7.296                0.991660156     -17.1102762
7.298                0.991645585     -17.1346771
7.3                  0.991630989     -17.1590789
7.302                 0.99161637     -17.1834817
7.304                0.991601727     -17.2078855
7.306                0.991598669     -17.2327649
7.308                0.991595617     -17.2576452
7.31                 0.991592571     -17.2825264
7.312                0.991589531     -17.3074086
7.314                0.991593887     -17.3330462
7.316                0.991598277     -17.3586848
7.318                0.991602701     -17.3843244
7.32                 0.991607158     -17.4099649
7.322                0.991613291     -17.4364866
7.324                0.991619477       -17.46301
7.326                0.991625716      -17.489535
7.328                0.991632007     -17.5160616
7.33                 0.991634435     -17.5434141
7.332                0.991636917     -17.5707692
7.334                0.991639453     -17.5981269
7.336                0.991642043     -17.6254871
7.338                0.991636604     -17.6535034
7.34                 0.991631203      -17.681523
7.342                0.991625838      -17.709546
7.344                 0.99162051     -17.7375723
7.346                0.991604946     -17.7660094
7.348                0.991589388     -17.7944503
7.35                 0.991573837     -17.8228949
7.352                0.991558293     -17.8513433
7.354                  0.9915322     -17.8799519
7.356                0.991506076     -17.9085643
7.358                0.991479922     -17.9371804
7.36                 0.991453739     -17.9658001
7.362                0.991418417     -17.9943428
7.364                0.991383032     -18.0228886
7.366                0.991347584     -18.0514375
7.368                0.991312074     -18.0799896
7.37                 0.991270255      -18.108276
7.372                0.991228352     -18.1365648
7.374                0.991186364     -18.1648561
7.376                0.991144292     -18.1931499
7.378                0.991100015     -18.2210554
7.38                 0.991055646     -18.2489629
7.382                0.991011184     -18.2768726
7.384                 0.99096663     -18.3047842
7.386                0.990924789     -18.3322997
7.388                0.990882861     -18.3598171
7.39                 0.990840846     -18.3873363
7.392                0.990798744     -18.4148575
7.394                0.990764116      -18.442111
7.396                0.990729419     -18.4693661
7.398                0.990694652     -18.4966229
7.4                  0.990659815     -18.5238813
7.402                0.990635817     -18.5511322
7.404                0.990611777     -18.5783844
7.406                0.990587694      -18.605638
7.408                0.990563568      -18.632893
7.41                 0.990551064     -18.6604807
7.412                 0.99053855     -18.6880696
7.414                0.990526025     -18.7156598
7.416                0.990513489     -18.7432512
7.418                0.990510235     -18.7715031
7.42                 0.990506999     -18.7997563
7.422                0.990503783     -18.8280108
7.424                0.990500585     -18.8562667
7.426                0.990501814     -18.8854046
7.428                0.990503084     -18.9145442
7.43                 0.990504396     -18.9436855
7.432                0.990505748     -18.9728285
7.434                0.990505498     -19.0029062
7.436                0.990505298     -19.0329864
7.438                0.990505148     -19.0630692
7.44                 0.990505047     -19.0931545
7.442                0.990497918     -19.1240452
7.444                0.990490828     -19.1549396
7.446                0.990483776     -19.1858376
7.448                0.990476762     -19.2167393
7.45                 0.990459219     -19.2482009
7.452                0.990441685     -19.2796669
7.454                 0.99042416     -19.3111374
7.456                0.990406642     -19.3426124
7.458                0.990377719      -19.374345
7.46                 0.990348765      -19.406082
7.462                0.990319782     -19.4378237
7.464                0.990290769     -19.4695699
7.466                0.990251805     -19.5013058
7.468                0.990212775     -19.5330456
7.47                 0.990173679     -19.5647894
7.472                0.990134518     -19.5965371
7.474                0.990088656     -19.6280738
7.476                0.990042703     -19.6596134
7.478                0.989996659      -19.691156
7.48                 0.989950525     -19.7227017
7.482                0.989901854     -19.7539375
7.484                0.989853082     -19.7851755
7.486                0.989804207     -19.8164157
7.488                0.989755229     -19.8476579
7.49                  0.98970812     -19.8785983
7.492                0.989660911     -19.9095403
7.494                0.989613603     -19.9404841
7.496                0.989566195     -19.9714295
7.498                0.989524686     -20.0021733
7.5                  0.989483093     -20.0329189
7.502                0.989441415     -20.0636661
7.504                0.989399652     -20.0944151
7.506                0.989366838     -20.1251675
7.508                0.989333965     -20.1559216
7.51                 0.989301031     -20.1866776
7.512                0.989268035     -20.2174354
7.514                0.989245386      -20.248463
7.516                0.989222706     -20.2794923
7.518                0.989199995     -20.3105235
7.52                 0.989177253     -20.3415565
7.522                0.989163972     -20.3731561
7.524                 0.98915069     -20.4047576
7.526                0.989137408      -20.436361
7.528                0.989124126     -20.4679663
7.53                 0.989117036     -20.5003897
7.532                0.989109971     -20.5328153
7.534                0.989102931     -20.5652432
7.536                0.989095916     -20.5976733
7.538                0.989090013     -20.6310576
7.54                 0.989084148     -20.6644446
7.542                0.989078321     -20.6978344
7.544                0.989072531      -20.731227
7.546                0.989062184     -20.7655599
7.548                0.989051869     -20.7998966
7.55                 0.989041588     -20.8342369
7.552                 0.98903134     -20.8685809
7.554                 0.98901178     -20.9036815
7.556                 0.98899223     -20.9387868
7.558                 0.98897269     -20.9738967
7.56                  0.98895316     -21.0090114
7.562                0.988921762     -21.0445927
7.564                0.988890336     -21.0801793
7.566                0.988858884     -21.1157711
7.568                0.988827404     -21.1513683
7.57                 0.988784327     -21.1871126
7.572                0.988741182     -21.2228619
7.574                0.988697969     -21.2586163
7.576                0.988654688     -21.2943758
7.578                0.988602638     -21.3300168
7.58                 0.988550487     -21.3656618
7.582                0.988498235     -21.4013108
7.584                0.988445882     -21.4369638
7.586                0.988389311     -21.4723464
7.588                0.988332622     -21.5077317
7.59                 0.988275813     -21.5431198
7.592                0.988218885     -21.5785107
7.594                0.988162808     -21.6136143
7.596                0.988106611     -21.6487197
7.598                0.988050291     -21.6838269
7.6                  0.987993851     -21.7189359
7.602                0.987942779     -21.7538708
7.604                0.987891598     -21.7888071
7.606                0.987840307     -21.8237448
7.608                0.987788909     -21.8586839
7.61                 0.987746017     -21.8936518
7.612                0.987703041     -21.9286213
7.614                0.987659981     -21.9635924
7.616                0.987616836     -21.9985651
7.618                0.987583556     -22.0338336
7.62                 0.987550223     -22.0691043
7.622                0.987516838     -22.1043771
7.624                  0.9874834      -22.139652
7.626                0.987459198     -22.1754935
7.628                0.987434975     -22.2113375
7.63                 0.987410732     -22.2471842
7.632                0.987386468     -22.2830336
7.634                0.987368899     -22.3196891
7.636                0.987351337     -22.3563477
7.638                0.987333782     -22.3930094
7.64                 0.987316233     -22.4296741
7.642                0.987301216      -22.467305
7.644                0.987286221     -22.5049393
7.646                0.987271248     -22.5425773
7.648                0.987256297     -22.5802188
7.65                 0.987238868     -22.6188648
7.652                0.987221459     -22.6575149
7.654                0.987204071     -22.6961693
7.656                0.987186704     -22.7348278
7.658                0.987161994     -22.7743998
7.66                 0.987137284     -22.8139767
7.662                0.987112577     -22.8535585
7.664                0.987087871     -22.8931452
7.666                 0.98705226     -22.9334242
7.668                0.987016617     -22.9737087
7.67                 0.986980943     -23.0139987
7.672                0.986945236     -23.0542942
7.674                0.986897283     -23.0949813
7.676                0.986849257      -23.135674
7.678                0.986801158     -23.1763723
7.68                 0.986752987     -23.2170764
7.682                0.986693915      -23.257864
7.684                0.986634732     -23.2986568
7.686                0.986575438     -23.3394546
7.688                0.986516032     -23.3802576
7.69                 0.986449495     -23.4209097
7.692                0.986382818     -23.4615657
7.694                   0.986316     -23.5022256
7.696                0.986249043     -23.5428893
7.698                0.986180267     -23.5833054
7.7                  0.986111339     -23.6237238
7.702                0.986042259     -23.6641447
7.704                0.985973028     -23.7045681
7.706                0.985907466     -23.7447925
7.708                0.985841758     -23.7850184
7.71                 0.985775905     -23.8252458
7.712                0.985709906     -23.8654747
7.714                0.985651983     -23.9057048
7.716                0.985593937     -23.9459361
7.718                0.985535766     -23.9861688
7.72                 0.985477472     -24.0264028
7.722                0.985429604     -24.0669205
7.724                0.985381646       -24.10744
7.726                0.985333597     -24.1479612
7.728                0.985285459     -24.1884842
7.73                 0.985247539     -24.2296141
7.732                 0.98520957     -24.2707468
7.734                 0.98517155     -24.3118822
7.736                0.985133478     -24.3530203
7.738                0.985103161     -24.3950353
7.74                 0.985072827      -24.437054
7.742                0.985042476     -24.4790766
7.744                 0.98501211     -24.5211029
7.746                0.984985282     -24.5641888
7.748                0.984958458     -24.6072794
7.75                 0.984931639     -24.6503747
7.752                0.984904824     -24.6934747
7.754                0.984876569     -24.7376964
7.756                 0.98484832     -24.7819234
7.758                0.984820076     -24.8261558
7.76                 0.984791838     -24.8703935
7.762                0.984757323     -24.9156925
7.764                0.984722794     -24.9609974
7.766                0.984688252      -25.006308
7.768                0.984653697     -25.0516244
7.77                 0.984609066     -25.0978196
7.772                0.984564387     -25.1440208
7.774                 0.98451966     -25.1902279
7.776                0.984474884     -25.2364411
7.778                0.984418088     -25.2832743
7.78                 0.984361202     -25.3301134
7.782                0.984304224     -25.3769584
7.784                0.984247154     -25.4238092
7.786                0.984178269     -25.4709911
7.788                0.984109252     -25.5181783
7.79                   0.9840401     -25.5653711
7.792                0.983970815     -25.6125693
