! TOUCHSTONE file generated by CST DESIGN STUDIO
! Date and time: Mon Feb 10 16:47:01 2025
! Project name: C:\Work\MatlabApps\UnitCellType2OptimizationMatlab\CST\unitcell.cst
! Tree item: Tasks\Sweep1\SPara1\S-Parameters
! Header version: 2024
! Port assignment regex: !\s*Touchstone port\s*([0-9]+)\s*=\s*(CST MWS port|CST DES external port|CST DES block port)\s*(.+)\s* \(\"(.*)\"\)(\s*mode\s*([0-9]+))?.*
! Touchstone port assignment:
! Touchstone port 1 = CST DES external port 1 ("")
# GHz S MA R 50
7                    0.991231563     -9.43209952
7.002                 0.99125011     -9.45325169
7.004                0.991268901     -9.47439588
7.006                0.991287935     -9.49553212
7.008                0.991307212     -9.51666047
7.01                 0.991318288     -9.53810252
7.012                0.991329237     -9.55953655
7.014                 0.99134006     -9.58096268
7.016                0.991350757     -9.60238108
7.018                0.991348105     -9.62418228
7.02                 0.991345448      -9.6459678
7.022                0.991342784     -9.66773775
7.024                0.991340114     -9.68949226
7.026                0.991316327     -9.71124225
7.028                0.991292626     -9.73298378
7.03                 0.991269011     -9.75471688
7.032                0.991245484     -9.77644158
7.034                0.991200172     -9.79731053
7.036                0.991154593     -9.81818049
7.038                0.991108749     -9.83905151
7.04                 0.991062642     -9.85992357
7.042                0.991006277     -9.87910458
7.044                0.990949512     -9.89828273
7.046                 0.99089235     -9.91745807
7.048                0.990834792     -9.93663047
7.05                 0.990787121      -9.9538549
7.052                0.990739331     -9.97107469
7.054                0.990691423     -9.98828988
7.056                0.990643396     -10.0055006
7.058                0.990625213     -10.0213595
7.06                 0.990607019     -10.0372197
7.062                0.990588808     -10.0530813
7.064                0.990570581     -10.0689444
7.066                0.990591821     -10.0847448
7.068                0.990612975     -10.1005452
7.07                 0.990634041     -10.1163457
7.072                0.990655019     -10.1321462
7.074                0.990708355     -10.1492711
7.076                0.990761758     -10.1663883
7.078                0.990815228     -10.1834977
7.08                 0.990868767     -10.2005997
7.082                0.990934165       -10.21981
7.084                0.990999729     -10.2390125
7.086                 0.99106546     -10.2582072
7.088                0.991131355     -10.2773944
7.09                 0.991187129     -10.2985365
7.092                0.991242797     -10.3196715
7.094                0.991298359     -10.3407995
7.096                0.991353816     -10.3619206
7.098                0.991386098     -10.3841782
7.1                  0.991418182       -10.40642
7.102                0.991450071     -10.4286458
7.104                0.991481769     -10.4508559
7.106                0.991488903     -10.4732691
7.108                0.991496176     -10.4956637
7.11                  0.99150359     -10.5180397
7.112                0.991511146     -10.5403973
7.114                 0.99150117     -10.5623507
7.116                0.991491454     -10.5842971
7.118                0.991481995     -10.6062365
7.12                 0.991472792      -10.628169
7.122                0.991454912     -10.6495688
7.124                0.991437005     -10.6709682
7.126                0.991419071     -10.6923672
7.128                0.991401109     -10.7137658
7.13                 0.991378931     -10.7347836
7.132                0.991356616     -10.7557948
7.134                0.991334164     -10.7767995
7.136                0.991311576     -10.7977978
7.138                0.991283693     -10.8184838
7.14                 0.991255813     -10.8391619
7.142                0.991227939     -10.8598322
7.144                0.991200067     -10.8804946
7.146                0.991165877     -10.9005955
7.148                0.991131568     -10.9206969
7.15                  0.99109714      -10.940799
7.152                0.991062593     -10.9609017
7.154                0.991026867      -10.980041
7.156                0.990990768      -10.999183
7.158                0.990954295     -11.0183276
7.16                  0.99091745     -11.0374748
7.162                0.990891128     -11.0554974
7.164                0.990864548     -11.0735176
7.166                 0.99083771     -11.0915355
7.168                0.990810616      -11.109551
7.17                 0.990806697     -11.1268443
7.172                0.990802813      -11.144136
7.174                0.990798959      -11.161426
7.176                0.990795138     -11.1787145
7.178                0.990820924     -11.1961963
7.18                 0.990846819     -11.2136795
7.182                 0.99087282      -11.231164
7.184                0.990898928       -11.24865
7.186                0.990949098     -11.2674081
7.188                0.990999381      -11.286164
7.19                 0.991049775     -11.3049176
7.192                0.991100281     -11.3236691
7.194                0.991157891       -11.34436
7.196                0.991215691     -11.3650443
7.198                0.991273678      -11.385722
7.2                  0.991331853     -11.4063933
7.202                 0.99137671     -11.4288938
7.204                0.991421667     -11.4513884
7.206                0.991466725     -11.4738772
7.208                0.991511883     -11.4963602
7.21                 0.991530168     -11.5198649
7.212                0.991548351     -11.5433632
7.214                0.991566437      -11.566855
7.216                0.991584425     -11.5903403
7.218                0.991573984     -11.6137946
7.22                 0.991563478     -11.6372404
7.222                 0.99155291     -11.6606776
7.224                0.991542281     -11.6841064
7.226                0.991511897     -11.7067157
7.228                 0.99148158     -11.7293214
7.23                 0.991451329     -11.7519234
7.232                0.991421144     -11.7745219
7.234                0.991384275     -11.7960421
7.236                 0.99134737     -11.8175649
7.238                 0.99131043     -11.8390901
7.24                 0.991273455     -11.8606178
7.242                0.991240165     -11.8812943
7.244                0.991206711     -11.9019701
7.246                0.991173095     -11.9226452
7.248                0.991139316     -11.9433196
7.25                 0.991112824     -11.9635385
7.252                0.991086281     -11.9837517
7.254                0.991059687     -12.0039591
7.256                0.991033042     -12.0241608
7.258                0.991012336     -12.0441386
7.26                 0.990991638     -12.0641143
7.262                0.990970946     -12.0840881
7.264                 0.99095026     -12.1040598
7.266                0.990934906     -12.1237751
7.268                0.990919362     -12.1434934
7.27                 0.990903631     -12.1632147
7.272                0.990887711     -12.1829389
7.274                0.990880776     -12.2023345
7.276                0.990873575     -12.2217303
7.278                0.990866108     -12.2411263
7.28                 0.990858375     -12.2605225
7.282                0.990865656     -12.2797704
7.284                0.990872897     -12.2990154
7.286                0.990880096     -12.3182576
7.288                0.990887256     -12.3374969
7.29                 0.990912754     -12.3571232
7.292                0.990938412     -12.3767489
7.294                0.990964229     -12.3963741
7.296                0.990990204      -12.415999
7.298                0.991030545     -12.4367113
7.3                  0.991071064     -12.4574234
7.302                0.991111759     -12.4781354
7.304                0.991152631     -12.4988472
7.306                 0.99119549      -12.521128
7.308                0.991238541     -12.5434048
7.31                 0.991281784     -12.5656777
7.312                0.991325217     -12.5879467
7.314                0.991354374     -12.6116956
7.316                0.991383715     -12.6354398
7.318                 0.99141324     -12.6591791
7.32                 0.991442948     -12.6829136
7.322                0.991446525     -12.7074315
7.324                0.991450114     -12.7319476
7.326                0.991453719     -12.7564618
7.328                0.991457339      -12.780974
7.33                 0.991433544     -12.8052683
7.332                0.991409591     -12.8295623
7.334                0.991385482      -12.853856
7.336                0.991361218     -12.8781496
7.338                0.991318845     -12.9014136
7.34                 0.991276305     -12.9246788
7.342                0.991233596     -12.9479452
7.344                0.991190721     -12.9712126
7.346                0.991144553     -12.9931544
7.348                0.991098242     -13.0150993
7.35                 0.991051788     -13.0370474
7.352                0.991005192     -13.0589988
7.354                0.990968425     -13.0799057
7.356                0.990931521     -13.1008145
7.358                0.990894481     -13.1217252
7.36                 0.990857305      -13.142638
7.362                0.990835977     -13.1631112
7.364                0.990814621     -13.1835819
7.366                0.990793236     -13.2040501
7.368                0.990771821     -13.2245159
7.37                 0.990764395     -13.2450943
7.372                0.990757073     -13.2656696
7.374                0.990749855     -13.2862418
7.376                0.990742741      -13.306811
7.378                0.990744558     -13.3277332
7.38                 0.990746397     -13.3486564
7.382                0.990748258     -13.3695805
7.384                0.990750141     -13.3905057
7.386                 0.99075792     -13.4117713
7.388                0.990765544     -13.4330384
7.39                 0.990773015      -13.454307
7.392                0.990780331     -13.4755771
7.394                0.990793857     -13.4971651
7.396                0.990807272     -13.5187513
7.398                0.990820577     -13.5403358
7.4                  0.990833772     -13.5619186
7.402                0.990854146     -13.5839825
7.404                0.990874608     -13.6060443
7.406                0.990895158      -13.628104
7.408                0.990915795     -13.6501615
7.41                 0.990941446      -13.673028
7.412                0.990967289      -13.695894
7.414                0.990993323     -13.7187596
7.416                0.991019548     -13.7416248
7.418                0.991043399     -13.7655703
7.42                 0.991067445     -13.7895144
7.422                0.991091685     -13.8134571
7.424                0.991116118     -13.8373985
7.426                0.991127354     -13.8623545
7.428                0.991138775     -13.8873075
7.43                 0.991150379     -13.9122574
7.432                0.991162167     -13.9372043
7.434                0.991152041     -13.9626418
7.436                0.991141983     -13.9880787
7.438                0.991131994     -14.0135149
7.44                 0.991122076     -14.0389506
7.442                0.991089507     -14.0640581
7.444                 0.99105677      -14.089169
7.446                0.991023868     -14.1142831
7.448                0.990990799     -14.1394005
7.45                 0.990943766     -14.1634771
7.452                0.990896415     -14.1875582
7.454                0.990848747     -14.2116438
7.456                0.990800762     -14.2357338
7.458                0.990753227     -14.2585157
7.46                 0.990705415     -14.2813015
7.462                0.990657327     -14.3040913
7.464                0.990608961     -14.3268851
7.466                0.990574372     -14.3486782
7.468                0.990539649     -14.3704737
7.47                 0.990504789     -14.3922718
7.472                0.990469794     -14.4140725
7.474                0.990455106     -14.4355645
7.476                0.990440464      -14.457056
7.478                0.990425864     -14.4785472
7.48                 0.990411307     -14.5000381
7.482                0.990414637     -14.5219365
7.484                0.990418174     -14.5438327
7.486                0.990421916     -14.5657267
7.488                0.990425865     -14.5876186
7.49                 0.990439668     -14.6103279
7.492                 0.99045367     -14.6330369
7.494                 0.99046787     -14.6557455
7.496                0.990482268     -14.6784538
7.498                0.990498613     -14.7019935
7.5                  0.990514965     -14.7255345
7.502                0.990531322      -14.749077
7.504                0.990547686     -14.7726209
7.506                 0.99056198     -14.7968047
7.508                0.990576159     -14.8209883
7.51                 0.990590224     -14.8451717
7.512                0.990604174     -14.8693549
7.514                0.990615512     -14.8940206
7.516                0.990626824     -14.9186845
7.518                 0.99063811     -14.9433467
7.52                  0.99064937     -14.9680072
7.522                  0.9906579     -14.9931506
7.524                0.990666541     -15.0182936
7.526                0.990675291      -15.043436
7.528                0.990684151     -15.0685779
7.53                 0.990687809     -15.0942846
7.532                0.990691621     -15.1199913
7.534                0.990695588     -15.1456982
7.536                0.990699707     -15.1714052
7.538                0.990693452     -15.1976378
7.54                 0.990687343     -15.2238689
7.542                0.990681378     -15.2500987
7.544                0.990675559      -15.276327
7.546                0.990654351      -15.302771
7.548                0.990633218     -15.3292139
7.55                 0.990612162     -15.3556558
7.552                0.990591182     -15.3820967
7.554                0.990554587     -15.4081976
7.556                0.990517868     -15.4343011
7.558                0.990481027     -15.4604072
7.56                 0.990444062      -15.486516
7.562                0.990398457     -15.5117504
7.564                 0.99035251     -15.5369901
7.566                0.990306221     -15.5622349
7.568                0.990259589     -15.5874848
7.57                  0.99021647     -15.6116598
7.572                0.990172986     -15.6358392
7.574                0.990129135     -15.6600229
7.576                0.990084917      -15.684211
7.578                0.990055946     -15.7076149
7.58                 0.990026806     -15.7310211
7.582                0.989997497     -15.7544295
7.584                0.989968017     -15.7778402
7.586                0.989959529     -15.8011444
7.588                0.989951143      -15.824449
7.59                 0.989942856      -15.847754
7.592                0.989934669     -15.8710594
7.594                0.989944518     -15.8950021
7.596                 0.98995467     -15.9189437
7.598                0.989965127     -15.9428843
7.6                  0.989975887      -15.966824
7.602                0.989995185     -15.9918677
7.604                 0.99001482     -16.0169106
7.606                0.990034794     -16.0419527
7.608                0.990055105     -16.0669939
7.61                 0.990073308     -16.0931597
7.612                0.990091681     -16.1193259
7.614                0.990110225     -16.1454926
7.616                0.990128939     -16.1716599
7.618                 0.99013882     -16.1986376
7.62                  0.99014865     -16.2256163
7.622                0.990158429     -16.2525957
7.624                0.990168158      -16.279576
7.626                0.990167724     -16.3069694
7.628                0.990167164     -16.3343629
7.63                 0.990166477     -16.3617567
7.632                0.990165664     -16.3891507
7.634                0.990156695     -16.4167032
7.636                0.990147671     -16.4442563
7.638                0.990138591     -16.4718099
7.64                 0.990129457     -16.4993642
7.642                0.990114148      -16.527012
7.644                0.990098871     -16.5546609
7.646                0.990083625     -16.5823107
7.648                0.990068411     -16.6099615
7.65                  0.99004692     -16.6377089
7.652                0.990025508     -16.6654557
7.654                0.990004173     -16.6932018
7.656                0.989982916     -16.7209473
7.658                0.989953829     -16.7486992
7.66                 0.989924817     -16.7764488
7.662                 0.98989588     -16.8041963
7.664                0.989867018     -16.8319415
7.666                0.989830356     -16.8594331
7.668                0.989793656     -16.8869242
7.67                 0.989756916     -16.9144148
7.672                0.989720137     -16.9419048
7.674                0.989680026      -16.968828
7.676                0.989639665      -16.995754
7.678                0.989599055     -17.0226828
7.68                 0.989558197     -17.0496144
7.682                0.989522599     -17.0758525
7.684                 0.98948664     -17.1020943
7.686                0.989450321     -17.1283397
7.688                0.989413641     -17.1545886
7.69                  0.98939118     -17.1803821
7.692                  0.9893685     -17.2061773
7.694                0.989345599     -17.2319743
7.696                0.989322478      -17.257773
7.698                0.989317884     -17.2836905
7.7                  0.989313381      -17.309608
7.702                0.989308968     -17.3355253
7.704                0.989304646     -17.3614426
7.706                0.989315644     -17.3881397
7.708                0.989327008     -17.4148359
7.71                 0.989338736      -17.441531
7.712                 0.98935083     -17.4682253
7.714                0.989368576     -17.4961394
7.716                0.989386775     -17.5240522
7.718                0.989405427     -17.5519638
7.72                 0.989424533     -17.5798742
7.722                0.989437908     -17.6090084
7.724                0.989451604     -17.6381418
7.726                0.989465621     -17.6672744
7.728                 0.98947996     -17.6964062
7.73                 0.989480729     -17.7263819
7.732                 0.98948155     -17.7563581
7.734                0.989482424     -17.7863348
7.736                0.989483352      -17.816312
7.738                0.989469315     -17.8465905
7.74                 0.989455096     -17.8768708
7.742                0.989440694     -17.9071529
7.744                0.989426109     -17.9374368
7.746                0.989400512     -17.9675972
7.748                0.989374655     -17.9977601
7.75                 0.989348538     -18.0279254
7.752                0.989322158     -18.0580932
7.754                0.989290484     -18.0879786
7.756                0.989258622     -18.1178657
7.758                0.989226574     -18.1477545
7.76                 0.989194339     -18.1776449
7.762                0.989160803     -18.2073183
7.764                0.989127228     -18.2369906
7.766                0.989093613     -18.2666618
7.768                 0.98905996      -18.296332
7.77                 0.989026058     -18.3258996
7.772                0.988992249     -18.3554631
7.774                0.988958531     -18.3850223
7.776                0.988924906     -18.4145775
7.778                0.988890859     -18.4440479
7.78                 0.988856915     -18.4735139
7.782                0.988823076     -18.5029753
7.784                 0.98878934     -18.5324322
7.786                0.988756643     -18.5617168
7.788                0.988723897     -18.5909997
7.79                 0.988691099     -18.6202808
7.792                0.988658252     -18.6495603
