! TOUCHSTONE file generated by CST DESIGN STUDIO
! Date and time: Mon Feb 10 16:46:56 2025
! Project name: C:\Work\MatlabApps\UnitCellType2OptimizationMatlab\CST\unitcell.cst
! Tree item: Tasks\Sweep1\SPara1\S-Parameters
! Header version: 2024
! Port assignment regex: !\s*Touchstone port\s*([0-9]+)\s*=\s*(CST MWS port|CST DES external port|CST DES block port)\s*(.+)\s* \(\"(.*)\"\)(\s*mode\s*([0-9]+))?.*
! Touchstone port assignment:
! Touchstone port 1 = CST DES external port 1 ("")
# GHz S MA R 50
7                    0.993004146     -12.2928954
7.002                0.993025183     -12.3123367
7.004                0.993046311     -12.3317775
7.006                0.993067532      -12.351218
7.008                0.993088844     -12.3706581
7.01                 0.993104863     -12.3909019
7.012                0.993120923     -12.4111458
7.014                0.993137025     -12.4313901
7.016                0.993153166     -12.4516346
7.018                0.993157521     -12.4725475
7.02                 0.993161923     -12.4934596
7.022                0.993166373      -12.514371
7.024                0.993170869     -12.5352815
7.026                0.993158469     -12.5564765
7.028                0.993146101     -12.5776724
7.03                 0.993133766      -12.598869
7.032                0.993121465     -12.6200665
7.034                0.993091852     -12.6409855
7.036                 0.99306217     -12.6619079
7.038                 0.99303242     -12.6828337
7.04                 0.993002602     -12.7037629
7.042                0.992961212     -12.7238961
7.044                0.992919688     -12.7440321
7.046                0.992878032     -12.7641708
7.048                0.992836243     -12.7843121
7.05                  0.99279305     -12.8034142
7.052                0.992749761     -12.8225174
7.054                0.992706376     -12.8416217
7.056                0.992662894     -12.8607271
7.058                0.992628736     -12.8789361
7.06                 0.992594527     -12.8971462
7.062                0.992560265     -12.9153576
7.064                 0.99252595     -12.9335701
7.066                 0.99250807     -12.9513583
7.068                0.992490161     -12.9691475
7.07                 0.992472219     -12.9869379
7.072                0.992454245     -13.0047293
7.074                0.992453618      -13.022684
7.076                0.992453008     -13.0406387
7.078                0.992452412     -13.0585933
7.08                 0.992451832      -13.076548
7.082                0.992463928     -13.0951293
7.084                 0.99247607     -13.1137107
7.086                0.992488257     -13.1322924
7.088                0.992500489     -13.1508744
7.09                 0.992518447     -13.1702737
7.092                0.992536411      -13.189674
7.094                0.992554382     -13.2090753
7.096                 0.99257236     -13.2284776
7.098                0.992590032     -13.2486637
7.1                  0.992607698     -13.2688494
7.102                0.992625359     -13.2890345
7.104                0.992643014     -13.3092192
7.106                0.992656485     -13.3300544
7.108                0.992670015     -13.3508877
7.11                 0.992683604     -13.3717192
7.112                0.992697251     -13.3925489
7.114                 0.99270454      -13.413892
7.116                0.992711917     -13.4352349
7.118                0.992719384     -13.4565777
7.12                  0.99272694     -13.4779204
7.122                0.992726362     -13.4996639
7.124                 0.99272582      -13.521409
7.126                0.992725313     -13.5431558
7.128                0.992724842     -13.5649044
7.13                 0.992714205     -13.5869008
7.132                 0.99270356     -13.6088983
7.134                0.992692904     -13.6308969
7.136                0.992682239     -13.6528965
7.138                0.992659859     -13.6748949
7.14                  0.99263746     -13.6968939
7.142                0.992615041     -13.7188935
7.144                0.992592602     -13.7408936
7.146                0.992559399     -13.7625411
7.148                0.992526128     -13.7841906
7.15                 0.992492789     -13.8058423
7.152                0.992459383     -13.8274961
7.154                0.992420128     -13.8484732
7.156                0.992380745      -13.869453
7.158                0.992341234     -13.8904355
7.16                 0.992301594     -13.9114206
7.162                0.992264316     -13.9315925
7.164                0.992226933     -13.9517655
7.166                0.992189445     -13.9719398
7.168                0.992151853     -13.9921152
7.17                 0.992125103     -14.0116656
7.172                0.992098328     -14.0312165
7.174                0.992071525     -14.0507679
7.176                0.992044694     -14.0703199
7.178                0.992034094     -14.0896949
7.18                 0.992023513      -14.109071
7.182                0.992012947     -14.1284482
7.184                0.992002399     -14.1478266
7.186                0.992007858     -14.1675944
7.188                0.992013353      -14.187363
7.19                 0.992018882     -14.2071324
7.192                0.992024447     -14.2269027
7.194                 0.99204037     -14.2474963
7.196                0.992056351       -14.26809
7.198                 0.99207239     -14.2886837
7.2                  0.992088486     -14.3092774
7.202                0.992106583     -14.3308499
7.204                0.992124732     -14.3524226
7.206                0.992142933     -14.3739957
7.208                0.992161187      -14.395569
7.21                 0.992174107     -14.4179932
7.212                0.992187049     -14.4404182
7.214                0.992200013     -14.4628438
7.216                   0.992213     -14.4852701
7.218                0.992216562     -14.5082546
7.22                 0.992220148     -14.5312394
7.222                 0.99222376     -14.5542247
7.224                0.992227396     -14.5772104
7.226                0.992220786     -14.6004601
7.228                0.992214214     -14.6237109
7.23                  0.99220768     -14.6469628
7.232                0.992201183     -14.6702159
7.234                0.992185637     -14.6935163
7.236                0.992170092     -14.7168192
7.238                 0.99215455     -14.7401244
7.24                  0.99213901      -14.763432
7.242                 0.99211603     -14.7866547
7.244                0.992093003     -14.8098793
7.246                0.992069927     -14.8331058
7.248                0.992046804     -14.8563343
7.25                 0.992017599      -14.879363
7.252                0.991988339      -14.902392
7.254                0.991959026     -14.9254214
7.256                0.991929658     -14.9484511
7.258                0.991896079     -14.9711453
7.26                 0.991862447       -14.99384
7.262                0.991828763     -15.0165351
7.264                0.991795026     -15.0392306
7.266                0.991760653     -15.0614557
7.268                0.991726197     -15.0836825
7.27                 0.991691658     -15.1059109
7.272                0.991657035     -15.1281409
7.274                0.991627286     -15.1498769
7.276                 0.99159745     -15.1716143
7.278                0.991567528     -15.1933531
7.28                 0.991537519     -15.2150933
7.282                0.991518131     -15.2365204
7.284                0.991498718      -15.257948
7.286                0.991479279     -15.2793761
7.288                0.991459814     -15.3008047
7.29                 0.991454269     -15.3223066
7.292                0.991448759     -15.3438091
7.294                0.991443284     -15.3653122
7.296                0.991437843      -15.386816
7.298                0.991445196     -15.4088596
7.3                  0.991452605      -15.430904
7.302                 0.99146007     -15.4529492
7.304                0.991467592     -15.4749953
7.306                0.991482135     -15.4979409
7.308                0.991496747     -15.5208867
7.31                 0.991511427     -15.5438326
7.312                0.991526174     -15.5667787
7.314                0.991539665      -15.590722
7.316                 0.99155323     -15.6146652
7.318                0.991566869     -15.6386085
7.32                 0.991580581     -15.6625517
7.322                 0.99158569     -15.6873081
7.324                0.991590841     -15.7120658
7.326                0.991596037     -15.7368246
7.328                0.991601277     -15.7615846
7.33                 0.991594196     -15.7867808
7.332                0.991587112     -15.8119793
7.334                0.991580026     -15.8371801
7.336                0.991572936     -15.8623831
7.338                0.991553991     -15.8876443
7.34                 0.991535015     -15.9129081
7.342                 0.99151601     -15.9381745
7.344                0.991496973     -15.9634434
7.346                0.991469478     -15.9885052
7.348                0.991441932     -16.0135696
7.35                 0.991414337     -16.0386367
7.352                0.991386692     -16.0637063
7.354                0.991354746     -16.0884727
7.356                0.991322731     -16.1132408
7.358                0.991290649     -16.1380106
7.36                 0.991258498     -16.1627821
7.362                0.991225438     -16.1872619
7.364                0.991192322     -16.2117416
7.366                0.991159149     -16.2362213
7.368                 0.99112592     -16.2607009
7.37                 0.991094007     -16.2849357
7.372                0.991062068     -16.3091697
7.374                0.991030101      -16.333403
7.376                0.990998108     -16.3576354
7.378                0.990969489     -16.3816544
7.38                  0.99094084     -16.4056737
7.382                0.990912163     -16.4296933
7.384                0.990883456     -16.4537133
7.386                0.990860805      -16.477582
7.388                0.990838104     -16.5014519
7.39                 0.990815354      -16.525323
7.392                0.990792553     -16.5491954
7.394                0.990778619     -16.5730738
7.396                0.990764657     -16.5969531
7.398                0.990750667      -16.620833
7.4                  0.990736647     -16.6447137
7.402                 0.99073285     -16.6688788
7.404                 0.99072908     -16.6930442
7.406                0.990725337     -16.7172098
7.408                0.990721621     -16.7413758
7.41                 0.990726434     -16.7661587
7.412                0.990731311      -16.790942
7.414                0.990736251     -16.8157258
7.416                0.990741255     -16.8405101
7.418                0.990749636     -16.8661627
7.42                  0.99075809     -16.8918155
7.422                0.990766617     -16.9174686
7.424                0.990775217     -16.9431221
7.426                0.990780081     -16.9696866
7.428                0.990785017     -16.9962511
7.43                 0.990790026     -17.0228158
7.432                0.990795107     -17.0493805
7.434                0.990790104     -17.0766475
7.436                0.990785141     -17.1039157
7.438                 0.99078022      -17.131185
7.44                 0.990775341     -17.1584556
7.442                0.990757481     -17.1860389
7.444                0.990739593     -17.2136251
7.446                0.990721679     -17.2412141
7.448                0.990703737     -17.2688059
7.45                 0.990674234      -17.296316
7.452                0.990644643     -17.3238294
7.454                0.990614966     -17.3513461
7.456                0.990585201     -17.3788661
7.458                0.990548604     -17.4060395
7.46                 0.990511907     -17.4332154
7.462                0.990475107     -17.4603937
7.464                0.990438206     -17.4875745
7.466                 0.99040007     -17.5143562
7.468                0.990361853     -17.5411387
7.47                 0.990323557     -17.5679223
7.472                0.990285181     -17.5947068
7.474                0.990250019     -17.6212014
7.476                0.990214819     -17.6476953
7.478                0.990179581     -17.6741886
7.48                 0.990144306     -17.7006813
7.482                0.990114454     -17.7270662
7.484                 0.99008461     -17.7534496
7.486                0.990054772     -17.7798315
7.488                 0.99002494     -17.8062119
7.49                 0.990001104     -17.8326492
7.492                0.989977288     -17.8590857
7.494                 0.98995349     -17.8855214
7.496                0.989929713     -17.9119563
7.498                0.989912025     -17.9385628
7.5                   0.98989433     -17.9651698
7.502                0.989876629     -17.9917774
7.504                 0.98985892     -18.0183854
7.506                0.989847489     -18.0452871
7.508                0.989836038     -18.0721897
7.51                 0.989824566     -18.0990931
7.512                0.989813072     -18.1259974
7.514                0.989807562     -18.1533517
7.516                0.989802061     -18.1807065
7.518                0.989796567     -18.2080617
7.52                 0.989791081     -18.2354172
7.522                0.989789672     -18.2634109
7.524                 0.98978831     -18.2914048
7.526                0.989786995     -18.3193991
7.528                0.989785729     -18.3473937
7.53                 0.989784519     -18.3761632
7.532                0.989783371      -18.404933
7.534                0.989782286     -18.4337032
7.536                0.989781262     -18.4624739
7.538                0.989774954     -18.4920084
7.54                 0.989768698     -18.5215433
7.542                0.989762496     -18.5510783
7.544                0.989756347     -18.5806136
7.546                0.989740176     -18.6107179
7.548                0.989724024     -18.6408229
7.55                 0.989707893     -18.6709285
7.552                0.989691782     -18.7010348
7.554                0.989663742     -18.7313613
7.556                0.989635655     -18.7616897
7.558                0.989607522     -18.7920199
7.56                 0.989579342     -18.8223521
7.562                0.989541219     -18.8525444
7.564                 0.98950298     -18.8827393
7.566                0.989464625     -18.9129367
7.568                0.989426153     -18.9431368
7.57                 0.989382882     -18.9729685
7.572                0.989339476     -19.0028019
7.574                0.989295936     -19.0326369
7.576                0.989252262     -19.0624737
7.578                0.989209847     -19.0919266
7.58                 0.989167343     -19.1213795
7.582                 0.98912475     -19.1508323
7.584                0.989082068      -19.180285
7.586                0.989045321     -19.2095313
7.588                0.989008556     -19.2387761
7.59                 0.988971774     -19.2680193
7.592                0.988934976     -19.2972609
7.594                0.988905995     -19.3265619
7.596                0.988877054     -19.3558606
7.598                0.988848154     -19.3851571
7.6                  0.988819295     -19.4144513
7.602                0.988797617     -19.4440465
7.604                0.988775998     -19.4736399
7.606                0.988754438     -19.5032314
7.608                0.988732937     -19.5328211
7.61                 0.988716732     -19.5628593
7.612                0.988700562      -19.592897
7.614                0.988684426     -19.6229339
7.616                0.988668323     -19.6529703
7.618                0.988655665     -19.6835337
7.62                 0.988643004     -19.7140974
7.622                 0.98863034     -19.7446617
7.624                0.988617673     -19.7752263
7.626                0.988606894     -19.8063645
7.628                0.988596104     -19.8375033
7.63                 0.988585302     -19.8686429
7.632                 0.98857449     -19.8997831
7.634                0.988563764     -19.9315496
7.636                0.988553047     -19.9633167
7.638                0.988542339     -19.9950844
7.64                  0.98853164     -20.0268528
7.642                0.988518338       -20.05928
7.644                0.988505059     -20.0917075
7.646                0.988491805     -20.1241355
7.648                0.988478575      -20.156564
7.65                 0.988459379     -20.1896022
7.652                0.988440201     -20.2226402
7.654                0.988421041     -20.2556781
7.656                  0.9884019     -20.2887158
7.658                0.988373858     -20.3221992
7.66                 0.988345808      -20.355682
7.662                 0.98831775     -20.3891641
7.664                0.988289686     -20.4226455
7.666                0.988251823     -20.4563017
7.668                0.988213905     -20.4899574
7.67                  0.98817593     -20.5236128
7.672                  0.9881379     -20.5572677
7.674                 0.98809224     -20.5908119
7.676                0.988046465     -20.6243562
7.678                0.988000574     -20.6579009
7.68                 0.987954569     -20.6914457
7.682                0.987905757     -20.7247029
7.684                0.987856806       -20.75796
7.686                0.987807717     -20.7912171
7.688                0.987758488     -20.8244743
7.69                 0.987712146     -20.8574608
7.692                0.987665709      -20.890446
7.694                0.987619176     -20.9234298
7.696                0.987572547     -20.9564122
7.698                0.987533107     -20.9893331
7.7                  0.987493656     -21.0222512
7.702                0.987454195     -21.0551665
7.704                0.987414724     -21.0880791
7.706                0.987383833     -21.1212255
7.708                0.987353006     -21.1543684
7.71                 0.987322241     -21.1875079
7.712                 0.98729154      -21.220644
7.714                0.987267899     -21.2542895
7.716                0.987244349     -21.2879317
7.718                0.987220889     -21.3215706
7.72                  0.98719752     -21.3552064
7.722                0.987178097     -21.3895045
7.724                0.987158742     -21.4238003
7.726                0.987139456     -21.4580939
7.728                0.987120239     -21.4923853
7.73                 0.987101758     -21.5273804
7.732                0.987083295     -21.5623747
7.734                0.987064849     -21.5973683
7.736                0.987046421     -21.6323611
7.738                0.987026448     -21.6680149
7.74                 0.987006446     -21.7036692
7.742                0.986986413     -21.7393239
7.744                0.986966351     -21.7749791
7.746                0.986943229     -21.8112388
7.748                0.986920058     -21.8474993
7.75                 0.986896837     -21.8837606
7.752                0.986873566     -21.9200227
7.754                0.986845928     -21.9568391
7.756                0.986818245     -21.9936556
7.758                0.986790517     -22.0304721
7.76                 0.986762743     -22.0672888
7.762                0.986729115     -22.1045955
7.764                0.986695452     -22.1419008
7.766                0.986661754     -22.1792046
7.768                0.986628023     -22.2165069
7.77                 0.986587139     -22.2541739
7.772                0.986546224     -22.2918377
7.774                0.986505279     -22.3294982
7.776                0.986464303     -22.3671555
7.778                0.986416148     -22.4049947
7.78                 0.986367947     -22.4428298
7.782                  0.9863197     -22.4806608
7.784                0.986271406     -22.5184876
7.786                0.986217962     -22.5563045
7.788                0.986164435     -22.5941177
7.79                 0.986110824     -22.6319271
7.792                 0.98605713     -22.6697327
