! TOUCHSTONE file generated by CST DESIGN STUDIO
! Date and time: Mon Feb 10 16:46:59 2025
! Project name: C:\Work\MatlabApps\UnitCellType2OptimizationMatlab\CST\unitcell.cst
! Tree item: Tasks\Sweep1\SPara1\S-Parameters
! Header version: 2024
! Port assignment regex: !\s*Touchstone port\s*([0-9]+)\s*=\s*(CST MWS port|CST DES external port|CST DES block port)\s*(.+)\s* \(\"(.*)\"\)(\s*mode\s*([0-9]+))?.*
! Touchstone port assignment:
! Touchstone port 1 = CST DES external port 1 ("")
# GHz S MA R 50
7                    0.991939472     -10.4981989
7.002                0.991960037     -10.5182992
7.004                0.991980772     -10.5383961
7.006                0.992001677     -10.5584895
7.008                0.992022751     -10.5785795
7.01                 0.992035359      -10.599203
7.012                0.992047915     -10.6198232
7.014                 0.99206042     -10.6404402
7.016                0.992072873      -10.661054
7.018                0.992071203     -10.6821324
7.02                 0.992069551     -10.7032027
7.022                0.992067918      -10.724265
7.024                0.992066303     -10.7453194
7.026                0.992044514     -10.7664134
7.028                0.992022787     -10.7875042
7.03                 0.992001124     -10.8085918
7.032                0.991979523     -10.8296761
7.034                0.991938006     -10.8500589
7.036                0.991896311      -10.870445
7.038                0.991854442     -10.8908345
7.04                 0.991812397     -10.9112272
7.042                0.991760252     -10.9302326
7.044                0.991707825     -10.9492388
7.046                0.991655118     -10.9682459
7.048                0.991602132     -10.9872538
7.05                 0.991555433     -11.0046563
7.052                0.991508624     -11.0220575
7.054                0.991461704     -11.0394577
7.056                0.991414674     -11.0568566
7.058                0.991390065     -11.0730929
7.06                 0.991365433      -11.089331
7.062                0.991340777      -11.105571
7.064                0.991316096      -11.121813
7.066                0.991322142     -11.1378663
7.068                0.991328147     -11.1539209
7.07                 0.991334109     -11.1699766
7.072                0.991340027     -11.1860336
7.074                0.991372565     -11.2029684
7.076                 0.99140517        -11.2199
7.078                0.991437841     -11.2368285
7.08                 0.991470578     -11.2537541
7.082                0.991515727     -11.2722122
7.084                0.991561003     -11.2906676
7.086                0.991606405     -11.3091203
7.088                0.991651934     -11.3275705
7.09                 0.991693861     -11.3475438
7.092                0.991735741     -11.3675151
7.094                0.991777574     -11.3874846
7.096                0.991819361     -11.4074523
7.098                0.991847115     -11.4284479
7.1                  0.991874759     -11.4494361
7.102                0.991902295     -11.4704167
7.104                0.991929724     -11.4913896
7.106                0.991940408     -11.5127814
7.108                0.991951192     -11.5341632
7.11                 0.991962076      -11.555535
7.112                0.991973062     -11.5768969
7.114                0.991970246      -11.598249
7.116                0.991967606     -11.6195981
7.118                 0.99196514     -11.6409442
7.12                 0.991962847     -11.6622873
7.122                0.991951039     -11.6834704
7.124                0.991939223     -11.7046544
7.126                0.991927398     -11.7258393
7.128                0.991915564     -11.7470251
7.13                 0.991896162     -11.7680417
7.132                 0.99187668     -11.7890554
7.134                0.991857119     -11.8100662
7.136                0.991837479     -11.8310744
7.138                0.991809528     -11.8518265
7.14                 0.991781571     -11.8725751
7.142                0.991753609     -11.8933204
7.144                 0.99172564     -11.9140623
7.146                0.991689829     -11.9342532
7.148                0.991653922     -11.9544461
7.15                 0.991617917      -11.974641
7.152                0.991581815      -11.994838
7.154                0.991543519     -12.0141327
7.156                 0.99150496     -12.0334309
7.158                0.991466139     -12.0527325
7.16                 0.991427057     -12.0720375
7.162                0.991396375     -12.0903243
7.164                0.991365511      -12.108611
7.166                0.991334463     -12.1268976
7.168                0.991303234     -12.1451841
7.17                 0.991291293     -12.1628065
7.172                0.991279371     -12.1804288
7.174                0.991267467     -12.1980512
7.176                0.991255581     -12.2156736
7.178                0.991268577     -12.2333855
7.18                 0.991281656     -12.2510994
7.182                0.991294816     -12.2688154
7.184                0.991308057     -12.2865334
7.186                0.991342245     -12.3052196
7.188                0.991376524     -12.3239058
7.19                 0.991410896      -12.342592
7.192                 0.99144536     -12.3612782
7.194                0.991487942     -12.3814968
7.196                0.991530665     -12.4017126
7.198                0.991573529     -12.4219257
7.2                  0.991616531     -12.4421361
7.202                0.991651848     -12.4638594
7.204                 0.99168725     -12.4855805
7.206                0.991722737     -12.5072993
7.208                 0.99175831      -12.529016
7.21                  0.99177505     -12.5516959
7.212                0.991791746     -12.5743735
7.214                0.991808401     -12.5970488
7.216                0.991825014     -12.6197217
7.218                0.991820197     -12.6425982
7.22                 0.991815351     -12.6654711
7.222                0.991810476     -12.6883405
7.224                0.991805573     -12.7112064
7.226                0.991784105     -12.7336732
7.228                0.991762678     -12.7561391
7.23                 0.991741292      -12.778604
7.232                0.991719948      -12.801068
7.234                0.991690414     -12.8228753
7.236                0.991660855     -12.8446851
7.238                0.991631271     -12.8664975
7.24                 0.991601662     -12.8883123
7.242                0.991570937     -12.9095378
7.244                0.991540099      -12.930764
7.246                0.991509149     -12.9519911
7.248                0.991478086     -12.9732189
7.25                 0.991448973     -12.9940387
7.252                0.991419805     -13.0148557
7.254                0.991390582       -13.03567
7.256                0.991361303     -13.0564816
7.258                0.991334387     -13.0769708
7.26                 0.991307453     -13.0974592
7.262                0.991280501     -13.1179469
7.264                0.991253532     -13.1384338
7.266                0.991230421     -13.1585432
7.268                0.991207178     -13.1786553
7.27                 0.991183803     -13.1987703
7.272                0.991160297     -13.2188879
7.274                0.991145226     -13.2386078
7.276                0.991129981     -13.2583291
7.278                0.991114563      -13.278052
7.28                 0.991098972     -13.2977764
7.282                0.991097561     -13.3173183
7.284                0.991096128     -13.3368595
7.286                0.991094671     -13.3564003
7.288                 0.99109319     -13.3759406
7.29                 0.991108729      -13.395797
7.292                0.991124383     -13.4156539
7.294                0.991140151     -13.4355114
7.296                0.991156033     -13.4553694
7.298                0.991185509      -13.476154
7.3                  0.991215121     -13.4969394
7.302                0.991244869     -13.5177256
7.304                0.991274754     -13.5385125
7.306                0.991307984     -13.5606438
7.308                 0.99134136     -13.5827735
7.31                 0.991374883     -13.6049016
7.312                 0.99140855     -13.6270282
7.314                0.991432223     -13.6504572
7.316                0.991456036     -13.6738841
7.318                0.991479989     -13.6973088
7.32                  0.99150408     -13.7207314
7.322                0.991508142      -13.744936
7.324                0.991512229     -13.7691407
7.326                0.991516344     -13.7933456
7.328                0.991520487     -13.8175505
7.33                 0.991502564     -13.8417644
7.332                0.991484545     -13.8659798
7.334                 0.99146643     -13.8901967
7.336                 0.99144822     -13.9144151
7.338                0.991414036     -13.9379928
7.34                 0.991379736     -13.9615726
7.342                0.991345318     -13.9851545
7.344                0.991310783     -14.0087385
7.346                0.991270862     -14.0313957
7.348                0.991230831      -14.054056
7.35                 0.991190692     -14.0767195
7.352                0.991150444     -14.0993862
7.354                0.991114623     -14.1212604
7.356                0.991078691     -14.1431365
7.358                0.991042649     -14.1650146
7.36                 0.991006495     -14.1868946
7.362                0.990979972     -14.2083569
7.364                0.990953412     -14.2298176
7.366                0.990926813     -14.2512768
7.368                0.990900175     -14.2727345
7.37                 0.990883159     -14.2941361
7.372                0.990866201     -14.3155357
7.374                0.990849301     -14.3369332
7.376                0.990832459     -14.3583286
7.378                0.990823163     -14.3798434
7.38                 0.990813882     -14.4013593
7.382                0.990804616     -14.4228763
7.384                0.990795365     -14.4443943
7.386                 0.99079287     -14.4660725
7.388                0.990790279     -14.4877528
7.39                 0.990787593     -14.5094352
7.392                 0.99078481     -14.5311197
7.394                0.990789841     -14.5530356
7.396                0.990794806     -14.5749515
7.398                0.990799707     -14.5968674
7.4                  0.990804541     -14.6187833
7.402                0.990817878      -14.641153
7.404                0.990831286      -14.663522
7.406                0.990844765     -14.6858904
7.408                0.990858314     -14.7082581
7.41                 0.990877866     -14.7314077
7.412                0.990897562     -14.7545575
7.414                0.990917402     -14.7777077
7.416                0.990937386     -14.8008582
7.418                0.990956422     -14.8250349
7.42                 0.990975605     -14.8492113
7.422                0.990994935     -14.8733872
7.424                0.991014411     -14.8975629
7.426                0.991023389     -14.9227105
7.428                0.991032504     -14.9478567
7.43                 0.991041757     -14.9730015
7.432                0.991051147     -14.9981448
7.434                 0.99104239     -15.0238285
7.436                0.991033686     -15.0495126
7.438                0.991025039     -15.0751972
7.44                 0.991016448     -15.1008823
7.442                0.990988505     -15.1264365
7.444                 0.99096045     -15.1519942
7.446                0.990932281     -15.1775554
7.448                0.990903999       -15.20312
7.45                 0.990862673     -15.2279603
7.452                 0.99082112     -15.2528048
7.454                0.990779338     -15.2776536
7.456                0.990737329     -15.3025066
7.458                0.990693306     -15.3263776
7.46                 0.990649075     -15.3502519
7.462                0.990604636     -15.3741295
7.464                0.990559988     -15.3980106
7.466                0.990523879     -15.4210928
7.468                0.990487659     -15.4441766
7.47                 0.990451327     -15.4672622
7.472                0.990414884     -15.4903495
7.474                0.990392783     -15.5131204
7.476                0.990370701     -15.5358906
7.478                0.990348636     -15.5586602
7.48                 0.990326588     -15.5814291
7.482                0.990318238     -15.6044052
7.484                0.990310025     -15.6273794
7.486                0.990301949     -15.6503516
7.488                0.990294009     -15.6733218
7.49                 0.990294987     -15.6968271
7.492                0.990296105     -15.7203321
7.494                0.990297362     -15.7438367
7.496                 0.99029876      -15.767341
7.498                0.990304106     -15.7914452
7.5                  0.990309468      -15.815551
7.502                0.990314845     -15.8396583
7.504                0.990320237     -15.8637672
7.506                 0.99032693      -15.888415
7.508                0.990333558     -15.9130636
7.51                  0.99034012     -15.9377131
7.512                0.990346617     -15.9623632
7.514                0.990353628     -15.9875194
7.516                0.990360633     -16.0126751
7.518                0.990367633     -16.0378303
7.52                 0.990374627     -16.0629851
7.522                0.990380961     -16.0887114
7.524                0.990387382     -16.1144378
7.526                0.990393891     -16.1401642
7.528                0.990400489     -16.1658906
7.53                  0.99040307      -16.192272
7.532                0.990405768     -16.2186537
7.534                0.990408584     -16.2450357
7.536                0.990411517      -16.271418
7.538                0.990405129     -16.2983988
7.54                 0.990398847     -16.3253788
7.542                 0.99039267     -16.3523581
7.544                0.990386599     -16.3793366
7.546                 0.99036652       -16.40662
7.548                0.990346489      -16.433903
7.55                 0.990326508     -16.4611857
7.552                0.990306576      -16.488468
7.554                0.990272213     -16.5155624
7.556                0.990237753     -16.5426592
7.558                0.990203197     -16.5697582
7.56                 0.990168543     -16.5968595
7.562                0.990125037     -16.6233059
7.564                0.990081277     -16.6497563
7.566                0.990037264     -16.6762109
7.568                0.989992996     -16.7026695
7.57                 0.989949751     -16.7282782
7.572                0.989906236     -16.7538901
7.574                0.989862449     -16.7795052
7.576                 0.98981839     -16.8051233
7.578                0.989785098     -16.8300906
7.58                 0.989751678     -16.8550588
7.582                0.989718127     -16.8800281
7.584                0.989684446     -16.9049985
7.586                0.989666804     -16.9298296
7.588                0.989649229     -16.9546599
7.59                 0.989631719     -16.9794895
7.592                0.989614274     -17.0043185
7.594                 0.98961152     -17.0295866
7.596                0.989608979     -17.0548531
7.598                0.989606652     -17.0801179
7.6                  0.989604538      -17.105381
7.602                0.989610694     -17.1314716
7.604                0.989617091     -17.1575609
7.606                0.989623729     -17.1836489
7.608                0.989630609     -17.2097359
7.61                 0.989638166     -17.2367185
7.612                0.989645852     -17.2637014
7.614                0.989653668     -17.2906846
7.616                0.989661612     -17.3176681
7.618                0.989665123     -17.3453773
7.62                 0.989668612     -17.3730875
7.622                 0.98967208     -17.4007988
7.624                0.989675526      -17.428511
7.626                0.989672922     -17.4567121
7.628                0.989670243     -17.4849138
7.63                 0.989667489     -17.5131162
7.632                 0.98966466     -17.5413193
7.634                0.989656182     -17.5698615
7.636                0.989647675     -17.5984044
7.638                0.989639141     -17.6269479
7.64                 0.989630579      -17.655492
7.642                 0.98961649     -17.6843306
7.644                0.989602429     -17.7131697
7.646                0.989588395     -17.7420094
7.648                0.989574388     -17.7708497
7.65                 0.989553577     -17.7999468
7.652                0.989532816     -17.8290431
7.654                0.989512106     -17.8581387
7.656                0.989491446     -17.8872335
7.658                0.989462167     -17.9164472
7.66                 0.989432926     -17.9456589
7.662                0.989403722     -17.9748686
7.664                0.989374555     -18.0040762
7.666                0.989336885     -18.0331284
7.668                0.989299166     -18.0621797
7.67                 0.989261399     -18.0912302
7.672                0.989223582     -18.1202797
7.674                0.989181344     -18.1488763
7.676                0.989138911     -18.1774743
7.678                0.989096284     -18.2060737
7.68                 0.989053462     -18.2346745
7.682                0.989013746     -18.2626978
7.684                0.988973764     -18.2907229
7.686                0.988933518     -18.3187498
7.688                0.988893005     -18.3467786
7.69                 0.988863428     -18.3744143
7.692                0.988833695     -18.4020501
7.694                0.988803804     -18.4296862
7.696                0.988773756     -18.4573225
7.698                0.988758758     -18.4850309
7.7                  0.988743829     -18.5127378
7.702                0.988728968     -18.5404432
7.704                0.988714176     -18.5681471
7.706                0.988712555      -18.596464
7.708                0.988711198     -18.6247786
7.71                 0.988710106     -18.6530909
7.712                0.988709278     -18.6814011
7.714                0.988714551     -18.7107035
7.716                 0.98872015     -18.7400037
7.718                0.988726075     -18.7693016
7.72                 0.988732327     -18.7985974
7.722                0.988736034     -18.8289331
7.724                0.988739974     -18.8592674
7.726                0.988744148     -18.8896002
7.728                0.988748556     -18.9199315
7.73                 0.988744123     -18.9510617
7.732                0.988739736      -18.982192
7.734                0.988735395     -19.0133223
7.736                0.988731101     -19.0444525
7.738                0.988716205     -19.0760077
7.74                  0.98870119     -19.1075641
7.742                0.988686056     -19.1391218
7.744                0.988670802     -19.1706808
7.746                0.988646927     -19.2023625
7.748                0.988622875     -19.2340457
7.75                 0.988598645     -19.2657307
7.752                0.988574236     -19.2974172
7.754                0.988544428     -19.3290964
7.756                0.988514487     -19.3607763
7.758                0.988484411     -19.3924567
7.76                 0.988454202     -19.4241378
7.762                0.988420729     -19.4558183
7.764                0.988387214     -19.4874969
7.766                0.988353659     -19.5191736
7.768                0.988320064     -19.5508483
7.77                 0.988283647       -19.58254
7.772                0.988247271      -19.614227
7.774                0.988210938     -19.6459093
7.776                0.988174647      -19.677587
7.778                0.988135762     -19.7092234
7.78                 0.988096924     -19.7408546
7.782                0.988058132     -19.7724805
7.784                0.988019387     -19.8041012
7.786                0.987980079     -19.8355637
7.788                0.987940714     -19.8670229
7.79                 0.987901294     -19.8984788
7.792                0.987861819     -19.9299315
