! TOUCHSTONE file generated by CST DESIGN STUDIO
! Date and time: Mon Feb 10 16:46:57 2025
! Project name: C:\Work\MatlabApps\UnitCellType2OptimizationMatlab\CST\unitcell.cst
! Tree item: Tasks\Sweep1\SPara1\S-Parameters
! Header version: 2024
! Port assignment regex: !\s*Touchstone port\s*([0-9]+)\s*=\s*(CST MWS port|CST DES external port|CST DES block port)\s*(.+)\s* \(\"(.*)\"\)(\s*mode\s*([0-9]+))?.*
! Touchstone port assignment:
! Touchstone port 1 = CST DES external port 1 ("")
# GHz S MA R 50
7                    0.992522257     -11.4469328
7.002                0.992543548     -11.4665122
7.004                0.992564956     -11.4860901
7.006                0.992586481     -11.5056667
7.008                0.992608123     -11.5252419
7.01                 0.992622402     -11.5455078
7.012                0.992636686     -11.5657725
7.014                0.992650975     -11.5860361
7.016                0.992665268     -11.6062988
7.018                0.992666117      -11.627123
7.02                 0.992667004     -11.6479438
7.022                0.992667928     -11.6687612
7.024                0.992668888     -11.6895754
7.026                0.992651144     -11.7105323
7.028                0.992633441     -11.7314888
7.03                 0.992615781     -11.7524448
7.032                0.992598164     -11.7734005
7.034                0.992562084     -11.7938524
7.036                0.992525888     -11.8143081
7.038                0.992489578     -11.8347674
7.04                 0.992453152     -11.8552305
7.042                0.992406119     -11.8746056
7.044                 0.99235889     -11.8939829
7.046                0.992311466     -11.9133625
7.048                0.992263846     -11.9327443
7.05                  0.99221871     -11.9508212
7.052                0.992173471     -11.9688984
7.054                0.992128129     -11.9869759
7.056                0.992082684     -12.0050537
7.058                0.992052836     -12.0221177
7.06                 0.992022953     -12.0391832
7.062                0.991993034     -12.0562504
7.064                0.991963078     -12.0733191
7.066                0.991956228     -12.0900785
7.068                0.991949351     -12.1068393
7.07                 0.991942448     -12.1236015
7.072                0.991935517     -12.1403652
7.074                0.991950232     -12.1576228
7.076                0.991964992     -12.1748795
7.078                0.991979796     -12.1921353
7.08                 0.991994644     -12.2093902
7.082                0.992022144     -12.2276878
7.084                 0.99204973     -12.2459847
7.086                  0.9920774     -12.2642809
7.088                0.992105156     -12.2825767
7.09                 0.992134518     -12.3020181
7.092                0.992163871     -12.3214598
7.094                0.992193215     -12.3409018
7.096                0.992222551     -12.3603441
7.098                0.992245398     -12.3806954
7.1                    0.9922682      -12.401044
7.102                0.992290957     -12.4213899
7.104                 0.99231367      -12.441733
7.106                0.992326375     -12.4626395
7.108                0.992339151     -12.4835414
7.11                 0.992351999     -12.5044386
7.112                0.992364919     -12.5253311
7.114                0.992367765     -12.5465131
7.116                0.992370732     -12.5676939
7.118                0.992373819     -12.5888733
7.12                 0.992377025     -12.6100516
7.122                0.992370997     -12.6313763
7.124                0.992364987     -12.6527025
7.126                0.992358996     -12.6740303
7.128                0.992353024     -12.6953596
7.13                 0.992337611      -12.716731
7.132                0.992322158     -12.7381021
7.134                0.992306664      -12.759473
7.136                 0.99229113     -12.7808438
7.138                0.992265187     -12.8020668
7.14                 0.992239226     -12.8232888
7.142                0.992213246     -12.8445099
7.144                0.992187248     -12.8657301
7.146                0.992151914      -12.886473
7.148                0.992116499      -12.907218
7.15                 0.992081003     -12.9279651
7.152                0.992045425     -12.9487144
7.154                0.992006055     -12.9686594
7.156                0.991966504     -12.9886076
7.158                0.991926772      -13.008559
7.16                  0.99188686     -13.0285134
7.162                0.991852577     -13.0475539
7.164                0.991818161     -13.0665952
7.166                0.991783612     -13.0856375
7.168                 0.99174893     -13.1046806
7.17                 0.991729385     -13.1230905
7.172                0.991709838     -13.1415007
7.174                0.991690287     -13.1599115
7.176                0.991670733     -13.1783228
7.178                0.991671596     -13.1966977
7.18                 0.991672512     -13.2150742
7.182                 0.99167348     -13.2334524
7.184                0.991674498     -13.2518322
7.186                0.991693797     -13.2708852
7.188                0.991713163     -13.2899389
7.19                 0.991732596     -13.3089933
7.192                0.991752096     -13.3280484
7.194                0.991780809     -13.3482646
7.196                 0.99180962     -13.3684799
7.198                 0.99183853     -13.3886944
7.2                  0.991867536     -13.4089081
7.202                0.991893951     -13.4303522
7.204                0.991920436      -13.451796
7.206                 0.99194699     -13.4732394
7.208                0.991973613     -13.4946823
7.21                 0.991988554     -13.5170316
7.212                0.992003489     -13.5393808
7.214                0.992018421     -13.5617297
7.216                 0.99203335     -13.5840785
7.218                0.992033157     -13.6068252
7.22                 0.992032964     -13.6295709
7.222                0.992032771     -13.6523157
7.224                0.992032579     -13.6750595
7.226                0.992019004     -13.6977625
7.228                0.992005465     -13.7204658
7.23                 0.991991962     -13.7431696
7.232                0.991978495     -13.7658737
7.234                0.991956099     -13.7882951
7.236                 0.99193369     -13.8107191
7.238                0.991911268     -13.8331456
7.24                 0.991888834     -13.8555747
7.242                0.991861617     -13.8776705
7.244                0.991834322     -13.8997679
7.246                0.991806949     -13.9218667
7.248                0.991779497      -13.943967
7.25                 0.991749569     -13.9657461
7.252                0.991719585     -13.9875242
7.254                0.991689544     -14.0093014
7.256                0.991659446     -14.0310775
7.258                0.991628335     -14.0524969
7.26                 0.991597188     -14.0739162
7.262                0.991566004     -14.0953353
7.264                0.991534784     -14.1167544
7.266                0.991505404     -14.1377272
7.268                0.991475925     -14.1587023
7.27                 0.991446347     -14.1796796
7.272                0.991416671     -14.2006591
7.274                0.991394006     -14.2211863
7.276                0.991371225     -14.2417152
7.278                0.991348326     -14.2622457
7.28                 0.991325311     -14.2827779
7.282                 0.99131497     -14.3030709
7.284                0.991304611     -14.3233641
7.286                0.991294234     -14.3436576
7.288                0.991283837     -14.3639513
7.29                  0.99128898     -14.3844543
7.292                0.991294199      -14.404958
7.294                0.991299492     -14.4254624
7.296                 0.99130486     -14.4459675
7.298                 0.99132331     -14.4672152
7.3                  0.991341855     -14.4884639
7.302                0.991360495     -14.5097135
7.304                0.991379232     -14.5309641
7.306                0.991403011     -14.5533352
7.308                0.991426895     -14.5757058
7.31                 0.991450883     -14.5980761
7.312                0.991474975      -14.620446
7.314                0.991493427     -14.6439575
7.316                0.991511983     -14.6674683
7.318                0.991530642     -14.6909783
7.32                 0.991549404     -14.7144876
7.322                0.991553983     -14.7387892
7.324                0.991558597     -14.7630918
7.326                0.991563248     -14.7873953
7.328                0.991567936     -14.8116998
7.33                 0.991555591     -14.8362313
7.332                  0.9915432     -14.8607649
7.334                0.991530765     -14.8853006
7.336                0.991518286     -14.9098385
7.338                0.991491923     -14.9340979
7.34                 0.991465488     -14.9583598
7.342                0.991438983     -14.9826243
7.344                0.991412406     -15.0068912
7.346                0.991378729      -15.030604
7.348                0.991344972     -15.0543196
7.35                 0.991311136      -15.078038
7.352                0.991277222     -15.1017593
7.354                0.991243038     -15.1249353
7.356                0.991208765     -15.1481129
7.358                0.991174404     -15.1712923
7.36                 0.991139955     -15.1944733
7.362                0.991109564     -15.2172868
7.364                0.991079126     -15.2400993
7.366                0.991048639     -15.2629111
7.368                0.991018103      -15.285722
7.37                 0.990992963     -15.3083591
7.372                0.990967836     -15.3309948
7.374                0.990942721     -15.3536291
7.376                0.990917621     -15.3762618
7.378                0.990898191     -15.3988262
7.38                 0.990878759     -15.4213912
7.382                0.990859323     -15.4439568
7.384                0.990839883     -15.4665231
7.386                0.990827225     -15.4890856
7.388                0.990814505     -15.5116497
7.39                 0.990801724     -15.5342157
7.392                0.990788881     -15.5567833
7.394                0.990784718     -15.5794774
7.396                0.990780519     -15.6021721
7.398                0.990776282     -15.6248674
7.4                  0.990772007     -15.6475633
7.402                0.990777244      -15.670646
7.404                0.990782533     -15.6937287
7.406                0.990787872     -15.7168115
7.408                0.990793263     -15.7398943
7.41                 0.990805835     -15.7636936
7.412                0.990818509     -15.7874934
7.414                0.990831285     -15.8112937
7.416                0.990844163     -15.8350945
7.418                0.990858026       -15.85985
7.42                 0.990871997     -15.8846056
7.422                0.990886074     -15.9093612
7.424                0.990900258     -15.9341169
7.426                0.990907116     -15.9598101
7.428                0.990914074     -15.9855027
7.43                 0.990921132     -16.0111949
7.432                0.990928291     -16.0368864
7.434                0.990921258     -16.0631894
7.436                0.990914269     -16.0894934
7.438                0.990907327     -16.1157982
7.44                 0.990900431     -16.1421039
7.442                0.990877412     -16.1684932
7.444                0.990854326     -16.1948856
7.446                0.990831172     -16.2212811
7.448                0.990807952     -16.2476798
7.45                 0.990772487     -16.2736744
7.452                0.990736871     -16.2996726
7.454                0.990701103     -16.3256746
7.456                0.990665184     -16.3516803
7.458                 0.99062482     -16.3770247
7.46                 0.990584306     -16.4023719
7.462                0.990543642     -16.4277218
7.464                0.990502828     -16.4530744
7.466                0.990465542     -16.4778288
7.468                0.990428164     -16.5025842
7.47                 0.990390693     -16.5273407
7.472                0.990353129     -16.5520982
7.474                0.990324203     -16.5765457
7.476                0.990295268     -16.6009923
7.478                0.990266322     -16.6254379
7.48                 0.990237367     -16.6498826
7.482                0.990217948     -16.6743628
7.484                0.990198599     -16.6988411
7.486                 0.99017932     -16.7233174
7.488                 0.99016011     -16.7477919
7.49                 0.990148525     -16.7725476
7.492                0.990137019     -16.7973026
7.494                0.990125593      -16.822057
7.496                0.990114247     -16.8468107
7.498                0.990108226     -16.8719439
7.5                  0.990102216     -16.8970782
7.502                0.990096217     -16.9222136
7.504                 0.99009023     -16.9473499
7.506                0.990088325     -16.9729093
7.508                0.990086388     -16.9984696
7.51                 0.990084417     -17.0240309
7.512                0.990082413     -17.0495931
7.514                0.990083791     -17.0756501
7.516                0.990085177     -17.1017072
7.518                0.990086569     -17.1277643
7.52                 0.990087968     -17.1538216
7.522                0.990090979     -17.1805019
7.524                0.990094059     -17.2071823
7.526                0.990097207     -17.2338629
7.528                0.990100422     -17.2605438
7.53                  0.99010138     -17.2879495
7.532                0.990102425     -17.3153554
7.534                0.990103558     -17.3427617
7.536                0.990104776     -17.3701683
7.538                0.990098377     -17.3982527
7.54                 0.990092052     -17.4263368
7.542                0.990085802     -17.4544207
7.544                0.990079627     -17.4825042
7.546                0.990061238     -17.5110106
7.548                0.990042877      -17.539517
7.55                 0.990024547     -17.5680235
7.552                0.990006247     -17.5965301
7.554                0.989974747     -17.6250356
7.556                0.989943175     -17.6535431
7.558                0.989911532     -17.6820525
7.56                 0.989879816     -17.7105639
7.562                0.989838813     -17.7386653
7.564                0.989797631     -17.7667698
7.566                 0.98975627     -17.7948773
7.568                 0.98971473     -17.8229879
7.57                 0.989671438     -17.8504843
7.572                0.989627953     -17.8779828
7.574                0.989584273     -17.9054834
7.576                  0.9895404     -17.9329861
7.578                0.989502623     -17.9599713
7.58                 0.989464744     -17.9869566
7.582                0.989426762      -18.013942
7.584                0.989388678     -18.0409275
7.586                0.989361605     -18.0677402
7.588                0.989334559     -18.0945512
7.59                 0.989307539     -18.1213608
7.592                0.989280547     -18.1481689
7.594                0.989264833      -18.175223
7.596                0.989249244     -18.2022748
7.598                0.989233781     -18.2293243
7.6                  0.989218445     -18.2563716
7.602                0.989210926     -18.2839779
7.604                0.989203556     -18.3115824
7.606                0.989196334     -18.3391852
7.608                0.989189261     -18.3667863
7.61                 0.989185341     -18.3950571
7.612                0.989181505     -18.4233277
7.614                0.989177753      -18.451598
7.616                0.989174085     -18.4798681
7.618                0.989170088     -18.5087691
7.62                 0.989166086     -18.5376709
7.622                0.989162079     -18.5665733
7.624                0.989158067     -18.5954765
7.626                0.989152031     -18.6249222
7.628                 0.98914596     -18.6543686
7.63                 0.989139854     -18.6838157
7.632                0.989133712     -18.7132634
7.634                 0.98912467     -18.7432068
7.636                0.989115622     -18.7731506
7.638                0.989106568      -18.803095
7.64                 0.989097508     -18.8330399
7.642                0.989084106      -18.863468
7.644                0.989070729     -18.8938963
7.646                0.989057378     -18.9243249
7.648                0.989044051     -18.9547539
7.65                 0.989024013     -18.9856106
7.652                0.989004005     -19.0164665
7.654                0.988984028     -19.0473218
7.656                0.988964081     -19.0781763
7.658                 0.98893515     -19.1092956
7.66                 0.988906227     -19.1404133
7.662                0.988877314     -19.1715293
7.664                0.988848411     -19.2026437
7.666                0.988810336     -19.2337447
7.668                0.988772206     -19.2648446
7.67                 0.988734021     -19.2959434
7.672                 0.98869578     -19.3270413
7.674                 0.98865169     -19.3578375
7.676                0.988607451     -19.3886341
7.678                0.988563061      -19.419431
7.68                 0.988518521     -19.4502283
7.682                0.988474405     -19.4805828
7.684                0.988430098     -19.5109378
7.686                  0.9883856     -19.5412931
7.688                0.988340912      -19.571649
7.69                 0.988303385     -19.6016733
7.692                0.988265745     -19.6316965
7.694                 0.98822799     -19.6617187
7.696                 0.98819012     -19.6917398
7.698                0.988163521      -19.721773
7.7                  0.988136959     -19.7518036
7.702                0.988110432     -19.7818316
7.704                 0.98808394      -19.811857
7.706                0.988068371     -19.8423131
7.708                0.988052966      -19.872766
7.71                 0.988037726     -19.9032156
7.712                 0.98802265      -19.933662
7.714                0.988014144     -19.9648634
7.716                0.988005844     -19.9960617
7.718                0.987997749     -20.0272569
7.72                 0.987989861     -20.0584491
7.722                0.987982659     -20.0904936
7.724                0.987975607      -20.122536
7.726                0.987968705     -20.1545762
7.728                0.987961953     -20.1866143
7.73                 0.987951138     -20.2194043
7.732                0.987940359     -20.2521938
7.734                0.987929615     -20.2849827
7.736                0.987918907      -20.317771
7.738                0.987902078     -20.3511044
7.74                 0.987885181     -20.3844384
7.742                0.987868218      -20.417773
7.744                0.987851187     -20.4511083
7.746                0.987828184     -20.4848095
7.748                0.987805074     -20.5185116
7.75                 0.987781858     -20.5522147
7.752                0.987758535     -20.5859186
7.754                0.987730108     -20.6198945
7.756                0.987701596     -20.6538702
7.758                0.987672997     -20.6878459
7.76                 0.987644312     -20.7218215
7.762                0.987610825     -20.7560319
7.764                0.987577297     -20.7902401
7.766                0.987543731     -20.8244461
7.768                0.987510126     -20.8586498
7.77                 0.987471382     -20.8930249
7.772                0.987432638     -20.9273954
7.774                0.987393894     -20.9617614
7.776                 0.98735515     -20.9961227
7.778                0.987311559     -21.0305299
7.78                 0.987267963     -21.0649318
7.782                0.987224362     -21.0993282
7.784                0.987180758     -21.1337192
7.786                0.987134541     -21.1680045
7.788                0.987088258     -21.2022855
7.79                 0.987041908     -21.2365623
7.792                0.986995491     -21.2708349
