! TOUCHSTONE file generated by CST DESIGN STUDIO
! Date and time: Mon Feb 10 16:47:06 2025
! Project name: C:\Work\MatlabApps\UnitCellType2OptimizationMatlab\CST\unitcell.cst
! Tree item: Tasks\Sweep1\SPara1\S-Parameters
! Header version: 2024
! Port assignment regex: !\s*Touchstone port\s*([0-9]+)\s*=\s*(CST MWS port|CST DES external port|CST DES block port)\s*(.+)\s* \(\"(.*)\"\)(\s*mode\s*([0-9]+))?.*
! Touchstone port assignment:
! Touchstone port 1 = CST DES external port 1 ("")
# GHz S MA R 50
7                    0.987980142     -5.31856553
7.002                0.987980548     -5.34838787
7.004                0.987981752     -5.37815447
7.006                0.987983746     -5.40786566
7.008                0.987986523     -5.43752173
7.01                 0.987996681     -5.46620748
7.012                 0.98800623     -5.49483884
7.014                0.988015176     -5.52341649
7.016                0.988023526     -5.55194117
7.018                0.988036184     -5.58076556
7.02                 0.988048588     -5.60950966
7.022                0.988060739     -5.63817426
7.024                0.988072637     -5.66676015
7.026                0.988066729     -5.69582953
7.028                  0.9880609     -5.72483737
7.03                  0.98805515     -5.75378411
7.032                0.988049478     -5.78267021
7.034                0.988012825     -5.81074149
7.036                0.987975231     -5.83877241
7.038                0.987936707     -5.86676329
7.04                 0.987897261     -5.89471436
7.042                0.987840153     -5.92010802
7.044                0.987781887     -5.94544678
7.046                0.987722475      -5.9707311
7.048                 0.98766193     -5.99596121
7.05                 0.987618752     -6.01786984
7.052                0.987575374      -6.0397273
7.054                0.987531798     -6.06153421
7.056                0.987488028     -6.08329117
7.058                0.987500269     -6.10275338
7.06                 0.987512447     -6.12219133
7.062                0.987524557      -6.1416055
7.064                  0.9875366     -6.16099611
7.066                0.987623205     -6.18069778
7.068                0.987709273     -6.20036974
7.07                 0.987794806     -6.22001232
7.072                0.987879809     -6.23962587
7.074                0.988020699     -6.26240095
7.076                0.988161441      -6.2851168
7.078                0.988302036     -6.30777408
7.08                 0.988442486     -6.33037365
7.082                0.988590275     -6.35751355
7.084                0.988738264       -6.384588
7.086                0.988886451      -6.4115977
7.088                0.989034831     -6.43854367
7.09                  0.98914206     -6.46916381
7.092                0.989248773     -6.49971634
7.094                0.989354975     -6.53020184
7.096                0.989460672     -6.56062087
7.098                 0.98950224     -6.59235366
7.1                  0.989543182     -6.62399578
7.102                0.989583513     -6.65554788
7.104                0.989623242     -6.68701074
7.106                0.989606495     -6.71737678
7.108                0.989590237     -6.74765634
7.11                  0.98957447     -6.77785037
7.112                 0.98955919     -6.80795977
7.114                0.989516109     -6.83566712
7.116                0.989473823     -6.86333253
7.118                0.989432326     -6.89095634
7.12                 0.989391613     -6.91853872
7.122                0.989354601     -6.94392414
7.124                0.989317457     -6.96928875
7.126                0.989280182     -6.99463275
7.128                0.989242778     -7.01995624
7.13                  0.98922423     -7.04426224
7.132                 0.98920522     -7.06852901
7.134                0.989185752       -7.092757
7.136                0.989165827     -7.11694662
7.138                   0.989158     -7.14113319
7.14                 0.989150152      -7.1652758
7.142                0.989142282     -7.18937477
7.144                0.989134389     -7.21343039
7.146                 0.98912477     -7.23748254
7.148                 0.98911478     -7.26151044
7.15                  0.98910442     -7.28551428
7.152                0.989093695     -7.30949421
7.154                0.989079126     -7.33266669
7.156                0.989063482     -7.35581564
7.158                0.989046769     -7.37894114
7.16                 0.989028998     -7.40204317
7.162                0.989021849     -7.42367539
7.164                 0.98901399     -7.44527129
7.166                0.989005427     -7.46683116
7.168                0.988996166     -7.48835528
7.17                  0.98901897     -7.50873403
7.172                0.989041829     -7.52908421
7.174                0.989064738     -7.54940624
7.176                0.989087699     -7.56970041
7.178                0.989156112     -7.59028884
7.18                 0.989224668     -7.61085915
7.182                0.989293365     -7.63141149
7.184                0.989362203     -7.65194604
7.186                0.989467867     -7.67468978
7.188                0.989573635     -7.69740342
7.19                 0.989679508     -7.72008729
7.192                0.989785485     -7.74274185
7.194                0.989896294     -7.76879717
7.196                0.990007451      -7.7948089
7.198                0.990118954     -7.82077743
7.2                  0.990230798     -7.84670342
7.202                0.990308563     -7.87563692
7.204                0.990386469     -7.90452788
7.206                0.990464516     -7.93337663
7.208                0.990542701     -7.96218351
7.21                 0.990563552     -7.99217751
7.212                0.990584039     -8.02212677
7.214                0.990604172     -8.05203149
7.216                0.990623954     -8.08189197
7.218                0.990589596     -8.11071239
7.22                 0.990555057     -8.13948566
7.222                0.990520342     -8.16821222
7.224                0.990485453     -8.19689242
7.226                0.990421401     -8.22302972
7.228                 0.99035758     -8.24913877
7.23                 0.990293989     -8.27521982
7.232                0.990230628     -8.30127297
7.234                0.990170973     -8.32461888
7.236                0.990111284     -8.34795651
7.238                0.990051563     -8.37128595
7.24                 0.989991811     -8.39460707
7.242                0.989959129     -8.41625876
7.244                0.989926056      -8.4378956
7.246                0.989892593     -8.45951776
7.248                0.989858742     -8.48112539
7.25                 0.989855007      -8.5024734
7.252                0.989851154     -8.52379332
7.254                 0.98984718     -8.54508537
7.256                0.989843087     -8.56634974
7.258                0.989856536     -8.58818411
7.26                 0.989869985     -8.60999746
7.262                0.989883434      -8.6317899
7.264                0.989896882      -8.6535616
7.266                0.989915482     -8.67581696
7.268                0.989933523     -8.69805943
7.27                 0.989951009     -8.72028905
7.272                0.989967944     -8.74250588
7.274                0.989988858     -8.76469216
7.276                0.990009005     -8.78685578
7.278                0.990028391     -8.80899682
7.28                 0.990047021     -8.83111536
7.282                0.990078062     -8.85301351
7.284                0.990108931     -8.87488358
7.286                0.990139627     -8.89672585
7.288                0.990170152     -8.91854054
7.29                 0.990221509     -8.94066954
7.292                0.990273189     -8.96277995
7.294                 0.99032519     -8.98487195
7.296                 0.99037751      -9.0069457
7.298                0.990448426     -9.03038723
7.3                  0.990519691     -9.05381283
7.302                0.990591301     -9.07722262
7.304                0.990663256     -9.10061685
7.306                0.990735826     -9.12623826
7.308                0.990808775     -9.15183454
7.31                 0.990882101     -9.17740589
7.312                0.990955799      -9.2029527
7.314                0.991003215     -9.23061902
7.316                0.991050999     -9.25825757
7.318                0.991099149     -9.28586851
7.32                 0.991147663     -9.31345201
7.322                0.991150296     -9.34190319
7.324                0.991152881      -9.3703323
7.326                0.991155423     -9.39873943
7.328                0.991157923     -9.42712471
7.33                 0.991114964     -9.45455696
7.332                0.991071585     -9.48197005
7.334                0.991027792     -9.50936412
7.336                0.990983585     -9.53673927
7.338                0.990914607     -9.56174334
7.34                  0.99084528     -9.58673395
7.342                0.990775605     -9.61171126
7.344                0.990705585      -9.6366752
7.346                0.990641252     -9.65894411
7.348                0.990576675        -9.68121
7.35                 0.990511856     -9.70347294
7.352                0.990446795     -9.72573299
7.354                0.990412484     -9.74617554
7.356                0.990377904     -9.76661491
7.358                0.990343053     -9.78705135
7.36                  0.99030793     -9.80748489
7.362                0.990311321     -9.82761169
7.364                 0.99031466      -9.8477246
7.366                0.990317944     -9.86782373
7.368                0.990321173     -9.88790917
7.37                 0.990352137     -9.90894648
7.372                0.990383331     -9.92996718
7.374                0.990414753     -9.95097136
7.376                0.990446402     -9.97195919
7.378                0.990487743     -9.99429434
7.38                 0.990529052      -10.016619
7.382                0.990570329     -10.0389332
7.384                0.990611575     -10.0612372
7.386                0.990650514     -10.0845216
7.388                0.990688961     -10.1077925
7.39                  0.99072692     -10.1310497
7.392                0.990764393     -10.1542935
7.394                0.990798285     -10.1779809
7.396                0.990831822     -10.2016463
7.398                0.990865007     -10.2252898
7.4                  0.990897845     -10.2489114
7.402                0.990931831     -10.2728188
7.404                 0.99096598     -10.2967072
7.406                0.991000293     -10.3205768
7.408                0.991034768     -10.3444278
7.41                 0.991072685     -10.3689069
7.412                0.991111001     -10.3933751
7.414                0.991149716     -10.4178326
7.416                0.991188828     -10.4422796
7.418                 0.99122474     -10.4678501
7.42                 0.991261039     -10.4934083
7.422                0.991297725     -10.5189543
7.424                0.991334793     -10.5444884
7.426                0.991353777     -10.5712119
7.428                0.991373137     -10.5979186
7.43                  0.99139287     -10.6246086
7.432                0.991412976      -10.651282
7.434                0.991401264     -10.6784318
7.436                0.991389684     -10.7055692
7.438                0.991378236      -10.732694
7.44                  0.99136692     -10.7598065
7.442                0.991322732     -10.7861119
7.444                0.991278161     -10.8124122
7.446                 0.99123321     -10.8387074
7.448                 0.99118788     -10.8649976
7.45                 0.991125094     -10.8893295
7.452                0.991061633     -10.9136596
7.454                0.990997499      -10.937988
7.456                0.990932696     -10.9623145
7.458                0.990875842     -10.9843296
7.46                 0.990818439     -11.0063456
7.462                0.990760489     -11.0283623
7.464                0.990701993     -11.0503799
7.466                 0.99067421     -11.0707877
7.468                0.990646173     -11.0911968
7.47                 0.990617878     -11.1116073
7.472                0.990589327     -11.1320192
7.474                0.990600357     -11.1522277
7.476                0.990611479     -11.1724319
7.478                0.990622693      -11.192632
7.48                 0.990633997     -11.2128279
7.482                0.990675756     -11.2341943
7.484                0.990717934      -11.255551
7.486                 0.99076053      -11.276898
7.488                0.990803543     -11.2982355
7.49                 0.990857007     -11.3213982
7.492                0.990910837     -11.3445522
7.494                0.990965031     -11.3676977
7.496                0.991019587     -11.3908347
7.498                0.991066339     -11.4155521
7.5                  0.991112994     -11.4402609
7.502                0.991159556     -11.4649612
7.504                0.991206024      -11.489653
7.506                0.991236836     -11.5151878
7.508                0.991267298     -11.5407087
7.51                 0.991297413     -11.5662156
7.512                0.991327182     -11.5917086
7.514                0.991343533     -11.6173987
7.516                0.991359777     -11.6430739
7.518                0.991375916     -11.6687343
7.52                 0.991391949       -11.69438
7.522                0.991400397     -11.7200193
7.524                0.991409058     -11.7456506
7.526                0.991417932      -11.771274
7.528                0.991427018     -11.7968895
7.53                 0.991430806     -11.8226786
7.532                0.991434901     -11.8484629
7.534                  0.9914393     -11.8742426
7.536                0.991444003     -11.9000176
7.538                0.991439019     -11.9261368
7.54                 0.991434342     -11.9522476
7.542                0.991429969     -11.9783499
7.544                0.991425901     -12.0044438
7.546                0.991404781     -12.0306512
7.548                0.991383856     -12.0568502
7.55                 0.991363126     -12.0830409
7.552                 0.99134259     -12.1092231
7.554                 0.99130322     -12.1348137
7.556                0.991263628      -12.160403
7.558                0.991223816      -12.185991
7.56                 0.991183784     -12.2115776
7.562                 0.99113446     -12.2357857
7.564                0.991084441     -12.2599978
7.566                0.991033727     -12.2842137
7.568                0.990982322     -12.3084334
7.57                 0.990940156     -12.3309684
7.572                0.990897236     -12.3535074
7.574                0.990853564     -12.3760504
7.576                0.990809141     -12.3985974
7.578                0.990792141     -12.4199618
7.58                 0.990774782     -12.4413288
7.582                0.990757064     -12.4626984
7.584                0.990738986     -12.4840707
7.586                 0.99075614      -12.505425
7.588                0.990773471     -12.5267795
7.59                 0.990790977     -12.5481342
7.592                0.990808658     -12.5694892
7.594                0.990853924     -12.5920892
7.596                 0.99089978     -12.6146858
7.598                0.990946226     -12.6372789
7.6                  0.990993262     -12.6598686
7.602                0.991048644     -12.6844229
7.604                0.991104681      -12.708972
7.606                 0.99116137     -12.7335161
7.608                0.991218709     -12.7580553
7.61                 0.991263991      -12.784409
7.612                0.991309553     -12.8107572
7.614                0.991355397     -12.8371001
7.616                0.991401519     -12.8634377
7.618                0.991424139     -12.8907783
7.62                  0.99144657     -12.9181119
7.622                0.991468816     -12.9454384
7.624                0.991490877     -12.9727577
7.626                0.991490131     -13.0001405
7.628                0.991489067     -13.0275157
7.63                 0.991487687     -13.0548832
7.632                0.991485993     -13.0822431
7.634                0.991470068     -13.1090924
7.636                0.991453999     -13.1359384
7.638                0.991437787     -13.1627811
7.64                 0.991421429     -13.1896207
7.642                0.991399834     -13.2158922
7.644                0.991378286      -13.242163
7.646                0.991356787     -13.2684329
7.648                0.991335338     -13.2947016
7.65                   0.9913125     -13.3206438
7.652                0.991289865     -13.3465826
7.654                0.991267434     -13.3725182
7.656                0.991245205     -13.3984507
7.658                0.991219787       -13.42423
7.66                 0.991194601     -13.4500042
7.662                0.991169646     -13.4757732
7.664                0.991144919      -13.501537
7.666                0.991114677     -13.5269857
7.668                0.991084428     -13.5524324
7.67                 0.991054171     -13.5778771
7.672                0.991023907     -13.6033197
7.674                0.990991726     -13.6280513
7.676                 0.99095907     -13.6527865
7.678                0.990925938     -13.6775255
7.68                 0.990892334     -13.7022681
7.682                  0.9908676      -13.726069
7.684                0.990842116     -13.7498753
7.686                0.990815883      -13.773687
7.688                0.990788903     -13.7975039
7.69                  0.99078332     -13.8206716
7.692                0.990777239     -13.8438425
7.694                0.990770656     -13.8670167
7.696                0.990763573     -13.8901941
7.698                0.990783737     -13.9135547
7.7                  0.990804015     -13.9369165
7.702                0.990824407     -13.9602795
7.704                0.990844911     -13.9836436
7.706                 0.99088659     -14.0081984
7.708                0.990928947     -14.0327532
7.71                  0.99097198     -14.0573078
7.712                 0.99101569     -14.0818624
7.714                0.991063855     -14.1082549
7.716                0.991112892     -14.1346456
7.718                0.991162799     -14.1610347
7.72                 0.991213574     -14.1874221
7.722                 0.99124947     -14.2155527
7.724                0.991285976     -14.2436803
7.726                0.991323089     -14.2718049
7.728                0.991360809     -14.2999265
7.73                 0.991371292     -14.3290112
7.732                0.991381834     -14.3580934
7.734                0.991392439     -14.3871729
7.736                0.991403105     -14.4162498
7.738                0.991386553     -14.4452432
7.74                 0.991369588      -14.474236
7.742                0.991352212     -14.5032281
7.744                0.991334426     -14.5322196
7.746                0.991299859     -14.5603442
7.748                0.991264742     -14.5884709
7.75                 0.991229076     -14.6165995
7.752                 0.99119286     -14.6447302
7.754                0.991153603     -14.6717852
7.756                0.991113983     -14.6988433
7.758                0.991073998     -14.7259045
7.76                 0.991033651     -14.7529687
7.762                0.990999857     -14.7792658
7.764                0.990966042     -14.8055634
7.766                0.990932203     -14.8318615
7.768                0.990898342       -14.85816
7.77                 0.990873056     -14.8841691
7.772                0.990848043     -14.9101748
7.774                0.990823301     -14.9361769
7.776                0.990798831     -14.9621755
7.778                0.990779945     -14.9881664
7.78                 0.990761348     -15.0141537
7.782                0.990743043     -15.0401374
7.784                0.990725028     -15.0661174
7.786                0.990710646      -15.092061
7.788                0.990696198     -15.1180056
7.79                 0.990681685     -15.1439509
7.792                0.990667106     -15.1698972
