! TOUCHSTONE file generated by CST DESIGN STUDIO
! Date and time: Mon Feb 10 16:46:49 2025
! Project name: C:\Work\MatlabApps\UnitCellType2OptimizationMatlab\CST\unitcell.cst
! Tree item: Tasks\Sweep1\SPara1\S-Parameters
! Header version: 2024
! Port assignment regex: !\s*Touchstone port\s*([0-9]+)\s*=\s*(CST MWS port|CST DES external port|CST DES block port)\s*(.+)\s* \(\"(.*)\"\)(\s*mode\s*([0-9]+))?.*
! Touchstone port assignment:
! Touchstone port 1 = CST DES external port 1 ("")
# GHz S MA R 50
7                    0.994232957     -14.8257761
7.002                0.994247809     -14.8466542
7.004                0.994262716     -14.8675332
7.006                0.994277677      -14.888413
7.008                0.994292693     -14.9092938
7.01                 0.994314704     -14.9311595
7.012                0.994336797     -14.9530258
7.014                0.994358973     -14.9748929
7.016                0.994381231     -14.9967609
7.018                0.994402843     -15.0197369
7.02                 0.994424554     -15.0427143
7.022                0.994446363     -15.0656931
7.024                0.994468271     -15.0886733
7.026                0.994481608     -15.1126617
7.028                0.994495031     -15.1366529
7.03                 0.994508543     -15.1606467
7.032                0.994522143     -15.1846433
7.034                0.994520942     -15.2093269
7.036                0.994519791     -15.2340143
7.038                0.994518689     -15.2587056
7.04                 0.994517637     -15.2834008
7.042                0.994499054     -15.3083223
7.044                0.994480468     -15.3332486
7.046                0.994461881     -15.3581798
7.048                 0.99444329     -15.3831158
7.05                 0.994408757     -15.4077945
7.052                0.994374163     -15.4324787
7.054                0.994339509     -15.4571683
7.056                0.994304795     -15.4818633
7.058                0.994259602     -15.5059249
7.06                 0.994214294     -15.5299913
7.062                0.994168872     -15.5540626
7.064                0.994123336     -15.5781387
7.066                0.994075131     -15.6014099
7.068                0.994026788     -15.6246845
7.07                 0.993978305     -15.6479625
7.072                0.993929684     -15.6712439
7.074                0.993886352     -15.6937796
7.076                0.993842894     -15.7163177
7.078                0.993799311      -15.738858
7.08                 0.993755603     -15.7614007
7.082                0.993723387     -15.7834593
7.084                0.993691081     -15.8055196
7.086                0.993658685     -15.8275818
7.088                0.993626199     -15.8496456
7.09                 0.993608487     -15.8715968
7.092                0.993590727     -15.8935492
7.094                0.993572917     -15.9155027
7.096                0.993555058     -15.9374575
7.098                0.993552048     -15.9597068
7.1                  0.993549038      -15.981957
7.102                0.993546026     -16.0042082
7.104                0.993543013     -16.0264603
7.106                 0.99355205     -16.0493683
7.108                0.993561134     -16.0722777
7.11                 0.993570262     -16.0951884
7.112                0.993579435     -16.1181005
7.114                0.993595683     -16.1419237
7.116                0.993612006     -16.1657489
7.118                0.993628403      -16.189576
7.12                 0.993644874     -16.2134052
7.122                0.993662042      -16.238268
7.124                0.993679295     -16.2631333
7.126                0.993696635     -16.2880008
7.128                0.993714059     -16.3128708
7.13                  0.99372539     -16.3387266
7.132                0.993736805     -16.3645855
7.134                0.993748304     -16.3904477
7.136                0.993759887     -16.4163131
7.138                0.993759444     -16.4429506
7.14                  0.99375906      -16.469593
7.142                0.993758738       -16.49624
7.144                0.993758477     -16.5228918
7.146                0.993742463      -16.549949
7.148                0.993726459     -16.5770122
7.15                 0.993710464     -16.6040812
7.152                0.993694479     -16.6311561
7.154                0.993662383     -16.6581996
7.156                0.993630233     -16.6852493
7.158                 0.99359803     -16.7123052
7.16                 0.993565772     -16.7393672
7.162                  0.9935209     -16.7659736
7.164                0.993475921     -16.7925858
7.166                0.993430833     -16.8192039
7.168                0.993385636     -16.8458279
7.17                  0.99333451     -16.8717313
7.172                 0.99328324     -16.8976396
7.174                0.993231826     -16.9235529
7.176                0.993180268     -16.9494712
7.178                0.993131071     -16.9746063
7.18                 0.993081724     -16.9997449
7.182                0.993032229     -17.0248871
7.184                0.992982584     -17.0500329
7.186                 0.99294292     -17.0745904
7.188                0.992903137     -17.0991504
7.19                 0.992863236     -17.1237128
7.192                0.992823215     -17.1482775
7.194                0.992798095     -17.1726251
7.196                0.992772908     -17.1969748
7.198                0.992747654     -17.2213264
7.2                  0.992722333       -17.24568
7.202                0.992712961     -17.2702725
7.204                0.992703572      -17.294867
7.206                0.992694166     -17.3194633
7.208                0.992684743     -17.3440615
7.21                 0.992688589       -17.36932
7.212                0.992692463     -17.3945804
7.214                0.992696364     -17.4198427
7.216                0.992700292     -17.4451068
7.218                0.992712089     -17.4713154
7.22                 0.992723951     -17.4975264
7.222                0.992735878     -17.5237398
7.224                 0.99274787     -17.5499556
7.226                0.992761011     -17.5772333
7.228                0.992774238     -17.6045145
7.23                  0.99278755     -17.6317993
7.232                0.992800948     -17.6590878
7.234                0.992808906     -17.6873783
7.236                0.992816945     -17.7156735
7.238                0.992825065     -17.7439735
7.24                 0.992833264     -17.7722783
7.242                0.992830657     -17.8013831
7.244                0.992828106     -17.8304937
7.246                 0.99282561       -17.85961
7.248                0.992823169      -17.888732
7.25                 0.992806506     -17.9183391
7.252                0.992789857     -17.9479531
7.254                0.992773223     -17.9775741
7.256                0.992756605      -18.007202
7.258                0.992724987     -18.0369437
7.26                 0.992693326      -18.066693
7.262                0.992661623     -18.0964502
7.264                0.992629878      -18.126215
7.266                0.992585227     -18.1557193
7.268                0.992540469      -18.185231
7.27                 0.992495606     -18.2147501
7.272                0.992450636     -18.2442765
7.274                0.992397735      -18.273246
7.276                0.992344683     -18.3022217
7.278                0.992291479     -18.3312037
7.28                 0.992238124     -18.3601919
7.282                 0.99218394     -18.3884798
7.284                0.992129592     -18.4167727
7.286                0.992075078     -18.4450706
7.288                  0.9920204     -18.4733736
7.29                 0.991972592     -18.5010458
7.292                0.991924636      -18.528722
7.294                0.991876533     -18.5564021
7.296                0.991828281     -18.5840862
7.298                0.991793296     -18.6114248
7.3                  0.991758206     -18.6387664
7.302                0.991723011      -18.666111
7.304                0.991687713     -18.6934588
7.306                0.991668861     -18.7209015
7.308                0.991649964     -18.7483469
7.31                 0.991631023     -18.7757951
7.312                0.991612039     -18.8032462
7.314                0.991608491     -18.8312712
7.316                0.991604957     -18.8592993
7.318                0.991601436     -18.8873304
7.32                 0.991597928     -18.9153646
7.322                0.991604941     -18.9443705
7.324                 0.99161201     -18.9733801
7.326                0.991619135     -19.0023933
7.328                0.991626314       -19.03141
7.33                 0.991636669     -19.0615938
7.332                0.991647105     -19.0917822
7.334                0.991657622      -19.121975
7.336                0.991668219     -19.1521723
7.338                0.991674178     -19.1835182
7.34                 0.991680222     -19.2148702
7.342                0.991686351     -19.2462283
7.344                0.991692565     -19.2775924
7.346                0.991687787     -19.3098781
7.348                0.991683068     -19.3421716
7.35                 0.991678409     -19.3744727
7.352                0.991673809     -19.4067816
7.354                0.991654548     -19.4396703
7.356                0.991635294     -19.4725678
7.358                0.991616049     -19.5054742
7.36                 0.991596814     -19.5383893
7.362                0.991562356     -19.5714942
7.364                0.991527848     -19.6046084
7.366                0.991493291      -19.637732
7.368                0.991458686     -19.6708649
7.37                 0.991411101     -19.7038351
7.372                0.991363411     -19.7368146
7.374                0.991315614     -19.7698036
7.376                0.991267712     -19.8028019
7.378                 0.99121135     -19.8353647
7.38                 0.991154831      -19.867936
7.382                0.991098156     -19.9005157
7.384                0.991041322      -19.933104
7.386                0.990982129     -19.9651174
7.388                0.990922749     -19.9971376
7.39                 0.990863184     -20.0291647
7.392                0.990803432     -20.0611988
7.394                0.990748031     -20.0926746
7.396                0.990692451     -20.1241558
7.398                0.990636693     -20.1556426
7.4                  0.990580757     -20.1871348
7.402                0.990535406     -20.2182557
7.404                0.990489916     -20.2493815
7.406                0.990444285     -20.2805119
7.408                0.990398513     -20.3116471
7.41                 0.990367694     -20.3427599
7.412                0.990336789     -20.3738771
7.414                0.990305799     -20.4049986
7.416                0.990274723     -20.4361246
7.418                0.990259687     -20.4676794
7.42                 0.990244629     -20.4992386
7.422                0.990229548     -20.5308022
7.424                0.990214447     -20.5623704
7.426                0.990212535     -20.5948198
7.428                0.990210661     -20.6272743
7.43                 0.990208826      -20.659734
7.432                 0.99020703     -20.6921989
7.434                0.990211957     -20.7258741
7.436                0.990216964     -20.7595559
7.438                0.990222049      -20.793244
7.44                 0.990227213     -20.8269385
7.442                 0.99023065     -20.8619438
7.444                0.990234176     -20.8969571
7.446                0.990237789     -20.9319783
7.448                 0.99024149     -20.9670074
7.45                 0.990235291     -21.0032042
7.452                0.990229158     -21.0394106
7.454                0.990223091     -21.0756268
7.456                 0.99021709     -21.1118528
7.458                0.990195552     -21.1488848
7.46                 0.990174028     -21.1859282
7.462                0.990152516     -21.2229831
7.464                0.990131018     -21.2600495
7.466                0.990092171      -21.297467
7.468                0.990053261     -21.3348968
7.47                  0.99001429     -21.3723388
7.472                0.989975258     -21.4097931
7.474                0.989921121     -21.4471555
7.476                0.989866852     -21.4845298
7.478                0.989812451     -21.5219161
7.48                 0.989757918     -21.5593145
7.482                0.989693575      -21.596306
7.484                0.989629051     -21.6333086
7.486                0.989564347     -21.6703224
7.488                0.989499461     -21.7073474
7.49                  0.98943156     -21.7438313
7.492                0.989363452     -21.7803251
7.494                0.989295137     -21.8168287
7.496                0.989226614     -21.8533423
7.498                0.989161891     -21.8893499
7.5                  0.989096958     -21.9253657
7.502                0.989031814     -21.9613897
7.504                0.988966459     -21.9974219
7.506                0.988910661     -22.0331487
7.508                0.988854682     -22.0688823
7.51                 0.988798518     -22.1046227
7.512                0.988742171     -22.1403699
7.514                0.988699362     -22.1761144
7.516                0.988656425     -22.2118653
7.518                0.988613357     -22.2476226
7.52                 0.988570159     -22.2833863
7.522                0.988542062     -22.3195348
7.524                  0.9885139       -22.35569
7.526                0.988485672      -22.391852
7.528                 0.98845738     -22.4280208
7.53                  0.98844284     -22.4649863
7.532                0.988428299     -22.5019593
7.534                0.988413758     -22.5389398
7.536                0.988399217      -22.575928
7.538                0.988393868     -22.6140745
7.54                 0.988388575     -22.6522298
7.542                0.988383339     -22.6903939
7.544                 0.98837816     -22.7285669
7.546                0.988374874     -22.7681272
7.548                0.988371678     -22.8076986
7.55                 0.988368571     -22.8472807
7.552                0.988365554     -22.8868738
7.554                0.988355807     -22.9278466
7.556                0.988346139     -22.9688325
7.558                 0.98833655     -23.0098316
7.56                 0.988327039     -23.0508438
7.562                0.988303106     -23.0929812
7.564                0.988279194     -23.1351334
7.566                0.988255304     -23.1773007
7.568                0.988231434      -23.219483
7.57                 0.988188662     -23.2623347
7.572                0.988145823     -23.3052025
7.574                0.988102916     -23.3480864
7.576                0.988059943     -23.3909864
7.578                0.987998232     -23.4340215
7.58                 0.987936356     -23.4770727
7.582                0.987874319     -23.5201399
7.584                 0.98781212     -23.5632233
7.586                0.987736032     -23.6059821
7.588                 0.98765971     -23.6487558
7.59                 0.987583152     -23.6915446
7.592                0.987506359     -23.7343485
7.594                0.987423722     -23.7765707
7.596                 0.98734082     -23.8188065
7.598                0.987257651     -23.8610558
7.6                  0.987174215     -23.9033186
7.602                0.987093756     -23.9450077
7.604                0.987013037     -23.9867089
7.606                0.986932059     -24.0284221
7.608                0.986850823     -24.0701474
7.61                 0.986779824     -24.1115326
7.612                0.986708597     -24.1529284
7.614                 0.98663714      -24.194335
7.616                0.986565454     -24.2357522
7.618                0.986508347     -24.2772194
7.62                  0.98645106     -24.3186963
7.622                0.986393591     -24.3601829
7.624                0.986335941     -24.4016792
7.626                0.986293924     -24.4436522
7.628                0.986251789     -24.4856348
7.63                 0.986209537      -24.527627
7.632                0.986167167      -24.569629
7.634                0.986138578     -24.6125088
7.636                0.986109941     -24.6553993
7.638                0.986081256     -24.6983006
7.64                 0.986052522     -24.7412127
7.642                0.986033304     -24.7853308
7.644                  0.9860141     -24.8294614
7.646                0.985994909     -24.8736045
7.648                0.985975732     -24.9177604
7.65                 0.985959934      -24.963339
7.652                0.985944195     -25.0089325
7.654                0.985928514     -25.0545408
7.656                0.985912894     -25.1001641
7.658                0.985893187     -25.1472855
7.66                 0.985873552     -25.1944248
7.662                0.985853991     -25.2415819
7.664                0.985834505     -25.2887568
7.666                0.985803242     -25.3373028
7.668                0.985772015     -25.3858693
7.67                 0.985740822     -25.4344564
7.672                0.985709664     -25.4830641
7.674                0.985660489     -25.5327026
7.676                0.985611252     -25.5823633
7.678                0.985561954     -25.6320462
7.68                 0.985512593     -25.6817513
7.682                0.985442487     -25.7319779
7.684                0.985372194     -25.7822266
7.686                0.985301713     -25.8324974
7.688                0.985231044     -25.8827904
7.69                 0.985141768      -25.933048
7.692                 0.98505219     -25.9833264
7.694                0.984962312     -26.0336256
7.696                0.984872133     -26.0839456
7.698                0.984770435      -26.133793
7.7                  0.984668374     -26.1836592
7.702                0.984565948     -26.2335443
7.704                0.984463157     -26.2834484
7.706                0.984359049     -26.3326937
7.708                0.984254575     -26.3819562
7.71                 0.984149735     -26.4312358
7.712                0.984044529     -26.4805327
7.714                0.983948401     -26.5293291
7.716                0.983851955     -26.5781415
7.718                 0.98375519     -26.6269699
7.72                 0.983658108     -26.6758144
7.722                 0.98357754     -26.7245887
7.724                0.983496723     -26.7733783
7.726                0.983415659     -26.8221833
7.728                0.983334346     -26.8710038
7.73                 0.983272083     -26.9203427
7.732                0.983209648     -26.9696968
7.734                0.983147038     -27.0190662
7.736                0.983084252     -27.0684508
7.738                0.983038236     -27.1188987
7.74                 0.982992115     -27.1693626
7.742                0.982945889     -27.2198424
7.744                0.982899558     -27.2703382
7.746                  0.9828641     -27.3222983
7.748                0.982828598     -27.3742763
7.75                 0.982793052     -27.4262721
7.752                0.982757463     -27.4782859
7.754                 0.98272525     -27.5319674
7.756                0.982693039     -27.5856698
7.758                 0.98266083     -27.6393931
7.76                 0.982628623     -27.6931373
7.762                0.982592109     -27.7485753
7.764                0.982555616     -27.8040381
7.766                0.982519146     -27.8595255
7.768                0.982482697     -27.9150375
7.77                 0.982434964     -27.9721032
7.772                0.982387233     -28.0291973
7.774                0.982339506     -28.0863198
7.776                0.982291784     -28.1434708
7.778                0.982227186     -28.2019009
7.78                 0.982162518     -28.2603624
7.782                 0.98209778     -28.3188552
7.784                0.982032974     -28.3773794
7.786                0.981947729     -28.4367789
7.788                0.981862283     -28.4962106
7.79                 0.981776636     -28.5556746
7.792                0.981690786     -28.6151708
